
SetupTitle, I/V Sweep
PrimitiveTest, I/V Sweep
TestParameter, Context.MainFrame, B1500A
TestParameter, Channel.UnitType, SMU, SMU, SMU, SMU, SMU
TestParameter, Channel.Unit, SMU1:HP, SMU2:MP, SMU3:MP, SMU4:MP, SMU5:MP
TestParameter, Channel.IName, I, IDD1, IDD2, ISS, IPP
TestParameter, Channel.VName, V, VDD1, VDD2, VSS, VPP
TestParameter, Channel.Mode, V, V, V, V, V
TestParameter, Channel.Func, VAR1, CONST, CONST, CONST, CONST
TestParameter, Channel.Index, 
TestParameter, Channel.Time, 
TestParameter, Measurement.Port.Unit, SMU1:HP, SMU2:MP, SMU3:MP, SMU4:MP, SMU5:MP
TestParameter, Measurement.Port.SeriesResistor, NONE, NONE, NONE, NONE, NONE
TestParameter, Measurement.Port.Filter, ON, ON, ON, ON, ON
TestParameter, Measurement.Port.OutputVoltageComparison, 0, 0, 0, 0, 0
TestParameter, Measurement.Primary.Locus, Single
TestParameter, Measurement.Primary.Scale, LINEAR
TestParameter, Measurement.Primary.Start, -2
TestParameter, Measurement.Primary.Stop, 2
TestParameter, Measurement.Primary.Step, 0.04
TestParameter, Measurement.Primary.Compliance, 0.1
TestParameter, Measurement.Primary.PowerCompliance, 0
TestParameter, Measurement.Aborting.Condition, CONTINUE AT ANY
TestParameter, Measurement.PostOutput.Value, START
TestParameter, Measurement.PostOutput.Retention, OFF
TestParameter, Measurement.Bias.Source, -2, 1.8, 1.1, 0, 0
TestParameter, Measurement.Bias.Compliance, 0.1, 0.1, 0.1, 0.1, 0.1
TestParameter, Measurement.Monitor.Unit, SMU1:HP, SMU2:MP, SMU3:MP, SMU4:MP, SMU5:MP
TestParameter, Measurement.Monitor.Adc, HR ADC, HR ADC, HR ADC, HR ADC, HR ADC
TestParameter, Measurement.Monitor.Measurement, Compliance Side, Compliance Side, Compliance Side, Compliance Side, Compliance Side
TestParameter, Measurement.Monitor.RangingMode, LIMITED, LIMITED, LIMITED, LIMITED, LIMITED
TestParameter, Measurement.Monitor.RangeBoundary, 1nA, 1nA, 1nA, 1nA, 1nA
TestParameter, Measurement.Monitor.RangeRating, BY FULL RANGE, BY FULL RANGE, BY FULL RANGE, BY FULL RANGE, BY FULL RANGE
TestParameter, Measurement.Monitor.RangeRatingCoeff, 50, 50, 50, 50, 50
TestParameter, Measurement.Timing.Hold, 0
TestParameter, Measurement.Timing.Delay, 0
TestParameter, Measurement.Adc.HighSpeed.Mode, AUTO
TestParameter, Measurement.Adc.HighSpeed.Coeff, 1
TestParameter, Measurement.Adc.HighResolution.AutoZero, OFF
TestParameter, Measurement.Adc.HighResolution.Mode, AUTO
TestParameter, Measurement.Adc.HighResolution.Coeff, 6
TestParameter, Measurement.WaitTime.Source.Coeff, 1
TestParameter, Measurement.WaitTime.Source.Offset, 0
TestParameter, Measurement.WaitTime.Monitor.Coeff, 1
TestParameter, Measurement.WaitTime.Monitor.Offset, 0
TestParameter, Output.Graph.Enabled, true
TestParameter, Output.Graph.AutoScaling, false
TestParameter, Output.Graph.XAxis.Data, V
TestParameter, Output.Graph.XAxis.Scale, Linear
TestParameter, Output.Graph.XAxis.Left, -2
TestParameter, Output.Graph.XAxis.Right, 2
TestParameter, Output.Graph.XAxis.RunTimeAutoScale, true
TestParameter, Output.Graph.YAxis.Data, I
TestParameter, Output.Graph.YAxis.Scale, Linear
TestParameter, Output.Graph.YAxis.Bottom, -0.1
TestParameter, Output.Graph.YAxis.Top, 0.1
TestParameter, Output.Graph.YAxis.Group, 
TestParameter, Output.Graph.YAxis.RunTimeAutoScale, true
TestParameter, AutoAnalysis.Interpolation, false
TestParameter, AutoAnalysis.Var2StepCount, 1
TestParameter, AutoAnalysis.Var2StepScript, 
TestParameter, AutoAnalysis.Line1.Enabled, false
TestParameter, AutoAnalysis.Line1.Type, 1
TestParameter, AutoAnalysis.Line1.Fix, True
TestParameter, AutoAnalysis.Line1.YAxis, 0
TestParameter, AutoAnalysis.Line1.Point1.Type, 0
TestParameter, AutoAnalysis.Line1.Point1.XY.X, 
TestParameter, AutoAnalysis.Line1.Point1.XY.Y, 
TestParameter, AutoAnalysis.Line1.Point1.Data.Var, 
TestParameter, AutoAnalysis.Line1.Point1.Data.Condition, 
TestParameter, AutoAnalysis.Line1.Point1.Data.Start, false
TestParameter, AutoAnalysis.Line1.Point1.Data.StartVar, 
TestParameter, AutoAnalysis.Line1.Point1.Data.StartCondition, 
TestParameter, AutoAnalysis.Line1.Point2.Type, 0
TestParameter, AutoAnalysis.Line1.Point2.XY.X, 
TestParameter, AutoAnalysis.Line1.Point2.XY.Y, 
TestParameter, AutoAnalysis.Line1.Point2.Data.Var, 
TestParameter, AutoAnalysis.Line1.Point2.Data.Condition, 
TestParameter, AutoAnalysis.Line1.Point2.Data.Start, false
TestParameter, AutoAnalysis.Line1.Point2.Data.StartVar, 
TestParameter, AutoAnalysis.Line1.Point2.Data.StartCondition, 
TestParameter, AutoAnalysis.Line1.GradientExpr, 0
TestParameter, AutoAnalysis.Line2.Enabled, false
TestParameter, AutoAnalysis.Line2.Type, 1
TestParameter, AutoAnalysis.Line2.Fix, True
TestParameter, AutoAnalysis.Line2.YAxis, 0
TestParameter, AutoAnalysis.Line2.Point1.Type, 0
TestParameter, AutoAnalysis.Line2.Point1.XY.X, 
TestParameter, AutoAnalysis.Line2.Point1.XY.Y, 
TestParameter, AutoAnalysis.Line2.Point1.Data.Var, 
TestParameter, AutoAnalysis.Line2.Point1.Data.Condition, 
TestParameter, AutoAnalysis.Line2.Point1.Data.Start, false
TestParameter, AutoAnalysis.Line2.Point1.Data.StartVar, 
TestParameter, AutoAnalysis.Line2.Point1.Data.StartCondition, 
TestParameter, AutoAnalysis.Line2.Point2.Type, 0
TestParameter, AutoAnalysis.Line2.Point2.XY.X, 
TestParameter, AutoAnalysis.Line2.Point2.XY.Y, 
TestParameter, AutoAnalysis.Line2.Point2.Data.Var, 
TestParameter, AutoAnalysis.Line2.Point2.Data.Condition, 
TestParameter, AutoAnalysis.Line2.Point2.Data.Start, false
TestParameter, AutoAnalysis.Line2.Point2.Data.StartVar, 
TestParameter, AutoAnalysis.Line2.Point2.Data.StartCondition, 
TestParameter, AutoAnalysis.Line2.GradientExpr, 0
TestParameter, AutoAnalysis.Marker.Enabled, false
TestParameter, AutoAnalysis.Marker.Data.Var, 
TestParameter, AutoAnalysis.Marker.Data.Condition, 
TestParameter, AutoAnalysis.Marker.Data.Start, false
TestParameter, AutoAnalysis.Marker.Data.StartVar, 
TestParameter, AutoAnalysis.Marker.Data.StartCondition, 
MetaData, TestRecord.EntryPoint, true
MetaData, TestRecord.RecordTime, 10/19/2022 11:49:44
MetaData, TestRecord.TestTarget, 
MetaData, TestRecord.IterationIndex, 230
MetaData, TestRecord.Preservation, true
MetaData, TestRecord.Flag, 
MetaData, TestRecord.Remarks, 
MetaData, TestRecord.LinkKey, 1fc30e0c-18d5-4a35-9f46-8cc21b42df7a
MetaData, TestRecord.Parameters, 
Dimension1, 101, 101
Dimension2, 1, 1
DataName, V, I
DataValue, -2, -3.4059999999999995E-08
DataValue, -1.9600000000000002, -2.8190199999999997E-08
DataValue, -1.9200000000000002, 3.62964E-08
DataValue, -1.8800000000000001, -5.8783199999999995E-08
DataValue, -1.84, 5.3469599999999993E-08
DataValue, -1.8, -6.33496E-08
DataValue, -1.76, 5.7618999999999995E-08
DataValue, -1.72, -5.8864799999999994E-08
DataValue, -1.6800000000000002, 3.5460399999999996E-08
DataValue, -1.6400000000000001, -2.3197199999999997E-08
DataValue, -1.6, -3.5923799999999994E-08
DataValue, -1.56, 4.8482799999999994E-08
DataValue, -1.52, -5.83264E-08
DataValue, -1.48, 5.52624E-08
DataValue, -1.4400000000000002, -6.1674E-08
DataValue, -1.4000000000000001, 5.9229999999999995E-08
DataValue, -1.36, -5.6905599999999992E-08
DataValue, -1.32, 4.4467799999999994E-08
DataValue, -1.28, -3.5418E-08
DataValue, -1.24, 5.8638999999999993E-08
DataValue, -1.2, -5.40976E-08
DataValue, -1.1600000000000001, 4.25956E-08
DataValue, -1.12, -3.1237799999999994E-08
DataValue, -1.08, -2.6061799999999998E-08
DataValue, -1.04, 4.15554E-08
DataValue, -1, -5.4152399999999996E-08
DataValue, -0.96000000000000008, 5.5501799999999992E-08
DataValue, -0.92, -5.9909399999999992E-08
DataValue, -0.88, 5.8990599999999994E-08
DataValue, -0.84000000000000008, -6.0574E-08
DataValue, -0.8, 5.1882399999999996E-08
DataValue, -0.76, -5.5249999999999995E-08
DataValue, -0.72000000000000008, 5.2795E-08
DataValue, -0.68, -5.4449599999999993E-08
DataValue, -0.64, 5.6918399999999996E-08
DataValue, -0.6, -5.6664E-08
DataValue, -0.56, 5.7929599999999995E-08
DataValue, -0.52, -5.9593199999999994E-08
DataValue, -0.48000000000000004, 5.9262999999999993E-08
DataValue, -0.44, -5.9573199999999991E-08
DataValue, -0.4, 5.5599199999999991E-08
DataValue, -0.36000000000000004, -5.6141799999999997E-08
DataValue, -0.32, 5.5457999999999993E-08
DataValue, -0.28, -4.04376E-08
DataValue, -0.24000000000000002, 4.2941599999999993E-08
DataValue, -0.2, -4.09774E-08
DataValue, -0.16, 1.5708799999999998E-08
DataValue, -0.12000000000000001, -1.94628E-08
DataValue, -0.08, -4.9321199999999993E-08
DataValue, -0.04, 5.5545399999999994E-08
DataValue, 0, -5.9215999999999992E-08
DataValue, 0.04, 5.2824E-08
DataValue, 0.08, -5.64354E-08
DataValue, 0.12000000000000001, 5.96182E-08
DataValue, 0.16, -5.98728E-08
DataValue, 0.2, 5.6864599999999992E-08
DataValue, 0.24000000000000002, -4.6445799999999994E-08
DataValue, 0.28, 8.6463999999999986E-09
DataValue, 0.32, 3.7675999999999993E-09
DataValue, 0.36000000000000004, 3.88596E-08
DataValue, 0.4, -2.02834E-08
DataValue, 0.44, -3.35282E-08
DataValue, 0.48000000000000004, 5.0884399999999996E-08
DataValue, 0.52, -5.6351399999999995E-08
DataValue, 0.56, 5.8333999999999991E-08
DataValue, 0.6, -5.9145999999999992E-08
DataValue, 0.64, 5.2381199999999995E-08
DataValue, 0.68, -5.6114599999999995E-08
DataValue, 0.72000000000000008, 5.8197599999999994E-08
DataValue, 0.76, -5.7180599999999993E-08
DataValue, 0.8, 5.6595999999999993E-08
DataValue, 0.84000000000000008, -5.90078E-08
DataValue, 0.88, 6.03594E-08
DataValue, 0.92, -5.9478999999999993E-08
DataValue, 0.96000000000000008, 6.08004E-08
DataValue, 1, -5.8956199999999993E-08
DataValue, 1.04, 6.0297E-08
DataValue, 1.08, -5.8899799999999994E-08
DataValue, 1.12, 6.04496E-08
DataValue, 1.1600000000000001, -5.8554799999999993E-08
DataValue, 1.2, 5.7528999999999992E-08
DataValue, 1.24, -5.5100199999999995E-08
DataValue, 1.28, 5.6955799999999993E-08
DataValue, 1.32, -3.9362799999999996E-08
DataValue, 1.36, 4.4781599999999995E-08
DataValue, 1.4000000000000001, -3.9422599999999993E-08
DataValue, 1.4400000000000002, 8.8816E-09
DataValue, 1.48, 8.0088E-09
DataValue, 1.52, 3.7157999999999994E-08
DataValue, 1.56, -1.3801599999999998E-08
DataValue, 1.6, -3.6153E-08
DataValue, 1.6400000000000001, 5.6999999999999994E-08
DataValue, 1.6800000000000002, -5.4021199999999995E-08
DataValue, 1.72, 6.326839999999999E-08
DataValue, 1.76, -5.6772599999999993E-08
DataValue, 1.8, 6.01354E-08
DataValue, 1.84, -4.13148E-08
DataValue, 1.8800000000000001, 3.9021599999999995E-08
DataValue, 1.9200000000000002, -1.05554E-08
DataValue, 1.9600000000000002, -3.5304599999999996E-08
DataValue, 2, 5.9424399999999992E-08