
SetupTitle, I/V Sweep
PrimitiveTest, I/V Sweep
TestParameter, Context.MainFrame, B1500A
TestParameter, Channel.UnitType, SMU, SMU, SMU, SMU, SMU
TestParameter, Channel.Unit, SMU1:HP, SMU2:MP, SMU3:MP, SMU4:MP, SMU5:MP
TestParameter, Channel.IName, I, IDD1, IDD2, ISS, IPP
TestParameter, Channel.VName, V, VDD1, VDD2, VSS, VPP
TestParameter, Channel.Mode, V, V, V, V, V
TestParameter, Channel.Func, VAR1, CONST, CONST, CONST, CONST
TestParameter, Channel.Index, 
TestParameter, Channel.Time, 
TestParameter, Measurement.Port.Unit, SMU1:HP, SMU2:MP, SMU3:MP, SMU4:MP, SMU5:MP
TestParameter, Measurement.Port.SeriesResistor, NONE, NONE, NONE, NONE, NONE
TestParameter, Measurement.Port.Filter, ON, ON, ON, ON, ON
TestParameter, Measurement.Port.OutputVoltageComparison, 0, 0, 0, 0, 0
TestParameter, Measurement.Primary.Locus, Single
TestParameter, Measurement.Primary.Scale, LINEAR
TestParameter, Measurement.Primary.Start, -2
TestParameter, Measurement.Primary.Stop, 2
TestParameter, Measurement.Primary.Step, 0.04
TestParameter, Measurement.Primary.Compliance, 0.1
TestParameter, Measurement.Primary.PowerCompliance, 0
TestParameter, Measurement.Aborting.Condition, CONTINUE AT ANY
TestParameter, Measurement.PostOutput.Value, START
TestParameter, Measurement.PostOutput.Retention, OFF
TestParameter, Measurement.Bias.Source, -2, 1.8, 1.1, 0, 0
TestParameter, Measurement.Bias.Compliance, 0.1, 0.1, 0.1, 0.1, 0.1
TestParameter, Measurement.Monitor.Unit, SMU1:HP, SMU2:MP, SMU3:MP, SMU4:MP, SMU5:MP
TestParameter, Measurement.Monitor.Adc, HR ADC, HR ADC, HR ADC, HR ADC, HR ADC
TestParameter, Measurement.Monitor.Measurement, Compliance Side, Compliance Side, Compliance Side, Compliance Side, Compliance Side
TestParameter, Measurement.Monitor.RangingMode, LIMITED, LIMITED, LIMITED, LIMITED, LIMITED
TestParameter, Measurement.Monitor.RangeBoundary, 1nA, 1nA, 1nA, 1nA, 1nA
TestParameter, Measurement.Monitor.RangeRating, BY FULL RANGE, BY FULL RANGE, BY FULL RANGE, BY FULL RANGE, BY FULL RANGE
TestParameter, Measurement.Monitor.RangeRatingCoeff, 50, 50, 50, 50, 50
TestParameter, Measurement.Timing.Hold, 0
TestParameter, Measurement.Timing.Delay, 0
TestParameter, Measurement.Adc.HighSpeed.Mode, AUTO
TestParameter, Measurement.Adc.HighSpeed.Coeff, 1
TestParameter, Measurement.Adc.HighResolution.AutoZero, OFF
TestParameter, Measurement.Adc.HighResolution.Mode, AUTO
TestParameter, Measurement.Adc.HighResolution.Coeff, 6
TestParameter, Measurement.WaitTime.Source.Coeff, 1
TestParameter, Measurement.WaitTime.Source.Offset, 0
TestParameter, Measurement.WaitTime.Monitor.Coeff, 1
TestParameter, Measurement.WaitTime.Monitor.Offset, 0
TestParameter, Output.Graph.Enabled, true
TestParameter, Output.Graph.AutoScaling, false
TestParameter, Output.Graph.XAxis.Data, V
TestParameter, Output.Graph.XAxis.Scale, Linear
TestParameter, Output.Graph.XAxis.Left, -2
TestParameter, Output.Graph.XAxis.Right, 2
TestParameter, Output.Graph.XAxis.RunTimeAutoScale, true
TestParameter, Output.Graph.YAxis.Data, I
TestParameter, Output.Graph.YAxis.Scale, Linear
TestParameter, Output.Graph.YAxis.Bottom, -0.1
TestParameter, Output.Graph.YAxis.Top, 0.1
TestParameter, Output.Graph.YAxis.Group, 
TestParameter, Output.Graph.YAxis.RunTimeAutoScale, true
TestParameter, AutoAnalysis.Interpolation, false
TestParameter, AutoAnalysis.Var2StepCount, 1
TestParameter, AutoAnalysis.Var2StepScript, 
TestParameter, AutoAnalysis.Line1.Enabled, false
TestParameter, AutoAnalysis.Line1.Type, 1
TestParameter, AutoAnalysis.Line1.Fix, True
TestParameter, AutoAnalysis.Line1.YAxis, 0
TestParameter, AutoAnalysis.Line1.Point1.Type, 0
TestParameter, AutoAnalysis.Line1.Point1.XY.X, 
TestParameter, AutoAnalysis.Line1.Point1.XY.Y, 
TestParameter, AutoAnalysis.Line1.Point1.Data.Var, 
TestParameter, AutoAnalysis.Line1.Point1.Data.Condition, 
TestParameter, AutoAnalysis.Line1.Point1.Data.Start, false
TestParameter, AutoAnalysis.Line1.Point1.Data.StartVar, 
TestParameter, AutoAnalysis.Line1.Point1.Data.StartCondition, 
TestParameter, AutoAnalysis.Line1.Point2.Type, 0
TestParameter, AutoAnalysis.Line1.Point2.XY.X, 
TestParameter, AutoAnalysis.Line1.Point2.XY.Y, 
TestParameter, AutoAnalysis.Line1.Point2.Data.Var, 
TestParameter, AutoAnalysis.Line1.Point2.Data.Condition, 
TestParameter, AutoAnalysis.Line1.Point2.Data.Start, false
TestParameter, AutoAnalysis.Line1.Point2.Data.StartVar, 
TestParameter, AutoAnalysis.Line1.Point2.Data.StartCondition, 
TestParameter, AutoAnalysis.Line1.GradientExpr, 0
TestParameter, AutoAnalysis.Line2.Enabled, false
TestParameter, AutoAnalysis.Line2.Type, 1
TestParameter, AutoAnalysis.Line2.Fix, True
TestParameter, AutoAnalysis.Line2.YAxis, 0
TestParameter, AutoAnalysis.Line2.Point1.Type, 0
TestParameter, AutoAnalysis.Line2.Point1.XY.X, 
TestParameter, AutoAnalysis.Line2.Point1.XY.Y, 
TestParameter, AutoAnalysis.Line2.Point1.Data.Var, 
TestParameter, AutoAnalysis.Line2.Point1.Data.Condition, 
TestParameter, AutoAnalysis.Line2.Point1.Data.Start, false
TestParameter, AutoAnalysis.Line2.Point1.Data.StartVar, 
TestParameter, AutoAnalysis.Line2.Point1.Data.StartCondition, 
TestParameter, AutoAnalysis.Line2.Point2.Type, 0
TestParameter, AutoAnalysis.Line2.Point2.XY.X, 
TestParameter, AutoAnalysis.Line2.Point2.XY.Y, 
TestParameter, AutoAnalysis.Line2.Point2.Data.Var, 
TestParameter, AutoAnalysis.Line2.Point2.Data.Condition, 
TestParameter, AutoAnalysis.Line2.Point2.Data.Start, false
TestParameter, AutoAnalysis.Line2.Point2.Data.StartVar, 
TestParameter, AutoAnalysis.Line2.Point2.Data.StartCondition, 
TestParameter, AutoAnalysis.Line2.GradientExpr, 0
TestParameter, AutoAnalysis.Marker.Enabled, false
TestParameter, AutoAnalysis.Marker.Data.Var, 
TestParameter, AutoAnalysis.Marker.Data.Condition, 
TestParameter, AutoAnalysis.Marker.Data.Start, false
TestParameter, AutoAnalysis.Marker.Data.StartVar, 
TestParameter, AutoAnalysis.Marker.Data.StartCondition, 
MetaData, TestRecord.EntryPoint, true
MetaData, TestRecord.RecordTime, 10/19/2022 11:47:24
MetaData, TestRecord.TestTarget, 
MetaData, TestRecord.IterationIndex, 224
MetaData, TestRecord.Preservation, true
MetaData, TestRecord.Flag, 
MetaData, TestRecord.Remarks, 
MetaData, TestRecord.LinkKey, eb101b17-4f16-4cf7-a30a-7745e913304b
MetaData, TestRecord.Parameters, 
Dimension1, 101, 101
Dimension2, 1, 1
DataName, V, I
DataValue, -2, -5.6667199999999991E-08
DataValue, -1.9600000000000002, 5.3889599999999993E-08
DataValue, -1.9200000000000002, -5.6963799999999996E-08
DataValue, -1.8800000000000001, 5.96146E-08
DataValue, -1.84, -5.9888E-08
DataValue, -1.8, 5.7169199999999992E-08
DataValue, -1.76, -4.9510799999999995E-08
DataValue, -1.72, 4.27592E-08
DataValue, -1.6800000000000002, -1.4253799999999999E-08
DataValue, -1.6400000000000001, 5.6553399999999992E-08
DataValue, -1.6, -6.00848E-08
DataValue, -1.56, 6.0110999999999988E-08
DataValue, -1.52, -5.0502799999999995E-08
DataValue, -1.48, 4.0453199999999996E-08
DataValue, -1.4400000000000002, -2.4467599999999996E-08
DataValue, -1.4000000000000001, -3.18476E-08
DataValue, -1.36, 5.0350999999999992E-08
DataValue, -1.32, -5.6585999999999995E-08
DataValue, -1.28, 5.8149399999999995E-08
DataValue, -1.24, -5.95694E-08
DataValue, -1.2, 5.1992599999999993E-08
DataValue, -1.1600000000000001, -5.6536E-08
DataValue, -1.12, 5.91062E-08
DataValue, -1.08, -5.96672E-08
DataValue, -1.04, 5.8014399999999994E-08
DataValue, -1, -5.1997199999999997E-08
DataValue, -0.96000000000000008, 5.9572999999999994E-08
DataValue, -0.92, -5.2770599999999995E-08
DataValue, -0.88, 4.26672E-08
DataValue, -0.84000000000000008, -2.8124799999999998E-08
DataValue, -0.8, -2.7459399999999996E-08
DataValue, -0.76, 4.6077799999999993E-08
DataValue, -0.72000000000000008, -5.5296999999999995E-08
DataValue, -0.68, 5.7203599999999992E-08
DataValue, -0.64, -6.00504E-08
DataValue, -0.6, 6.0879799999999989E-08
DataValue, -0.56, -5.61434E-08
DataValue, -0.52, 4.9412799999999996E-08
DataValue, -0.48000000000000004, -4.2980399999999994E-08
DataValue, -0.44, 5.98006E-08
DataValue, -0.4, -5.6534999999999996E-08
DataValue, -0.36000000000000004, 5.02538E-08
DataValue, -0.32, -3.96E-08
DataValue, -0.28, 2.2759E-08
DataValue, -0.24000000000000002, -6.5008E-09
DataValue, -0.2, 2.7663599999999997E-08
DataValue, -0.16, -8.9102E-09
DataValue, -0.12000000000000001, 5.7906799999999993E-08
DataValue, -0.08, -5.9492799999999991E-08
DataValue, -0.04, 5.18506E-08
DataValue, 0, -5.99318E-08
DataValue, 0.04, 5.98652E-08
DataValue, 0.08, -5.58842E-08
DataValue, 0.12000000000000001, 4.4894399999999993E-08
DataValue, 0.16, -3.28358E-08
DataValue, 0.2, -2.5101799999999998E-08
DataValue, 0.24000000000000002, 4.0617999999999994E-08
DataValue, 0.28, -5.8304E-08
DataValue, 0.32, 5.92506E-08
DataValue, 0.36000000000000004, -5.9824E-08
DataValue, 0.4, 5.4801999999999997E-08
DataValue, 0.44, -5.7448599999999992E-08
DataValue, 0.48000000000000004, 6.0139E-08
DataValue, 0.52, -6.06834E-08
DataValue, 0.56, 5.6713999999999994E-08
DataValue, 0.6, -4.9552399999999994E-08
DataValue, 0.64, 5.2956599999999994E-08
DataValue, 0.68, -5.1497399999999996E-08
DataValue, 0.72000000000000008, 5.4002199999999994E-08
DataValue, 0.76, -4.19318E-08
DataValue, 0.8, 4.2760399999999996E-08
DataValue, 0.84000000000000008, -4.3661799999999993E-08
DataValue, 0.88, 6.01998E-08
DataValue, 0.92, -5.48572E-08
DataValue, 0.96000000000000008, 5.6823599999999991E-08
DataValue, 1, -4.16932E-08
DataValue, 1.04, 1.8225399999999998E-08
DataValue, 1.08, -2.2058599999999997E-08
DataValue, 1.12, -2.7495999999999997E-08
DataValue, 1.1600000000000001, 2.4308E-08
DataValue, 1.2, -1.18912E-08
DataValue, 1.24, 1.1317399999999998E-08
DataValue, 1.28, 5.98346E-08
DataValue, 1.32, -5.9756599999999989E-08
DataValue, 1.36, 5.87606E-08
DataValue, 1.4000000000000001, -5.86666E-08
DataValue, 1.4400000000000002, 6.02382E-08
DataValue, 1.48, -5.97562E-08
DataValue, 1.52, 6.03442E-08
DataValue, 1.56, -5.3108999999999996E-08
DataValue, 1.6, 5.5282999999999993E-08
DataValue, 1.6400000000000001, -5.3182399999999995E-08
DataValue, 1.6800000000000002, 3.7331399999999994E-08
DataValue, 1.72, -3.9721999999999997E-08
DataValue, 1.76, 3.6118799999999996E-08
DataValue, 1.8, -9.4927999999999985E-09
DataValue, 1.84, -4.44658E-08
DataValue, 1.8800000000000001, 3.8877799999999995E-08
DataValue, 1.9200000000000002, -3.50626E-08
DataValue, 1.9600000000000002, 3.77024E-08
DataValue, 2, -3.3488599999999995E-08