
SetupTitle, I/V Sweep
PrimitiveTest, I/V Sweep
TestParameter, Context.MainFrame, B1500A
TestParameter, Channel.UnitType, SMU, SMU, SMU, SMU, SMU
TestParameter, Channel.Unit, SMU1:HP, SMU2:MP, SMU3:MP, SMU4:MP, SMU5:MP
TestParameter, Channel.IName, I, IDD1, IDD2, ISS, IPP
TestParameter, Channel.VName, V, VDD1, VDD2, VSS, VPP
TestParameter, Channel.Mode, V, V, V, V, V
TestParameter, Channel.Func, VAR1, CONST, CONST, CONST, CONST
TestParameter, Channel.Index, 
TestParameter, Channel.Time, 
TestParameter, Measurement.Port.Unit, SMU1:HP, SMU2:MP, SMU3:MP, SMU4:MP, SMU5:MP
TestParameter, Measurement.Port.SeriesResistor, NONE, NONE, NONE, NONE, NONE
TestParameter, Measurement.Port.Filter, ON, ON, ON, ON, ON
TestParameter, Measurement.Port.OutputVoltageComparison, 0, 0, 0, 0, 0
TestParameter, Measurement.Primary.Locus, Single
TestParameter, Measurement.Primary.Scale, LINEAR
TestParameter, Measurement.Primary.Start, -2
TestParameter, Measurement.Primary.Stop, 2
TestParameter, Measurement.Primary.Step, 0.04
TestParameter, Measurement.Primary.Compliance, 0.1
TestParameter, Measurement.Primary.PowerCompliance, 0
TestParameter, Measurement.Aborting.Condition, CONTINUE AT ANY
TestParameter, Measurement.PostOutput.Value, START
TestParameter, Measurement.PostOutput.Retention, OFF
TestParameter, Measurement.Bias.Source, -2, 1.8, 1.1, 0, 0
TestParameter, Measurement.Bias.Compliance, 0.1, 0.1, 0.1, 0.1, 0.1
TestParameter, Measurement.Monitor.Unit, SMU1:HP, SMU2:MP, SMU3:MP, SMU4:MP, SMU5:MP
TestParameter, Measurement.Monitor.Adc, HR ADC, HR ADC, HR ADC, HR ADC, HR ADC
TestParameter, Measurement.Monitor.Measurement, Compliance Side, Compliance Side, Compliance Side, Compliance Side, Compliance Side
TestParameter, Measurement.Monitor.RangingMode, LIMITED, LIMITED, LIMITED, LIMITED, LIMITED
TestParameter, Measurement.Monitor.RangeBoundary, 1nA, 1nA, 1nA, 1nA, 1nA
TestParameter, Measurement.Monitor.RangeRating, BY FULL RANGE, BY FULL RANGE, BY FULL RANGE, BY FULL RANGE, BY FULL RANGE
TestParameter, Measurement.Monitor.RangeRatingCoeff, 50, 50, 50, 50, 50
TestParameter, Measurement.Timing.Hold, 0
TestParameter, Measurement.Timing.Delay, 0
TestParameter, Measurement.Adc.HighSpeed.Mode, AUTO
TestParameter, Measurement.Adc.HighSpeed.Coeff, 1
TestParameter, Measurement.Adc.HighResolution.AutoZero, OFF
TestParameter, Measurement.Adc.HighResolution.Mode, AUTO
TestParameter, Measurement.Adc.HighResolution.Coeff, 6
TestParameter, Measurement.WaitTime.Source.Coeff, 1
TestParameter, Measurement.WaitTime.Source.Offset, 0
TestParameter, Measurement.WaitTime.Monitor.Coeff, 1
TestParameter, Measurement.WaitTime.Monitor.Offset, 0
TestParameter, Output.Graph.Enabled, true
TestParameter, Output.Graph.AutoScaling, false
TestParameter, Output.Graph.XAxis.Data, V
TestParameter, Output.Graph.XAxis.Scale, Linear
TestParameter, Output.Graph.XAxis.Left, -2
TestParameter, Output.Graph.XAxis.Right, 2
TestParameter, Output.Graph.XAxis.RunTimeAutoScale, true
TestParameter, Output.Graph.YAxis.Data, I
TestParameter, Output.Graph.YAxis.Scale, Linear
TestParameter, Output.Graph.YAxis.Bottom, -0.1
TestParameter, Output.Graph.YAxis.Top, 0.1
TestParameter, Output.Graph.YAxis.Group, 
TestParameter, Output.Graph.YAxis.RunTimeAutoScale, true
TestParameter, AutoAnalysis.Interpolation, false
TestParameter, AutoAnalysis.Var2StepCount, 1
TestParameter, AutoAnalysis.Var2StepScript, 
TestParameter, AutoAnalysis.Line1.Enabled, false
TestParameter, AutoAnalysis.Line1.Type, 1
TestParameter, AutoAnalysis.Line1.Fix, True
TestParameter, AutoAnalysis.Line1.YAxis, 0
TestParameter, AutoAnalysis.Line1.Point1.Type, 0
TestParameter, AutoAnalysis.Line1.Point1.XY.X, 
TestParameter, AutoAnalysis.Line1.Point1.XY.Y, 
TestParameter, AutoAnalysis.Line1.Point1.Data.Var, 
TestParameter, AutoAnalysis.Line1.Point1.Data.Condition, 
TestParameter, AutoAnalysis.Line1.Point1.Data.Start, false
TestParameter, AutoAnalysis.Line1.Point1.Data.StartVar, 
TestParameter, AutoAnalysis.Line1.Point1.Data.StartCondition, 
TestParameter, AutoAnalysis.Line1.Point2.Type, 0
TestParameter, AutoAnalysis.Line1.Point2.XY.X, 
TestParameter, AutoAnalysis.Line1.Point2.XY.Y, 
TestParameter, AutoAnalysis.Line1.Point2.Data.Var, 
TestParameter, AutoAnalysis.Line1.Point2.Data.Condition, 
TestParameter, AutoAnalysis.Line1.Point2.Data.Start, false
TestParameter, AutoAnalysis.Line1.Point2.Data.StartVar, 
TestParameter, AutoAnalysis.Line1.Point2.Data.StartCondition, 
TestParameter, AutoAnalysis.Line1.GradientExpr, 0
TestParameter, AutoAnalysis.Line2.Enabled, false
TestParameter, AutoAnalysis.Line2.Type, 1
TestParameter, AutoAnalysis.Line2.Fix, True
TestParameter, AutoAnalysis.Line2.YAxis, 0
TestParameter, AutoAnalysis.Line2.Point1.Type, 0
TestParameter, AutoAnalysis.Line2.Point1.XY.X, 
TestParameter, AutoAnalysis.Line2.Point1.XY.Y, 
TestParameter, AutoAnalysis.Line2.Point1.Data.Var, 
TestParameter, AutoAnalysis.Line2.Point1.Data.Condition, 
TestParameter, AutoAnalysis.Line2.Point1.Data.Start, false
TestParameter, AutoAnalysis.Line2.Point1.Data.StartVar, 
TestParameter, AutoAnalysis.Line2.Point1.Data.StartCondition, 
TestParameter, AutoAnalysis.Line2.Point2.Type, 0
TestParameter, AutoAnalysis.Line2.Point2.XY.X, 
TestParameter, AutoAnalysis.Line2.Point2.XY.Y, 
TestParameter, AutoAnalysis.Line2.Point2.Data.Var, 
TestParameter, AutoAnalysis.Line2.Point2.Data.Condition, 
TestParameter, AutoAnalysis.Line2.Point2.Data.Start, false
TestParameter, AutoAnalysis.Line2.Point2.Data.StartVar, 
TestParameter, AutoAnalysis.Line2.Point2.Data.StartCondition, 
TestParameter, AutoAnalysis.Line2.GradientExpr, 0
TestParameter, AutoAnalysis.Marker.Enabled, false
TestParameter, AutoAnalysis.Marker.Data.Var, 
TestParameter, AutoAnalysis.Marker.Data.Condition, 
TestParameter, AutoAnalysis.Marker.Data.Start, false
TestParameter, AutoAnalysis.Marker.Data.StartVar, 
TestParameter, AutoAnalysis.Marker.Data.StartCondition, 
MetaData, TestRecord.EntryPoint, true
MetaData, TestRecord.RecordTime, 10/19/2022 11:52:35
MetaData, TestRecord.TestTarget, 
MetaData, TestRecord.IterationIndex, 238
MetaData, TestRecord.Preservation, true
MetaData, TestRecord.Flag, 
MetaData, TestRecord.Remarks, 
MetaData, TestRecord.LinkKey, bcbeac7a-b7b5-4725-8887-1bc3f8de7318
MetaData, TestRecord.Parameters, 
Dimension1, 101, 101
Dimension2, 1, 1
DataName, V, I
DataValue, -2, 2.6495599999999996E-08
DataValue, -1.9600000000000002, -4.2062199999999994E-08
DataValue, -1.9200000000000002, 5.37E-08
DataValue, -1.8800000000000001, -5.6839399999999992E-08
DataValue, -1.84, 5.9791599999999989E-08
DataValue, -1.8, -6.0501199999999991E-08
DataValue, -1.76, 5.7741199999999992E-08
DataValue, -1.72, -4.4563999999999995E-08
DataValue, -1.6800000000000002, 3.3494599999999995E-08
DataValue, -1.6400000000000001, -1.5755599999999997E-08
DataValue, -1.6, -3.9206999999999995E-08
DataValue, -1.56, 5.40976E-08
DataValue, -1.52, -5.6562599999999993E-08
DataValue, -1.48, 5.6294799999999991E-08
DataValue, -1.4400000000000002, -5.6551999999999996E-08
DataValue, -1.4000000000000001, 5.6741799999999995E-08
DataValue, -1.36, -6.0422E-08
DataValue, -1.32, 6.0099799999999991E-08
DataValue, -1.28, -4.52096E-08
DataValue, -1.24, 8.676E-09
DataValue, -1.2, -1.0914E-08
DataValue, -1.1600000000000001, 4.9259799999999995E-08
DataValue, -1.12, -3.8744799999999996E-08
DataValue, -1.08, 6.11386E-08
DataValue, -1.04, 5.414E-08
DataValue, -1, 5.6404999999999995E-08
DataValue, -0.96000000000000008, -5.8729799999999993E-08
DataValue, -0.92, 5.9537199999999997E-08
DataValue, -0.88, -6.02086E-08
DataValue, -0.84000000000000008, 5.4389399999999993E-08
DataValue, -0.8, -4.39518E-08
DataValue, -0.76, 3.29484E-08
DataValue, -0.72000000000000008, -3.8025999999999993E-09
DataValue, -0.68, 5.1290399999999993E-08
DataValue, -0.64, -4.0975999999999996E-08
DataValue, -0.6, 6.0822999999999988E-08
DataValue, -0.56, -5.6299399999999995E-08
DataValue, -0.52, 4.6255599999999992E-08
DataValue, -0.48000000000000004, -3.5206799999999995E-08
DataValue, -0.44, 1.92444E-08
DataValue, -0.4, -3.1347999999999996E-09
DataValue, -0.36000000000000004, 6.0623E-08
DataValue, -0.32, -5.62784E-08
DataValue, -0.28, 4.6715999999999993E-08
DataValue, -0.24000000000000002, -3.58824E-08
DataValue, -0.2, 6.0526599999999988E-08
DataValue, -0.16, -5.4003999999999992E-08
DataValue, -0.12000000000000001, 4.3921399999999995E-08
DataValue, -0.08, -2.9989199999999996E-08
DataValue, -0.04, -2.7569199999999998E-08
DataValue, 0, 5.6018999999999994E-08
DataValue, 0.04, -5.9086199999999995E-08
DataValue, 0.08, 5.9884599999999988E-08
DataValue, 0.12000000000000001, -5.9500399999999992E-08
DataValue, 0.16, 5.4223599999999995E-08
DataValue, 0.2, -4.29948E-08
DataValue, 0.24000000000000002, -8.1999999999999993E-08
DataValue, 0.28, -2.6097199999999996E-08
DataValue, 0.32, 4.3793399999999996E-08
DataValue, 0.36000000000000004, -5.41982E-08
DataValue, 0.4, 5.6277799999999992E-08
DataValue, 0.44, -6.01116E-08
DataValue, 0.48000000000000004, 6.0284E-08
DataValue, 0.52, -5.6384599999999997E-08
DataValue, 0.56, 4.7399399999999995E-08
DataValue, 0.6, -3.7096799999999994E-08
DataValue, 0.64, 1.95864E-08
DataValue, 0.68, -3.1811999999999997E-09
DataValue, 0.72000000000000008, 6.0107399999999992E-08
DataValue, 0.76, -5.7400399999999993E-08
DataValue, 0.8, 3.3028599999999996E-08
DataValue, 0.84000000000000008, -3.5540999999999994E-08
DataValue, 0.88, 3.9558199999999994E-08
DataValue, 0.92, -2.13968E-08
DataValue, 0.96000000000000008, -3.47094E-08
DataValue, 1, 5.06502E-08
DataValue, 1.04, -5.6130599999999993E-08
DataValue, 1.08, 5.7665599999999993E-08
DataValue, 1.12, -6.0192E-08
DataValue, 1.1600000000000001, 6.0493599999999991E-08
DataValue, 1.2, -5.8279999999999996E-08
DataValue, 1.24, 5.16204E-08
DataValue, 1.28, -4.0710799999999996E-08
DataValue, 1.32, 6.1064399999999992E-08
DataValue, 1.36, -5.6356999999999993E-08
DataValue, 1.4000000000000001, 5.20792E-08
DataValue, 1.4400000000000002, -5.3676599999999996E-08
DataValue, 1.48, 4.3645199999999996E-08
DataValue, 1.52, -2.8866599999999998E-08
DataValue, 1.56, -2.8184799999999996E-08
DataValue, 1.6, 4.7723199999999994E-08
DataValue, 1.6400000000000001, -5.6290799999999993E-08
DataValue, 1.6800000000000002, 5.7750999999999992E-08
DataValue, 1.72, -5.98852E-08
DataValue, 1.76, 6.06492E-08
DataValue, 1.8, -5.5385599999999995E-08
DataValue, 1.84, 4.47502E-08
DataValue, 1.8800000000000001, -3.2305E-08
DataValue, 1.9200000000000002, -2.54082E-08
DataValue, 1.9600000000000002, 4.0226199999999997E-08
DataValue, 2, -5.99078E-08