
SetupTitle, I/V Sweep
PrimitiveTest, I/V Sweep
TestParameter, Context.MainFrame, B1500A
TestParameter, Channel.UnitType, SMU, SMU, SMU, SMU, SMU
TestParameter, Channel.Unit, SMU1:HP, SMU2:MP, SMU3:MP, SMU4:MP, SMU5:MP
TestParameter, Channel.IName, I, IDD1, IDD2, ISS, IPP
TestParameter, Channel.VName, V, VDD1, VDD2, VSS, VPP
TestParameter, Channel.Mode, V, V, V, V, V
TestParameter, Channel.Func, VAR1, CONST, CONST, CONST, CONST
TestParameter, Channel.Index, 
TestParameter, Channel.Time, 
TestParameter, Measurement.Port.Unit, SMU1:HP, SMU2:MP, SMU3:MP, SMU4:MP, SMU5:MP
TestParameter, Measurement.Port.SeriesResistor, NONE, NONE, NONE, NONE, NONE
TestParameter, Measurement.Port.Filter, ON, ON, ON, ON, ON
TestParameter, Measurement.Port.OutputVoltageComparison, 0, 0, 0, 0, 0
TestParameter, Measurement.Primary.Locus, Single
TestParameter, Measurement.Primary.Scale, LINEAR
TestParameter, Measurement.Primary.Start, -2
TestParameter, Measurement.Primary.Stop, 2
TestParameter, Measurement.Primary.Step, 0.04
TestParameter, Measurement.Primary.Compliance, 0.1
TestParameter, Measurement.Primary.PowerCompliance, 0
TestParameter, Measurement.Aborting.Condition, CONTINUE AT ANY
TestParameter, Measurement.PostOutput.Value, START
TestParameter, Measurement.PostOutput.Retention, OFF
TestParameter, Measurement.Bias.Source, -2, 1.8, 1.1, 0, 0
TestParameter, Measurement.Bias.Compliance, 0.1, 0.1, 0.1, 0.1, 0.1
TestParameter, Measurement.Monitor.Unit, SMU1:HP, SMU2:MP, SMU3:MP, SMU4:MP, SMU5:MP
TestParameter, Measurement.Monitor.Adc, HR ADC, HR ADC, HR ADC, HR ADC, HR ADC
TestParameter, Measurement.Monitor.Measurement, Compliance Side, Compliance Side, Compliance Side, Compliance Side, Compliance Side
TestParameter, Measurement.Monitor.RangingMode, LIMITED, LIMITED, LIMITED, LIMITED, LIMITED
TestParameter, Measurement.Monitor.RangeBoundary, 1nA, 1nA, 1nA, 1nA, 1nA
TestParameter, Measurement.Monitor.RangeRating, BY FULL RANGE, BY FULL RANGE, BY FULL RANGE, BY FULL RANGE, BY FULL RANGE
TestParameter, Measurement.Monitor.RangeRatingCoeff, 50, 50, 50, 50, 50
TestParameter, Measurement.Timing.Hold, 0
TestParameter, Measurement.Timing.Delay, 0
TestParameter, Measurement.Adc.HighSpeed.Mode, AUTO
TestParameter, Measurement.Adc.HighSpeed.Coeff, 1
TestParameter, Measurement.Adc.HighResolution.AutoZero, OFF
TestParameter, Measurement.Adc.HighResolution.Mode, AUTO
TestParameter, Measurement.Adc.HighResolution.Coeff, 6
TestParameter, Measurement.WaitTime.Source.Coeff, 1
TestParameter, Measurement.WaitTime.Source.Offset, 0
TestParameter, Measurement.WaitTime.Monitor.Coeff, 1
TestParameter, Measurement.WaitTime.Monitor.Offset, 0
TestParameter, Output.Graph.Enabled, true
TestParameter, Output.Graph.AutoScaling, false
TestParameter, Output.Graph.XAxis.Data, V
TestParameter, Output.Graph.XAxis.Scale, Linear
TestParameter, Output.Graph.XAxis.Left, -2
TestParameter, Output.Graph.XAxis.Right, 2
TestParameter, Output.Graph.XAxis.RunTimeAutoScale, true
TestParameter, Output.Graph.YAxis.Data, I
TestParameter, Output.Graph.YAxis.Scale, Linear
TestParameter, Output.Graph.YAxis.Bottom, -0.1
TestParameter, Output.Graph.YAxis.Top, 0.1
TestParameter, Output.Graph.YAxis.Group, 
TestParameter, Output.Graph.YAxis.RunTimeAutoScale, true
TestParameter, AutoAnalysis.Interpolation, false
TestParameter, AutoAnalysis.Var2StepCount, 1
TestParameter, AutoAnalysis.Var2StepScript, 
TestParameter, AutoAnalysis.Line1.Enabled, false
TestParameter, AutoAnalysis.Line1.Type, 1
TestParameter, AutoAnalysis.Line1.Fix, True
TestParameter, AutoAnalysis.Line1.YAxis, 0
TestParameter, AutoAnalysis.Line1.Point1.Type, 0
TestParameter, AutoAnalysis.Line1.Point1.XY.X, 
TestParameter, AutoAnalysis.Line1.Point1.XY.Y, 
TestParameter, AutoAnalysis.Line1.Point1.Data.Var, 
TestParameter, AutoAnalysis.Line1.Point1.Data.Condition, 
TestParameter, AutoAnalysis.Line1.Point1.Data.Start, false
TestParameter, AutoAnalysis.Line1.Point1.Data.StartVar, 
TestParameter, AutoAnalysis.Line1.Point1.Data.StartCondition, 
TestParameter, AutoAnalysis.Line1.Point2.Type, 0
TestParameter, AutoAnalysis.Line1.Point2.XY.X, 
TestParameter, AutoAnalysis.Line1.Point2.XY.Y, 
TestParameter, AutoAnalysis.Line1.Point2.Data.Var, 
TestParameter, AutoAnalysis.Line1.Point2.Data.Condition, 
TestParameter, AutoAnalysis.Line1.Point2.Data.Start, false
TestParameter, AutoAnalysis.Line1.Point2.Data.StartVar, 
TestParameter, AutoAnalysis.Line1.Point2.Data.StartCondition, 
TestParameter, AutoAnalysis.Line1.GradientExpr, 0
TestParameter, AutoAnalysis.Line2.Enabled, false
TestParameter, AutoAnalysis.Line2.Type, 1
TestParameter, AutoAnalysis.Line2.Fix, True
TestParameter, AutoAnalysis.Line2.YAxis, 0
TestParameter, AutoAnalysis.Line2.Point1.Type, 0
TestParameter, AutoAnalysis.Line2.Point1.XY.X, 
TestParameter, AutoAnalysis.Line2.Point1.XY.Y, 
TestParameter, AutoAnalysis.Line2.Point1.Data.Var, 
TestParameter, AutoAnalysis.Line2.Point1.Data.Condition, 
TestParameter, AutoAnalysis.Line2.Point1.Data.Start, false
TestParameter, AutoAnalysis.Line2.Point1.Data.StartVar, 
TestParameter, AutoAnalysis.Line2.Point1.Data.StartCondition, 
TestParameter, AutoAnalysis.Line2.Point2.Type, 0
TestParameter, AutoAnalysis.Line2.Point2.XY.X, 
TestParameter, AutoAnalysis.Line2.Point2.XY.Y, 
TestParameter, AutoAnalysis.Line2.Point2.Data.Var, 
TestParameter, AutoAnalysis.Line2.Point2.Data.Condition, 
TestParameter, AutoAnalysis.Line2.Point2.Data.Start, false
TestParameter, AutoAnalysis.Line2.Point2.Data.StartVar, 
TestParameter, AutoAnalysis.Line2.Point2.Data.StartCondition, 
TestParameter, AutoAnalysis.Line2.GradientExpr, 0
TestParameter, AutoAnalysis.Marker.Enabled, false
TestParameter, AutoAnalysis.Marker.Data.Var, 
TestParameter, AutoAnalysis.Marker.Data.Condition, 
TestParameter, AutoAnalysis.Marker.Data.Start, false
TestParameter, AutoAnalysis.Marker.Data.StartVar, 
TestParameter, AutoAnalysis.Marker.Data.StartCondition, 
MetaData, TestRecord.EntryPoint, true
MetaData, TestRecord.RecordTime, 10/19/2022 11:51:15
MetaData, TestRecord.TestTarget, 
MetaData, TestRecord.IterationIndex, 235
MetaData, TestRecord.Preservation, true
MetaData, TestRecord.Flag, 
MetaData, TestRecord.Remarks, 
MetaData, TestRecord.LinkKey, a41085aa-b2fa-4584-84bf-18b48a1176ae
MetaData, TestRecord.Parameters, 
Dimension1, 101, 101
Dimension2, 1, 1
DataName, V, I
DataValue, -2, -0.10000200000000001
DataValue, -1.9600000000000002, -0.10000200000000001
DataValue, -1.9200000000000002, -0.10000200000000001
DataValue, -1.8800000000000001, -0.10000200000000001
DataValue, -1.84, -0.10000200000000001
DataValue, -1.8, -0.1
DataValue, -1.76, -0.10000200000000001
DataValue, -1.72, -0.10000400000000001
DataValue, -1.6800000000000002, -0.10000200000000001
DataValue, -1.6400000000000001, -0.1
DataValue, -1.6, -0.10000200000000001
DataValue, -1.56, -0.10000200000000001
DataValue, -1.52, -0.1
DataValue, -1.48, -0.099566000000000016
DataValue, -1.4400000000000002, -0.097844000000000014
DataValue, -1.4000000000000001, -0.096080000000000013
DataValue, -1.36, -0.094316000000000011
DataValue, -1.32, -0.092524000000000009
DataValue, -1.28, -0.090712
DataValue, -1.24, -0.088886
DataValue, -1.2, -0.087054
DataValue, -1.1600000000000001, -0.08521200000000001
DataValue, -1.12, -0.083356000000000013
DataValue, -1.08, -0.081502
DataValue, -1.04, -0.07963
DataValue, -1, -0.077752
DataValue, -0.96000000000000008, -0.075860000000000011
DataValue, -0.92, -0.073952
DataValue, -0.88, -0.072024
DataValue, -0.84000000000000008, -0.06965
DataValue, -0.8, -0.067718
DataValue, -0.76, -0.06578
DataValue, -0.72000000000000008, -0.063830000000000012
DataValue, -0.68, -0.061886000000000004
DataValue, -0.64, -0.059940000000000007
DataValue, -0.6, -0.057996000000000006
DataValue, -0.56, -0.056040000000000006
DataValue, -0.52, -0.054082000000000005
DataValue, -0.48000000000000004, -0.052124000000000004
DataValue, -0.44, -0.050166
DataValue, -0.4, -0.048200000000000007
DataValue, -0.36000000000000004, -0.046234000000000004
DataValue, -0.32, -0.044268
DataValue, -0.28, -0.042294000000000005
DataValue, -0.24000000000000002, -0.040330000000000005
DataValue, -0.2, -0.038368000000000006
DataValue, -0.16, -0.036402000000000004
DataValue, -0.12000000000000001, -0.034446000000000004
DataValue, -0.08, -0.032498000000000006
DataValue, -0.04, -0.030546000000000004
DataValue, 0, -0.028612000000000002
DataValue, 0.04, -0.026698000000000003
DataValue, 0.08, -0.024786000000000002
DataValue, 0.12000000000000001, -0.022894
DataValue, 0.16, -0.021022000000000002
DataValue, 0.2, -0.019162000000000002
DataValue, 0.24000000000000002, -0.017328000000000003
DataValue, 0.28, -0.015522000000000001
DataValue, 0.32, -0.013752
DataValue, 0.36000000000000004, -0.012024000000000002
DataValue, 0.4, -0.010286000000000002
DataValue, 0.44, -0.0086334
DataValue, 0.48000000000000004, -0.0071124000000000005
DataValue, 0.52, -0.0056768
DataValue, 0.56, -0.0043564
DataValue, 0.6, -0.0031916
DataValue, 0.64, -0.0022066
DataValue, 0.68, -0.0014568
DataValue, 0.72000000000000008, -0.00091516
DataValue, 0.76, -0.00060506
DataValue, 0.8, -0.00040208
DataValue, 0.84000000000000008, -0.00025694
DataValue, 0.88, -0.00014788
DataValue, 0.92, -7.1246E-05
DataValue, 0.96000000000000008, -2.7042E-05
DataValue, 1, -8.0316000000000012E-06
DataValue, 1.04, -2.0277E-06
DataValue, 1.08, -4.7225999999999997E-07
DataValue, 1.12, -1.0454E-07
DataValue, 1.1600000000000001, -2.24604E-08
DataValue, 1.2, -4.2506E-09
DataValue, 1.24, 4.4540000000000003E-10
DataValue, 1.28, 3.8006E-09
DataValue, 1.32, 1.3356599999999998E-08
DataValue, 1.36, 5.3647199999999995E-08
DataValue, 1.4000000000000001, 2.2924E-07
DataValue, 1.4400000000000002, 9.887E-07
DataValue, 1.48, 4.2454E-06
DataValue, 1.52, 1.7690000000000002E-05
DataValue, 1.56, 6.9528E-05
DataValue, 1.6, 0.00022948
DataValue, 1.6400000000000001, 0.00060996
DataValue, 1.6800000000000002, 0.001238
DataValue, 1.72, 0.0020702
DataValue, 1.76, 0.0030594
DataValue, 1.8, 0.0041412
DataValue, 1.84, 0.0053008000000000005
DataValue, 1.8800000000000001, 0.0065132
DataValue, 1.9200000000000002, 0.0077582
DataValue, 1.9600000000000002, 0.0090372
DataValue, 2, 0.0103534