
SetupTitle, I/V Sweep
PrimitiveTest, I/V Sweep
TestParameter, Context.MainFrame, B1500A
TestParameter, Channel.UnitType, SMU, SMU, SMU, SMU, SMU
TestParameter, Channel.Unit, SMU1:HP, SMU2:MP, SMU3:MP, SMU4:MP, SMU5:MP
TestParameter, Channel.IName, I, IDD1, IDD2, ISS, IPP
TestParameter, Channel.VName, V, VDD1, VDD2, VSS, VPP
TestParameter, Channel.Mode, V, V, V, V, V
TestParameter, Channel.Func, VAR1, CONST, CONST, CONST, CONST
TestParameter, Channel.Index, 
TestParameter, Channel.Time, 
TestParameter, Measurement.Port.Unit, SMU1:HP, SMU2:MP, SMU3:MP, SMU4:MP, SMU5:MP
TestParameter, Measurement.Port.SeriesResistor, NONE, NONE, NONE, NONE, NONE
TestParameter, Measurement.Port.Filter, ON, ON, ON, ON, ON
TestParameter, Measurement.Port.OutputVoltageComparison, 0, 0, 0, 0, 0
TestParameter, Measurement.Primary.Locus, Single
TestParameter, Measurement.Primary.Scale, LINEAR
TestParameter, Measurement.Primary.Start, -2
TestParameter, Measurement.Primary.Stop, 2
TestParameter, Measurement.Primary.Step, 0.04
TestParameter, Measurement.Primary.Compliance, 0.1
TestParameter, Measurement.Primary.PowerCompliance, 0
TestParameter, Measurement.Aborting.Condition, CONTINUE AT ANY
TestParameter, Measurement.PostOutput.Value, START
TestParameter, Measurement.PostOutput.Retention, OFF
TestParameter, Measurement.Bias.Source, -2, 1.8, 1.1, 0, 0
TestParameter, Measurement.Bias.Compliance, 0.1, 0.1, 0.1, 0.1, 0.1
TestParameter, Measurement.Monitor.Unit, SMU1:HP, SMU2:MP, SMU3:MP, SMU4:MP, SMU5:MP
TestParameter, Measurement.Monitor.Adc, HR ADC, HR ADC, HR ADC, HR ADC, HR ADC
TestParameter, Measurement.Monitor.Measurement, Compliance Side, Compliance Side, Compliance Side, Compliance Side, Compliance Side
TestParameter, Measurement.Monitor.RangingMode, LIMITED, LIMITED, LIMITED, LIMITED, LIMITED
TestParameter, Measurement.Monitor.RangeBoundary, 1nA, 1nA, 1nA, 1nA, 1nA
TestParameter, Measurement.Monitor.RangeRating, BY FULL RANGE, BY FULL RANGE, BY FULL RANGE, BY FULL RANGE, BY FULL RANGE
TestParameter, Measurement.Monitor.RangeRatingCoeff, 50, 50, 50, 50, 50
TestParameter, Measurement.Timing.Hold, 0
TestParameter, Measurement.Timing.Delay, 0
TestParameter, Measurement.Adc.HighSpeed.Mode, AUTO
TestParameter, Measurement.Adc.HighSpeed.Coeff, 1
TestParameter, Measurement.Adc.HighResolution.AutoZero, OFF
TestParameter, Measurement.Adc.HighResolution.Mode, AUTO
TestParameter, Measurement.Adc.HighResolution.Coeff, 6
TestParameter, Measurement.WaitTime.Source.Coeff, 1
TestParameter, Measurement.WaitTime.Source.Offset, 0
TestParameter, Measurement.WaitTime.Monitor.Coeff, 1
TestParameter, Measurement.WaitTime.Monitor.Offset, 0
TestParameter, Output.Graph.Enabled, true
TestParameter, Output.Graph.AutoScaling, false
TestParameter, Output.Graph.XAxis.Data, V
TestParameter, Output.Graph.XAxis.Scale, Linear
TestParameter, Output.Graph.XAxis.Left, -2
TestParameter, Output.Graph.XAxis.Right, 2
TestParameter, Output.Graph.XAxis.RunTimeAutoScale, true
TestParameter, Output.Graph.YAxis.Data, I
TestParameter, Output.Graph.YAxis.Scale, Linear
TestParameter, Output.Graph.YAxis.Bottom, -0.1
TestParameter, Output.Graph.YAxis.Top, 0.1
TestParameter, Output.Graph.YAxis.Group, 
TestParameter, Output.Graph.YAxis.RunTimeAutoScale, true
TestParameter, AutoAnalysis.Interpolation, false
TestParameter, AutoAnalysis.Var2StepCount, 1
TestParameter, AutoAnalysis.Var2StepScript, 
TestParameter, AutoAnalysis.Line1.Enabled, false
TestParameter, AutoAnalysis.Line1.Type, 1
TestParameter, AutoAnalysis.Line1.Fix, True
TestParameter, AutoAnalysis.Line1.YAxis, 0
TestParameter, AutoAnalysis.Line1.Point1.Type, 0
TestParameter, AutoAnalysis.Line1.Point1.XY.X, 
TestParameter, AutoAnalysis.Line1.Point1.XY.Y, 
TestParameter, AutoAnalysis.Line1.Point1.Data.Var, 
TestParameter, AutoAnalysis.Line1.Point1.Data.Condition, 
TestParameter, AutoAnalysis.Line1.Point1.Data.Start, false
TestParameter, AutoAnalysis.Line1.Point1.Data.StartVar, 
TestParameter, AutoAnalysis.Line1.Point1.Data.StartCondition, 
TestParameter, AutoAnalysis.Line1.Point2.Type, 0
TestParameter, AutoAnalysis.Line1.Point2.XY.X, 
TestParameter, AutoAnalysis.Line1.Point2.XY.Y, 
TestParameter, AutoAnalysis.Line1.Point2.Data.Var, 
TestParameter, AutoAnalysis.Line1.Point2.Data.Condition, 
TestParameter, AutoAnalysis.Line1.Point2.Data.Start, false
TestParameter, AutoAnalysis.Line1.Point2.Data.StartVar, 
TestParameter, AutoAnalysis.Line1.Point2.Data.StartCondition, 
TestParameter, AutoAnalysis.Line1.GradientExpr, 0
TestParameter, AutoAnalysis.Line2.Enabled, false
TestParameter, AutoAnalysis.Line2.Type, 1
TestParameter, AutoAnalysis.Line2.Fix, True
TestParameter, AutoAnalysis.Line2.YAxis, 0
TestParameter, AutoAnalysis.Line2.Point1.Type, 0
TestParameter, AutoAnalysis.Line2.Point1.XY.X, 
TestParameter, AutoAnalysis.Line2.Point1.XY.Y, 
TestParameter, AutoAnalysis.Line2.Point1.Data.Var, 
TestParameter, AutoAnalysis.Line2.Point1.Data.Condition, 
TestParameter, AutoAnalysis.Line2.Point1.Data.Start, false
TestParameter, AutoAnalysis.Line2.Point1.Data.StartVar, 
TestParameter, AutoAnalysis.Line2.Point1.Data.StartCondition, 
TestParameter, AutoAnalysis.Line2.Point2.Type, 0
TestParameter, AutoAnalysis.Line2.Point2.XY.X, 
TestParameter, AutoAnalysis.Line2.Point2.XY.Y, 
TestParameter, AutoAnalysis.Line2.Point2.Data.Var, 
TestParameter, AutoAnalysis.Line2.Point2.Data.Condition, 
TestParameter, AutoAnalysis.Line2.Point2.Data.Start, false
TestParameter, AutoAnalysis.Line2.Point2.Data.StartVar, 
TestParameter, AutoAnalysis.Line2.Point2.Data.StartCondition, 
TestParameter, AutoAnalysis.Line2.GradientExpr, 0
TestParameter, AutoAnalysis.Marker.Enabled, false
TestParameter, AutoAnalysis.Marker.Data.Var, 
TestParameter, AutoAnalysis.Marker.Data.Condition, 
TestParameter, AutoAnalysis.Marker.Data.Start, false
TestParameter, AutoAnalysis.Marker.Data.StartVar, 
TestParameter, AutoAnalysis.Marker.Data.StartCondition, 
MetaData, TestRecord.EntryPoint, true
MetaData, TestRecord.RecordTime, 10/19/2022 11:45:00
MetaData, TestRecord.TestTarget, 
MetaData, TestRecord.IterationIndex, 219
MetaData, TestRecord.Preservation, true
MetaData, TestRecord.Flag, 
MetaData, TestRecord.Remarks, 
MetaData, TestRecord.LinkKey, 4346abd7-4daa-4bb3-940e-bd40d643de05
MetaData, TestRecord.Parameters, 
Dimension1, 101, 101
Dimension2, 1, 1
DataName, V, I
DataValue, -2, -0.099792
DataValue, -1.9600000000000002, -0.097822
DataValue, -1.9200000000000002, -0.096058
DataValue, -1.8800000000000001, -0.094466000000000008
DataValue, -1.84, -0.092856000000000008
DataValue, -1.8, -0.091356
DataValue, -1.76, -0.089778000000000011
DataValue, -1.72, -0.088232
DataValue, -1.6800000000000002, -0.08683
DataValue, -1.6400000000000001, -0.08543400000000001
DataValue, -1.6, -0.084034000000000011
DataValue, -1.56, -0.082384000000000013
DataValue, -1.52, -0.081024000000000013
DataValue, -1.48, -0.079452000000000009
DataValue, -1.4400000000000002, -0.078174000000000007
DataValue, -1.4000000000000001, -0.0766
DataValue, -1.36, -0.075262000000000009
DataValue, -1.32, -0.073646
DataValue, -1.28, -0.072268000000000013
DataValue, -1.24, -0.070636
DataValue, -1.2, -0.069312000000000012
DataValue, -1.1600000000000001, -0.067734
DataValue, -1.12, -0.06634000000000001
DataValue, -1.08, -0.06470200000000001
DataValue, -1.04, -0.063266
DataValue, -1, -0.061736000000000006
DataValue, -0.96000000000000008, -0.060280000000000007
DataValue, -0.92, -0.058744000000000005
DataValue, -0.88, -0.057304000000000008
DataValue, -0.84000000000000008, -0.055734000000000006
DataValue, -0.8, -0.054276000000000005
DataValue, -0.76, -0.052788
DataValue, -0.72000000000000008, -0.051304
DataValue, -0.68, -0.049822000000000005
DataValue, -0.64, -0.048404
DataValue, -0.6, -0.046914000000000004
DataValue, -0.56, -0.045534000000000005
DataValue, -0.52, -0.044126000000000005
DataValue, -0.48000000000000004, -0.042764
DataValue, -0.44, -0.041372000000000006
DataValue, -0.4, -0.040114000000000004
DataValue, -0.36000000000000004, -0.038828
DataValue, -0.32, -0.037628
DataValue, -0.28, -0.036442
DataValue, -0.24000000000000002, -0.035332
DataValue, -0.2, -0.034252000000000005
DataValue, -0.16, -0.03322
DataValue, -0.12000000000000001, -0.032248000000000006
DataValue, -0.08, -0.031298
DataValue, -0.04, -0.03036
DataValue, 0, -0.029442000000000003
DataValue, 0.04, -0.028532000000000002
DataValue, 0.08, -0.027612
DataValue, 0.12000000000000001, -0.026722000000000003
DataValue, 0.16, -0.025816000000000002
DataValue, 0.2, -0.024912000000000004
DataValue, 0.24000000000000002, -0.024006000000000003
DataValue, 0.28, -0.023112
DataValue, 0.32, -0.022216000000000003
DataValue, 0.36000000000000004, -0.021316
DataValue, 0.4, -0.020426000000000003
DataValue, 0.44, -0.019528
DataValue, 0.48000000000000004, -0.018636000000000003
DataValue, 0.52, -0.017742
DataValue, 0.56, -0.016856000000000003
DataValue, 0.6, -0.015962
DataValue, 0.64, -0.015074
DataValue, 0.68, -0.014182000000000002
DataValue, 0.72000000000000008, -0.013292000000000002
DataValue, 0.76, -0.012402000000000002
DataValue, 0.8, -0.011512000000000001
DataValue, 0.84000000000000008, -0.010620000000000001
DataValue, 0.88, -0.0097392
DataValue, 0.92, -0.0088478
DataValue, 0.96000000000000008, -0.0079516
DataValue, 1, -0.0070524
DataValue, 1.04, -0.0061572
DataValue, 1.08, -0.0052668
DataValue, 1.12, -0.0043622
DataValue, 1.1600000000000001, -0.003471
DataValue, 1.2, -0.0025668
DataValue, 1.24, -0.0016578
DataValue, 1.28, -0.00075602
DataValue, 1.32, 0.0001487
DataValue, 1.36, 0.0010593800000000002
DataValue, 1.4000000000000001, 0.0019728000000000002
DataValue, 1.4400000000000002, 0.0028638
DataValue, 1.48, 0.0037760000000000003
DataValue, 1.52, 0.0047036000000000005
DataValue, 1.56, 0.0056068
DataValue, 1.6, 0.0065242
DataValue, 1.6400000000000001, 0.0074308
DataValue, 1.6800000000000002, 0.0083396
DataValue, 1.72, 0.0092464
DataValue, 1.76, 0.010173
DataValue, 1.8, 0.011089
DataValue, 1.84, 0.011984000000000002
DataValue, 1.8800000000000001, 0.012908000000000001
DataValue, 1.9200000000000002, 0.013832
DataValue, 1.9600000000000002, 0.014742000000000002
DataValue, 2, 0.015654