
SetupTitle, I/V Sweep
PrimitiveTest, I/V Sweep
TestParameter, Context.MainFrame, B1500A
TestParameter, Channel.UnitType, SMU, SMU, SMU, SMU, SMU
TestParameter, Channel.Unit, SMU1:HP, SMU2:MP, SMU3:MP, SMU4:MP, SMU5:MP
TestParameter, Channel.IName, I, IDD1, IDD2, ISS, IPP
TestParameter, Channel.VName, V, VDD1, VDD2, VSS, VPP
TestParameter, Channel.Mode, V, V, V, V, V
TestParameter, Channel.Func, CONST, CONST, VAR1, CONST, CONST
TestParameter, Channel.Index, 
TestParameter, Channel.Time, 
TestParameter, Measurement.Port.Unit, SMU1:HP, SMU2:MP, SMU3:MP, SMU4:MP, SMU5:MP
TestParameter, Measurement.Port.SeriesResistor, NONE, NONE, NONE, NONE, NONE
TestParameter, Measurement.Port.Filter, ON, ON, ON, ON, ON
TestParameter, Measurement.Port.OutputVoltageComparison, 0, 0, 0, 0, 0
TestParameter, Measurement.Primary.Locus, Single
TestParameter, Measurement.Primary.Scale, LINEAR
TestParameter, Measurement.Primary.Start, -2
TestParameter, Measurement.Primary.Stop, 2
TestParameter, Measurement.Primary.Step, 0.04
TestParameter, Measurement.Primary.Compliance, 0.1
TestParameter, Measurement.Primary.PowerCompliance, 0
TestParameter, Measurement.Aborting.Condition, CONTINUE AT ANY
TestParameter, Measurement.PostOutput.Value, START
TestParameter, Measurement.PostOutput.Retention, OFF
TestParameter, Measurement.Bias.Source, 0, 0, -2, 0, 0
TestParameter, Measurement.Bias.Compliance, 0.1, 0.1, 0.1, 0.1, 0.1
TestParameter, Measurement.Monitor.Unit, SMU1:HP, SMU2:MP, SMU3:MP, SMU4:MP, SMU5:MP
TestParameter, Measurement.Monitor.Adc, HR ADC, HR ADC, HR ADC, HR ADC, HR ADC
TestParameter, Measurement.Monitor.Measurement, Compliance Side, Compliance Side, Compliance Side, Compliance Side, Compliance Side
TestParameter, Measurement.Monitor.RangingMode, LIMITED, LIMITED, LIMITED, LIMITED, LIMITED
TestParameter, Measurement.Monitor.RangeBoundary, 1nA, 1nA, 1nA, 1nA, 1nA
TestParameter, Measurement.Monitor.RangeRating, BY FULL RANGE, BY FULL RANGE, BY FULL RANGE, BY FULL RANGE, BY FULL RANGE
TestParameter, Measurement.Monitor.RangeRatingCoeff, 50, 50, 50, 50, 50
TestParameter, Measurement.Timing.Hold, 0
TestParameter, Measurement.Timing.Delay, 0
TestParameter, Measurement.Adc.HighSpeed.Mode, AUTO
TestParameter, Measurement.Adc.HighSpeed.Coeff, 1
TestParameter, Measurement.Adc.HighResolution.AutoZero, OFF
TestParameter, Measurement.Adc.HighResolution.Mode, AUTO
TestParameter, Measurement.Adc.HighResolution.Coeff, 6
TestParameter, Measurement.WaitTime.Source.Coeff, 1
TestParameter, Measurement.WaitTime.Source.Offset, 0
TestParameter, Measurement.WaitTime.Monitor.Coeff, 1
TestParameter, Measurement.WaitTime.Monitor.Offset, 0
TestParameter, Output.Graph.Enabled, true
TestParameter, Output.Graph.AutoScaling, false
TestParameter, Output.Graph.XAxis.Data, VDD2
TestParameter, Output.Graph.XAxis.Scale, Linear
TestParameter, Output.Graph.XAxis.Left, -2
TestParameter, Output.Graph.XAxis.Right, 2
TestParameter, Output.Graph.XAxis.RunTimeAutoScale, true
TestParameter, Output.Graph.YAxis.Data, IDD2
TestParameter, Output.Graph.YAxis.Scale, Linear
TestParameter, Output.Graph.YAxis.Bottom, -0.1
TestParameter, Output.Graph.YAxis.Top, 0.1
TestParameter, Output.Graph.YAxis.Group, 
TestParameter, Output.Graph.YAxis.RunTimeAutoScale, true
TestParameter, AutoAnalysis.Interpolation, false
TestParameter, AutoAnalysis.Var2StepCount, 1
TestParameter, AutoAnalysis.Var2StepScript, 
TestParameter, AutoAnalysis.Line1.Enabled, false
TestParameter, AutoAnalysis.Line1.Type, 1
TestParameter, AutoAnalysis.Line1.Fix, True
TestParameter, AutoAnalysis.Line1.YAxis, 0
TestParameter, AutoAnalysis.Line1.Point1.Type, 0
TestParameter, AutoAnalysis.Line1.Point1.XY.X, 
TestParameter, AutoAnalysis.Line1.Point1.XY.Y, 
TestParameter, AutoAnalysis.Line1.Point1.Data.Var, 
TestParameter, AutoAnalysis.Line1.Point1.Data.Condition, 
TestParameter, AutoAnalysis.Line1.Point1.Data.Start, false
TestParameter, AutoAnalysis.Line1.Point1.Data.StartVar, 
TestParameter, AutoAnalysis.Line1.Point1.Data.StartCondition, 
TestParameter, AutoAnalysis.Line1.Point2.Type, 0
TestParameter, AutoAnalysis.Line1.Point2.XY.X, 
TestParameter, AutoAnalysis.Line1.Point2.XY.Y, 
TestParameter, AutoAnalysis.Line1.Point2.Data.Var, 
TestParameter, AutoAnalysis.Line1.Point2.Data.Condition, 
TestParameter, AutoAnalysis.Line1.Point2.Data.Start, false
TestParameter, AutoAnalysis.Line1.Point2.Data.StartVar, 
TestParameter, AutoAnalysis.Line1.Point2.Data.StartCondition, 
TestParameter, AutoAnalysis.Line1.GradientExpr, 0
TestParameter, AutoAnalysis.Line2.Enabled, false
TestParameter, AutoAnalysis.Line2.Type, 1
TestParameter, AutoAnalysis.Line2.Fix, True
TestParameter, AutoAnalysis.Line2.YAxis, 0
TestParameter, AutoAnalysis.Line2.Point1.Type, 0
TestParameter, AutoAnalysis.Line2.Point1.XY.X, 
TestParameter, AutoAnalysis.Line2.Point1.XY.Y, 
TestParameter, AutoAnalysis.Line2.Point1.Data.Var, 
TestParameter, AutoAnalysis.Line2.Point1.Data.Condition, 
TestParameter, AutoAnalysis.Line2.Point1.Data.Start, false
TestParameter, AutoAnalysis.Line2.Point1.Data.StartVar, 
TestParameter, AutoAnalysis.Line2.Point1.Data.StartCondition, 
TestParameter, AutoAnalysis.Line2.Point2.Type, 0
TestParameter, AutoAnalysis.Line2.Point2.XY.X, 
TestParameter, AutoAnalysis.Line2.Point2.XY.Y, 
TestParameter, AutoAnalysis.Line2.Point2.Data.Var, 
TestParameter, AutoAnalysis.Line2.Point2.Data.Condition, 
TestParameter, AutoAnalysis.Line2.Point2.Data.Start, false
TestParameter, AutoAnalysis.Line2.Point2.Data.StartVar, 
TestParameter, AutoAnalysis.Line2.Point2.Data.StartCondition, 
TestParameter, AutoAnalysis.Line2.GradientExpr, 0
TestParameter, AutoAnalysis.Marker.Enabled, false
TestParameter, AutoAnalysis.Marker.Data.Var, 
TestParameter, AutoAnalysis.Marker.Data.Condition, 
TestParameter, AutoAnalysis.Marker.Data.Start, false
TestParameter, AutoAnalysis.Marker.Data.StartVar, 
TestParameter, AutoAnalysis.Marker.Data.StartCondition, 
MetaData, TestRecord.EntryPoint, true
MetaData, TestRecord.RecordTime, 10/19/2022 10:49:37
MetaData, TestRecord.TestTarget, 
MetaData, TestRecord.IterationIndex, 131
MetaData, TestRecord.Preservation, true
MetaData, TestRecord.Flag, 
MetaData, TestRecord.Remarks, 
MetaData, TestRecord.LinkKey, d1551d6a-9095-481a-8c0b-e14aa1b0a059
MetaData, TestRecord.Parameters, 
Dimension1, 101, 101
Dimension2, 1, 1
DataName, VDD2, IDD2
DataValue, -2, -0.099950000000000011
DataValue, -1.9600000000000002, -0.099976000000000009
DataValue, -1.9200000000000002, -0.099978000000000011
DataValue, -1.8800000000000001, -0.099980000000000013
DataValue, -1.84, -0.099980000000000013
DataValue, -1.8, -0.099976000000000009
DataValue, -1.76, -0.099976000000000009
DataValue, -1.72, -0.099978000000000011
DataValue, -1.6800000000000002, -0.099978000000000011
DataValue, -1.6400000000000001, -0.098706
DataValue, -1.6, -0.095930000000000015
DataValue, -1.56, -0.09313600000000001
DataValue, -1.52, -0.09056800000000001
DataValue, -1.48, -0.087832000000000007
DataValue, -1.4400000000000002, -0.085570000000000007
DataValue, -1.4000000000000001, -0.083692
DataValue, -1.36, -0.081456
DataValue, -1.32, -0.079178000000000012
DataValue, -1.28, -0.076898000000000008
DataValue, -1.24, -0.074608000000000008
DataValue, -1.2, -0.072302
DataValue, -1.1600000000000001, -0.069992000000000013
DataValue, -1.12, -0.067666
DataValue, -1.08, -0.065344
DataValue, -1.04, -0.06299
DataValue, -1, -0.060658000000000004
DataValue, -0.96000000000000008, -0.058276000000000008
DataValue, -0.92, -0.055926000000000003
DataValue, -0.88, -0.053550000000000007
DataValue, -0.84000000000000008, -0.051172
DataValue, -0.8, -0.048780000000000004
DataValue, -0.76, -0.046374000000000005
DataValue, -0.72000000000000008, -0.043972000000000004
DataValue, -0.68, -0.041562
DataValue, -0.64, -0.039154
DataValue, -0.6, -0.036728000000000004
DataValue, -0.56, -0.034306
DataValue, -0.52, -0.031866000000000005
DataValue, -0.48000000000000004, -0.029436000000000004
DataValue, -0.44, -0.026990000000000004
DataValue, -0.4, -0.024556
DataValue, -0.36000000000000004, -0.022106
DataValue, -0.32, -0.019656000000000003
DataValue, -0.28, -0.017204
DataValue, -0.24000000000000002, -0.014746
DataValue, -0.2, -0.012292
DataValue, -0.16, -0.0098496
DataValue, -0.12000000000000001, -0.007391
DataValue, -0.08, -0.0049292
DataValue, -0.04, -0.0024682000000000003
DataValue, 0, -5.1613000000000009E-06
DataValue, 0.04, 0.0024578
DataValue, 0.08, 0.0049206
DataValue, 0.12000000000000001, 0.0073820000000000005
DataValue, 0.16, 0.0098424
DataValue, 0.2, 0.012322000000000001
DataValue, 0.24000000000000002, 0.014774
DataValue, 0.28, 0.017232
DataValue, 0.32, 0.019686000000000002
DataValue, 0.36000000000000004, 0.022138
DataValue, 0.4, 0.02459
DataValue, 0.44, 0.027034000000000002
DataValue, 0.48000000000000004, 0.029480000000000003
DataValue, 0.52, 0.031926
DataValue, 0.56, 0.03436
DataValue, 0.6, 0.036800000000000006
DataValue, 0.64, 0.039226000000000004
DataValue, 0.68, 0.041664000000000007
DataValue, 0.72000000000000008, 0.04408
DataValue, 0.76, 0.04651
DataValue, 0.8, 0.048922000000000007
DataValue, 0.84000000000000008, 0.051346
DataValue, 0.88, 0.053754
DataValue, 0.92, 0.056186000000000007
DataValue, 0.96000000000000008, 0.058582
DataValue, 1, 0.061074
DataValue, 1.04, 0.063614
DataValue, 1.08, 0.06611800000000001
DataValue, 1.12, 0.069566
DataValue, 1.1600000000000001, 0.072532000000000013
DataValue, 1.2, 0.07692800000000001
DataValue, 1.24, 0.079332000000000014
DataValue, 1.28, 0.082388
DataValue, 1.32, 0.085316
DataValue, 1.36, 0.08833
DataValue, 1.4000000000000001, 0.091492
DataValue, 1.4400000000000002, 0.094522000000000009
DataValue, 1.48, 0.097924000000000011
DataValue, 1.52, 0.10000400000000001
DataValue, 1.56, 0.10000200000000001
DataValue, 1.6, 0.10000400000000001
DataValue, 1.6400000000000001, 0.10000400000000001
DataValue, 1.6800000000000002, 0.10000400000000001
DataValue, 1.72, 0.10000200000000001
DataValue, 1.76, 0.10000200000000001
DataValue, 1.8, 0.10000400000000001
DataValue, 1.84, 0.10000400000000001
DataValue, 1.8800000000000001, 0.10000200000000001
DataValue, 1.9200000000000002, 0.10000400000000001
DataValue, 1.9600000000000002, 0.10000200000000001
DataValue, 2, 0.10000200000000001