
SetupTitle, I/V Sweep
PrimitiveTest, I/V Sweep
TestParameter, Context.MainFrame, B1500A
TestParameter, Channel.UnitType, SMU, SMU, SMU, SMU, SMU
TestParameter, Channel.Unit, SMU1:HP, SMU2:MP, SMU3:MP, SMU4:MP, SMU5:MP
TestParameter, Channel.IName, I, IDD1, IDD2, ISS, IPP
TestParameter, Channel.VName, V, VDD1, VDD2, VSS, VPP
TestParameter, Channel.Mode, V, V, V, V, V
TestParameter, Channel.Func, VAR1, CONST, CONST, CONST, CONST
TestParameter, Channel.Index, 
TestParameter, Channel.Time, 
TestParameter, Measurement.Port.Unit, SMU1:HP, SMU2:MP, SMU3:MP, SMU4:MP, SMU5:MP
TestParameter, Measurement.Port.SeriesResistor, NONE, NONE, NONE, NONE, NONE
TestParameter, Measurement.Port.Filter, ON, ON, ON, ON, ON
TestParameter, Measurement.Port.OutputVoltageComparison, 0, 0, 0, 0, 0
TestParameter, Measurement.Primary.Locus, Single
TestParameter, Measurement.Primary.Scale, LINEAR
TestParameter, Measurement.Primary.Start, -2
TestParameter, Measurement.Primary.Stop, 2
TestParameter, Measurement.Primary.Step, 0.04
TestParameter, Measurement.Primary.Compliance, 0.1
TestParameter, Measurement.Primary.PowerCompliance, 0
TestParameter, Measurement.Aborting.Condition, CONTINUE AT ANY
TestParameter, Measurement.PostOutput.Value, START
TestParameter, Measurement.PostOutput.Retention, OFF
TestParameter, Measurement.Bias.Source, -2, 1.8, 1.1, 0, 0
TestParameter, Measurement.Bias.Compliance, 0.1, 0.1, 0.1, 0.1, 0.1
TestParameter, Measurement.Monitor.Unit, SMU1:HP, SMU2:MP, SMU3:MP, SMU4:MP, SMU5:MP
TestParameter, Measurement.Monitor.Adc, HR ADC, HR ADC, HR ADC, HR ADC, HR ADC
TestParameter, Measurement.Monitor.Measurement, Compliance Side, Compliance Side, Compliance Side, Compliance Side, Compliance Side
TestParameter, Measurement.Monitor.RangingMode, LIMITED, LIMITED, LIMITED, LIMITED, LIMITED
TestParameter, Measurement.Monitor.RangeBoundary, 1nA, 1nA, 1nA, 1nA, 1nA
TestParameter, Measurement.Monitor.RangeRating, BY FULL RANGE, BY FULL RANGE, BY FULL RANGE, BY FULL RANGE, BY FULL RANGE
TestParameter, Measurement.Monitor.RangeRatingCoeff, 50, 50, 50, 50, 50
TestParameter, Measurement.Timing.Hold, 0
TestParameter, Measurement.Timing.Delay, 0
TestParameter, Measurement.Adc.HighSpeed.Mode, AUTO
TestParameter, Measurement.Adc.HighSpeed.Coeff, 1
TestParameter, Measurement.Adc.HighResolution.AutoZero, OFF
TestParameter, Measurement.Adc.HighResolution.Mode, AUTO
TestParameter, Measurement.Adc.HighResolution.Coeff, 6
TestParameter, Measurement.WaitTime.Source.Coeff, 1
TestParameter, Measurement.WaitTime.Source.Offset, 0
TestParameter, Measurement.WaitTime.Monitor.Coeff, 1
TestParameter, Measurement.WaitTime.Monitor.Offset, 0
TestParameter, Output.Graph.Enabled, true
TestParameter, Output.Graph.AutoScaling, false
TestParameter, Output.Graph.XAxis.Data, V
TestParameter, Output.Graph.XAxis.Scale, Linear
TestParameter, Output.Graph.XAxis.Left, -2
TestParameter, Output.Graph.XAxis.Right, 2
TestParameter, Output.Graph.XAxis.RunTimeAutoScale, true
TestParameter, Output.Graph.YAxis.Data, I
TestParameter, Output.Graph.YAxis.Scale, Linear
TestParameter, Output.Graph.YAxis.Bottom, -0.1
TestParameter, Output.Graph.YAxis.Top, 0.1
TestParameter, Output.Graph.YAxis.Group, 
TestParameter, Output.Graph.YAxis.RunTimeAutoScale, true
TestParameter, AutoAnalysis.Interpolation, false
TestParameter, AutoAnalysis.Var2StepCount, 1
TestParameter, AutoAnalysis.Var2StepScript, 
TestParameter, AutoAnalysis.Line1.Enabled, false
TestParameter, AutoAnalysis.Line1.Type, 1
TestParameter, AutoAnalysis.Line1.Fix, True
TestParameter, AutoAnalysis.Line1.YAxis, 0
TestParameter, AutoAnalysis.Line1.Point1.Type, 0
TestParameter, AutoAnalysis.Line1.Point1.XY.X, 
TestParameter, AutoAnalysis.Line1.Point1.XY.Y, 
TestParameter, AutoAnalysis.Line1.Point1.Data.Var, 
TestParameter, AutoAnalysis.Line1.Point1.Data.Condition, 
TestParameter, AutoAnalysis.Line1.Point1.Data.Start, false
TestParameter, AutoAnalysis.Line1.Point1.Data.StartVar, 
TestParameter, AutoAnalysis.Line1.Point1.Data.StartCondition, 
TestParameter, AutoAnalysis.Line1.Point2.Type, 0
TestParameter, AutoAnalysis.Line1.Point2.XY.X, 
TestParameter, AutoAnalysis.Line1.Point2.XY.Y, 
TestParameter, AutoAnalysis.Line1.Point2.Data.Var, 
TestParameter, AutoAnalysis.Line1.Point2.Data.Condition, 
TestParameter, AutoAnalysis.Line1.Point2.Data.Start, false
TestParameter, AutoAnalysis.Line1.Point2.Data.StartVar, 
TestParameter, AutoAnalysis.Line1.Point2.Data.StartCondition, 
TestParameter, AutoAnalysis.Line1.GradientExpr, 0
TestParameter, AutoAnalysis.Line2.Enabled, false
TestParameter, AutoAnalysis.Line2.Type, 1
TestParameter, AutoAnalysis.Line2.Fix, True
TestParameter, AutoAnalysis.Line2.YAxis, 0
TestParameter, AutoAnalysis.Line2.Point1.Type, 0
TestParameter, AutoAnalysis.Line2.Point1.XY.X, 
TestParameter, AutoAnalysis.Line2.Point1.XY.Y, 
TestParameter, AutoAnalysis.Line2.Point1.Data.Var, 
TestParameter, AutoAnalysis.Line2.Point1.Data.Condition, 
TestParameter, AutoAnalysis.Line2.Point1.Data.Start, false
TestParameter, AutoAnalysis.Line2.Point1.Data.StartVar, 
TestParameter, AutoAnalysis.Line2.Point1.Data.StartCondition, 
TestParameter, AutoAnalysis.Line2.Point2.Type, 0
TestParameter, AutoAnalysis.Line2.Point2.XY.X, 
TestParameter, AutoAnalysis.Line2.Point2.XY.Y, 
TestParameter, AutoAnalysis.Line2.Point2.Data.Var, 
TestParameter, AutoAnalysis.Line2.Point2.Data.Condition, 
TestParameter, AutoAnalysis.Line2.Point2.Data.Start, false
TestParameter, AutoAnalysis.Line2.Point2.Data.StartVar, 
TestParameter, AutoAnalysis.Line2.Point2.Data.StartCondition, 
TestParameter, AutoAnalysis.Line2.GradientExpr, 0
TestParameter, AutoAnalysis.Marker.Enabled, false
TestParameter, AutoAnalysis.Marker.Data.Var, 
TestParameter, AutoAnalysis.Marker.Data.Condition, 
TestParameter, AutoAnalysis.Marker.Data.Start, false
TestParameter, AutoAnalysis.Marker.Data.StartVar, 
TestParameter, AutoAnalysis.Marker.Data.StartCondition, 
MetaData, TestRecord.EntryPoint, true
MetaData, TestRecord.RecordTime, 10/19/2022 11:47:03
MetaData, TestRecord.TestTarget, 
MetaData, TestRecord.IterationIndex, 223
MetaData, TestRecord.Preservation, true
MetaData, TestRecord.Flag, 
MetaData, TestRecord.Remarks, 
MetaData, TestRecord.LinkKey, 7a1895e4-b748-4efd-aa74-fab6e25b435f
MetaData, TestRecord.Parameters, 
Dimension1, 101, 101
Dimension2, 1, 1
DataName, V, I
DataValue, -2, -0.10000200000000001
DataValue, -1.9600000000000002, -0.10000200000000001
DataValue, -1.9200000000000002, -0.1
DataValue, -1.8800000000000001, -0.10000200000000001
DataValue, -1.84, -0.10000200000000001
DataValue, -1.8, -0.10000200000000001
DataValue, -1.76, -0.1
DataValue, -1.72, -0.1
DataValue, -1.6800000000000002, -0.10000200000000001
DataValue, -1.6400000000000001, -0.10000200000000001
DataValue, -1.6, -0.10000200000000001
DataValue, -1.56, -0.10000200000000001
DataValue, -1.52, -0.1
DataValue, -1.48, -0.099216000000000013
DataValue, -1.4400000000000002, -0.09753400000000001
DataValue, -1.4000000000000001, -0.095636000000000013
DataValue, -1.36, -0.094002
DataValue, -1.32, -0.092168000000000014
DataValue, -1.28, -0.09041600000000001
DataValue, -1.24, -0.08859800000000001
DataValue, -1.2, -0.08679
DataValue, -1.1600000000000001, -0.084856
DataValue, -1.12, -0.083148000000000014
DataValue, -1.08, -0.081394000000000008
DataValue, -1.04, -0.079572
DataValue, -1, -0.07777
DataValue, -0.96000000000000008, -0.076076
DataValue, -0.92, -0.07426
DataValue, -0.88, -0.072508
DataValue, -0.84000000000000008, -0.07068
DataValue, -0.8, -0.068982
DataValue, -0.76, -0.067174000000000011
DataValue, -0.72000000000000008, -0.065416
DataValue, -0.68, -0.06362000000000001
DataValue, -0.64, -0.061930000000000006
DataValue, -0.6, -0.060084000000000005
DataValue, -0.56, -0.058356000000000005
DataValue, -0.52, -0.056572000000000004
DataValue, -0.48000000000000004, -0.054890000000000008
DataValue, -0.44, -0.053116000000000003
DataValue, -0.4, -0.051422
DataValue, -0.36000000000000004, -0.049698000000000006
DataValue, -0.32, -0.048012000000000006
DataValue, -0.28, -0.046294
DataValue, -0.24000000000000002, -0.044602
DataValue, -0.2, -0.042926000000000006
DataValue, -0.16, -0.041262000000000007
DataValue, -0.12000000000000001, -0.039622000000000004
DataValue, -0.08, -0.037986000000000006
DataValue, -0.04, -0.036382000000000005
DataValue, 0, -0.034752000000000005
DataValue, 0.04, -0.033156000000000005
DataValue, 0.08, -0.031564
DataValue, 0.12000000000000001, -0.030012000000000004
DataValue, 0.16, -0.028456000000000002
DataValue, 0.2, -0.026908
DataValue, 0.24000000000000002, -0.025382000000000002
DataValue, 0.28, -0.023882
DataValue, 0.32, -0.022386000000000003
DataValue, 0.36000000000000004, -0.020914000000000002
DataValue, 0.4, -0.019468000000000003
DataValue, 0.44, -0.01805
DataValue, 0.48000000000000004, -0.016652
DataValue, 0.52, -0.015290000000000002
DataValue, 0.56, -0.013964
DataValue, 0.6, -0.012674000000000001
DataValue, 0.64, -0.011418000000000001
DataValue, 0.68, -0.010220000000000002
DataValue, 0.72000000000000008, -0.0090736
DataValue, 0.76, -0.0079814
DataValue, 0.8, -0.0069640000000000006
DataValue, 0.84000000000000008, -0.0060262
DataValue, 0.88, -0.0051692000000000005
DataValue, 0.92, -0.0044142
DataValue, 0.96000000000000008, -0.003751
DataValue, 1, -0.0031556
DataValue, 1.04, -0.0026214
DataValue, 1.08, -0.0021136
DataValue, 1.12, -0.0016330000000000001
DataValue, 1.1600000000000001, -0.0011554
DataValue, 1.2, -0.00069060000000000009
DataValue, 1.24, -0.00022928000000000003
DataValue, 1.28, 0.00023346
DataValue, 1.32, 0.0006895400000000001
DataValue, 1.36, 0.0011552
DataValue, 1.4000000000000001, 0.0016182
DataValue, 1.4400000000000002, 0.0020776
DataValue, 1.48, 0.0025384
DataValue, 1.52, 0.0029986
DataValue, 1.56, 0.0034598000000000003
DataValue, 1.6, 0.0039192
DataValue, 1.6400000000000001, 0.0043836000000000005
DataValue, 1.6800000000000002, 0.0048464
DataValue, 1.72, 0.0053088
DataValue, 1.76, 0.005765
DataValue, 1.8, 0.0062320000000000006
DataValue, 1.84, 0.006698
DataValue, 1.8800000000000001, 0.0071660000000000005
DataValue, 1.9200000000000002, 0.007632
DataValue, 1.9600000000000002, 0.0081102
DataValue, 2, 0.008578800000000001