
SetupTitle, I/V Sweep
PrimitiveTest, I/V Sweep
TestParameter, Context.MainFrame, B1500A
TestParameter, Channel.UnitType, SMU, SMU, SMU, SMU, SMU
TestParameter, Channel.Unit, SMU1:HP, SMU2:MP, SMU3:MP, SMU4:MP, SMU5:MP
TestParameter, Channel.IName, I, IDD1, IDD2, ISS, IPP
TestParameter, Channel.VName, V, VDD1, VDD2, VSS, VPP
TestParameter, Channel.Mode, V, V, V, V, V
TestParameter, Channel.Func, VAR1, CONST, CONST, CONST, CONST
TestParameter, Channel.Index, 
TestParameter, Channel.Time, 
TestParameter, Measurement.Port.Unit, SMU1:HP, SMU2:MP, SMU3:MP, SMU4:MP, SMU5:MP
TestParameter, Measurement.Port.SeriesResistor, NONE, NONE, NONE, NONE, NONE
TestParameter, Measurement.Port.Filter, ON, ON, ON, ON, ON
TestParameter, Measurement.Port.OutputVoltageComparison, 0, 0, 0, 0, 0
TestParameter, Measurement.Primary.Locus, Single
TestParameter, Measurement.Primary.Scale, LINEAR
TestParameter, Measurement.Primary.Start, -2
TestParameter, Measurement.Primary.Stop, 2
TestParameter, Measurement.Primary.Step, 0.04
TestParameter, Measurement.Primary.Compliance, 0.1
TestParameter, Measurement.Primary.PowerCompliance, 0
TestParameter, Measurement.Aborting.Condition, CONTINUE AT ANY
TestParameter, Measurement.PostOutput.Value, START
TestParameter, Measurement.PostOutput.Retention, OFF
TestParameter, Measurement.Bias.Source, -2, 1.8, 1.1, 0, 0
TestParameter, Measurement.Bias.Compliance, 0.1, 0.1, 0.1, 0.1, 0.1
TestParameter, Measurement.Monitor.Unit, SMU1:HP, SMU2:MP, SMU3:MP, SMU4:MP, SMU5:MP
TestParameter, Measurement.Monitor.Adc, HR ADC, HR ADC, HR ADC, HR ADC, HR ADC
TestParameter, Measurement.Monitor.Measurement, Compliance Side, Compliance Side, Compliance Side, Compliance Side, Compliance Side
TestParameter, Measurement.Monitor.RangingMode, LIMITED, LIMITED, LIMITED, LIMITED, LIMITED
TestParameter, Measurement.Monitor.RangeBoundary, 1nA, 1nA, 1nA, 1nA, 1nA
TestParameter, Measurement.Monitor.RangeRating, BY FULL RANGE, BY FULL RANGE, BY FULL RANGE, BY FULL RANGE, BY FULL RANGE
TestParameter, Measurement.Monitor.RangeRatingCoeff, 50, 50, 50, 50, 50
TestParameter, Measurement.Timing.Hold, 0
TestParameter, Measurement.Timing.Delay, 0
TestParameter, Measurement.Adc.HighSpeed.Mode, AUTO
TestParameter, Measurement.Adc.HighSpeed.Coeff, 1
TestParameter, Measurement.Adc.HighResolution.AutoZero, OFF
TestParameter, Measurement.Adc.HighResolution.Mode, AUTO
TestParameter, Measurement.Adc.HighResolution.Coeff, 6
TestParameter, Measurement.WaitTime.Source.Coeff, 1
TestParameter, Measurement.WaitTime.Source.Offset, 0
TestParameter, Measurement.WaitTime.Monitor.Coeff, 1
TestParameter, Measurement.WaitTime.Monitor.Offset, 0
TestParameter, Output.Graph.Enabled, true
TestParameter, Output.Graph.AutoScaling, false
TestParameter, Output.Graph.XAxis.Data, V
TestParameter, Output.Graph.XAxis.Scale, Linear
TestParameter, Output.Graph.XAxis.Left, -2
TestParameter, Output.Graph.XAxis.Right, 2
TestParameter, Output.Graph.XAxis.RunTimeAutoScale, true
TestParameter, Output.Graph.YAxis.Data, I
TestParameter, Output.Graph.YAxis.Scale, Linear
TestParameter, Output.Graph.YAxis.Bottom, -0.1
TestParameter, Output.Graph.YAxis.Top, 0.1
TestParameter, Output.Graph.YAxis.Group, 
TestParameter, Output.Graph.YAxis.RunTimeAutoScale, true
TestParameter, AutoAnalysis.Interpolation, false
TestParameter, AutoAnalysis.Var2StepCount, 1
TestParameter, AutoAnalysis.Var2StepScript, 
TestParameter, AutoAnalysis.Line1.Enabled, false
TestParameter, AutoAnalysis.Line1.Type, 1
TestParameter, AutoAnalysis.Line1.Fix, True
TestParameter, AutoAnalysis.Line1.YAxis, 0
TestParameter, AutoAnalysis.Line1.Point1.Type, 0
TestParameter, AutoAnalysis.Line1.Point1.XY.X, 
TestParameter, AutoAnalysis.Line1.Point1.XY.Y, 
TestParameter, AutoAnalysis.Line1.Point1.Data.Var, 
TestParameter, AutoAnalysis.Line1.Point1.Data.Condition, 
TestParameter, AutoAnalysis.Line1.Point1.Data.Start, false
TestParameter, AutoAnalysis.Line1.Point1.Data.StartVar, 
TestParameter, AutoAnalysis.Line1.Point1.Data.StartCondition, 
TestParameter, AutoAnalysis.Line1.Point2.Type, 0
TestParameter, AutoAnalysis.Line1.Point2.XY.X, 
TestParameter, AutoAnalysis.Line1.Point2.XY.Y, 
TestParameter, AutoAnalysis.Line1.Point2.Data.Var, 
TestParameter, AutoAnalysis.Line1.Point2.Data.Condition, 
TestParameter, AutoAnalysis.Line1.Point2.Data.Start, false
TestParameter, AutoAnalysis.Line1.Point2.Data.StartVar, 
TestParameter, AutoAnalysis.Line1.Point2.Data.StartCondition, 
TestParameter, AutoAnalysis.Line1.GradientExpr, 0
TestParameter, AutoAnalysis.Line2.Enabled, false
TestParameter, AutoAnalysis.Line2.Type, 1
TestParameter, AutoAnalysis.Line2.Fix, True
TestParameter, AutoAnalysis.Line2.YAxis, 0
TestParameter, AutoAnalysis.Line2.Point1.Type, 0
TestParameter, AutoAnalysis.Line2.Point1.XY.X, 
TestParameter, AutoAnalysis.Line2.Point1.XY.Y, 
TestParameter, AutoAnalysis.Line2.Point1.Data.Var, 
TestParameter, AutoAnalysis.Line2.Point1.Data.Condition, 
TestParameter, AutoAnalysis.Line2.Point1.Data.Start, false
TestParameter, AutoAnalysis.Line2.Point1.Data.StartVar, 
TestParameter, AutoAnalysis.Line2.Point1.Data.StartCondition, 
TestParameter, AutoAnalysis.Line2.Point2.Type, 0
TestParameter, AutoAnalysis.Line2.Point2.XY.X, 
TestParameter, AutoAnalysis.Line2.Point2.XY.Y, 
TestParameter, AutoAnalysis.Line2.Point2.Data.Var, 
TestParameter, AutoAnalysis.Line2.Point2.Data.Condition, 
TestParameter, AutoAnalysis.Line2.Point2.Data.Start, false
TestParameter, AutoAnalysis.Line2.Point2.Data.StartVar, 
TestParameter, AutoAnalysis.Line2.Point2.Data.StartCondition, 
TestParameter, AutoAnalysis.Line2.GradientExpr, 0
TestParameter, AutoAnalysis.Marker.Enabled, false
TestParameter, AutoAnalysis.Marker.Data.Var, 
TestParameter, AutoAnalysis.Marker.Data.Condition, 
TestParameter, AutoAnalysis.Marker.Data.Start, false
TestParameter, AutoAnalysis.Marker.Data.StartVar, 
TestParameter, AutoAnalysis.Marker.Data.StartCondition, 
MetaData, TestRecord.EntryPoint, true
MetaData, TestRecord.RecordTime, 10/19/2022 11:55:58
MetaData, TestRecord.TestTarget, 
MetaData, TestRecord.IterationIndex, 241
MetaData, TestRecord.Preservation, true
MetaData, TestRecord.Flag, 
MetaData, TestRecord.Remarks, 
MetaData, TestRecord.LinkKey, c421b853-404d-467b-a905-f8ed6684f368
MetaData, TestRecord.Parameters, 
Dimension1, 101, 101
Dimension2, 1, 1
DataName, V, I
DataValue, -2, -1.54796E-08
DataValue, -1.9600000000000002, -3.4919199999999994E-08
DataValue, -1.9200000000000002, 5.1073199999999994E-08
DataValue, -1.8800000000000001, -5.6195799999999992E-08
DataValue, -1.84, 5.8897399999999996E-08
DataValue, -1.8, -5.9830599999999993E-08
DataValue, -1.76, 5.77052E-08
DataValue, -1.72, -5.0688199999999995E-08
DataValue, -1.6800000000000002, 4.0878599999999997E-08
DataValue, -1.6400000000000001, -2.4176799999999998E-08
DataValue, -1.6, -3.1754599999999994E-08
DataValue, -1.56, 4.8943199999999995E-08
DataValue, -1.52, -5.48282E-08
DataValue, -1.48, 5.2824E-08
DataValue, -1.4400000000000002, -5.6731999999999995E-08
DataValue, -1.4000000000000001, 5.99798E-08
DataValue, -1.36, -5.9955E-08
DataValue, -1.32, 4.8407E-08
DataValue, -1.28, -3.6888799999999996E-08
DataValue, -1.24, 1.9672999999999997E-08
DataValue, -1.2, -4.3499999999999992E-09
DataValue, -1.1600000000000001, 5.9189199999999992E-08
DataValue, -1.12, -5.9711E-08
DataValue, -1.08, 5.3840799999999995E-08
DataValue, -1.04, -5.6975999999999994E-08
DataValue, -1, 6.00248E-08
DataValue, -0.96000000000000008, -6.01442E-08
DataValue, -0.92, 5.6777999999999994E-08
DataValue, -0.88, -4.6287199999999994E-08
DataValue, -0.84000000000000008, 3.8758999999999997E-08
DataValue, -0.8, 6.552399999999999E-09
DataValue, -0.76, -1.88372E-08
DataValue, -0.72000000000000008, 3.3540399999999996E-08
DataValue, -0.68, -5.0363399999999994E-08
DataValue, -0.64, 5.9693199999999988E-08
DataValue, -0.6, -6.0603999999999991E-08
DataValue, -0.56, 6.0750799999999988E-08
DataValue, -0.52, -5.6084599999999994E-08
DataValue, -0.48000000000000004, 4.8930999999999997E-08
DataValue, -0.44, -5.10122E-08
DataValue, -0.4, 4.1644999999999993E-08
DataValue, -0.36000000000000004, -2.5458199999999996E-08
DataValue, -0.32, -2.9784599999999997E-08
DataValue, -0.28, 4.7847E-08
DataValue, -0.24000000000000002, -5.4192599999999993E-08
DataValue, -0.2, 5.5560799999999993E-08
DataValue, -0.16, -5.8279999999999996E-08
DataValue, -0.12000000000000001, 5.95E-08
DataValue, -0.08, -5.99766E-08
DataValue, -0.04, 5.49676E-08
DataValue, 0, -3.29616E-08
DataValue, 0.04, -3.34232E-08
DataValue, 0.08, 5.0593799999999992E-08
DataValue, 0.12000000000000001, -5.6199599999999992E-08
DataValue, 0.16, 5.8325199999999992E-08
DataValue, 0.2, -5.9496599999999992E-08
DataValue, 0.24000000000000002, 5.1826199999999995E-08
DataValue, 0.28, -5.6153999999999994E-08
DataValue, 0.32, 5.7930799999999994E-08
DataValue, 0.36000000000000004, -5.9632799999999991E-08
DataValue, 0.4, 5.1518799999999995E-08
DataValue, 0.44, -5.6257199999999996E-08
DataValue, 0.48000000000000004, 5.9235199999999992E-08
DataValue, 0.52, -5.9697599999999988E-08
DataValue, 0.56, 5.8088E-08
DataValue, 0.6, -5.96522E-08
DataValue, 0.64, 5.1870999999999995E-08
DataValue, 0.68, -5.64934E-08
DataValue, 0.72000000000000008, 5.9146799999999996E-08
DataValue, 0.76, -6.03452E-08
DataValue, 0.8, 6.0854399999999992E-08
DataValue, 0.84000000000000008, -5.61538E-08
DataValue, 0.88, 4.6119199999999995E-08
DataValue, 0.92, -3.70702E-08
DataValue, 0.96000000000000008, 1.9908399999999997E-08
DataValue, 1, -4.3987999999999993E-09
DataValue, 1.04, 5.9038199999999993E-08
DataValue, 1.08, -5.9475199999999992E-08
DataValue, 1.12, 6.0559199999999991E-08
DataValue, 1.1600000000000001, -5.6238199999999995E-08
DataValue, 1.2, 4.3065599999999995E-08
DataValue, 1.24, -2.6740199999999997E-08
DataValue, 1.28, -2.7942599999999996E-08
DataValue, 1.32, 4.50122E-08
DataValue, 1.36, -5.5084399999999994E-08
DataValue, 1.4000000000000001, 5.5295999999999994E-08
DataValue, 1.4400000000000002, -5.6436599999999996E-08
DataValue, 1.48, 5.97518E-08
DataValue, 1.52, -5.9974199999999989E-08
DataValue, 1.56, 5.68762E-08
DataValue, 1.6, -4.72788E-08
DataValue, 1.6400000000000001, 3.04636E-08
DataValue, 1.6800000000000002, -1.6402799999999997E-08
DataValue, 1.72, 5.6017799999999995E-08
DataValue, 1.76, -5.96326E-08
DataValue, 1.8, 5.35382E-08
DataValue, 1.84, -5.6403399999999994E-08
DataValue, 1.8800000000000001, 5.99188E-08
DataValue, 1.9200000000000002, -5.6683999999999993E-08
DataValue, 1.9600000000000002, 4.92492E-08
DataValue, 2, -3.9711199999999995E-08