
SetupTitle, I/V Sweep
PrimitiveTest, I/V Sweep
TestParameter, Context.MainFrame, B1500A
TestParameter, Channel.UnitType, SMU, SMU, SMU, SMU, SMU
TestParameter, Channel.Unit, SMU1:HP, SMU2:MP, SMU3:MP, SMU4:MP, SMU5:MP
TestParameter, Channel.IName, I, IDD1, IDD2, ISS, IPP
TestParameter, Channel.VName, V, VDD1, VDD2, VSS, VPP
TestParameter, Channel.Mode, V, V, V, V, V
TestParameter, Channel.Func, VAR1, CONST, CONST, CONST, CONST
TestParameter, Channel.Index, 
TestParameter, Channel.Time, 
TestParameter, Measurement.Port.Unit, SMU1:HP, SMU2:MP, SMU3:MP, SMU4:MP, SMU5:MP
TestParameter, Measurement.Port.SeriesResistor, NONE, NONE, NONE, NONE, NONE
TestParameter, Measurement.Port.Filter, ON, ON, ON, ON, ON
TestParameter, Measurement.Port.OutputVoltageComparison, 0, 0, 0, 0, 0
TestParameter, Measurement.Primary.Locus, Single
TestParameter, Measurement.Primary.Scale, LINEAR
TestParameter, Measurement.Primary.Start, -2
TestParameter, Measurement.Primary.Stop, 2
TestParameter, Measurement.Primary.Step, 0.04
TestParameter, Measurement.Primary.Compliance, 0.1
TestParameter, Measurement.Primary.PowerCompliance, 0
TestParameter, Measurement.Aborting.Condition, CONTINUE AT ANY
TestParameter, Measurement.PostOutput.Value, START
TestParameter, Measurement.PostOutput.Retention, OFF
TestParameter, Measurement.Bias.Source, -2, 1.8, 1.1, 0, 0
TestParameter, Measurement.Bias.Compliance, 0.1, 0.1, 0.1, 0.1, 0.1
TestParameter, Measurement.Monitor.Unit, SMU1:HP, SMU2:MP, SMU3:MP, SMU4:MP, SMU5:MP
TestParameter, Measurement.Monitor.Adc, HR ADC, HR ADC, HR ADC, HR ADC, HR ADC
TestParameter, Measurement.Monitor.Measurement, Compliance Side, Compliance Side, Compliance Side, Compliance Side, Compliance Side
TestParameter, Measurement.Monitor.RangingMode, LIMITED, LIMITED, LIMITED, LIMITED, LIMITED
TestParameter, Measurement.Monitor.RangeBoundary, 1nA, 1nA, 1nA, 1nA, 1nA
TestParameter, Measurement.Monitor.RangeRating, BY FULL RANGE, BY FULL RANGE, BY FULL RANGE, BY FULL RANGE, BY FULL RANGE
TestParameter, Measurement.Monitor.RangeRatingCoeff, 50, 50, 50, 50, 50
TestParameter, Measurement.Timing.Hold, 0
TestParameter, Measurement.Timing.Delay, 0
TestParameter, Measurement.Adc.HighSpeed.Mode, AUTO
TestParameter, Measurement.Adc.HighSpeed.Coeff, 1
TestParameter, Measurement.Adc.HighResolution.AutoZero, OFF
TestParameter, Measurement.Adc.HighResolution.Mode, AUTO
TestParameter, Measurement.Adc.HighResolution.Coeff, 6
TestParameter, Measurement.WaitTime.Source.Coeff, 1
TestParameter, Measurement.WaitTime.Source.Offset, 0
TestParameter, Measurement.WaitTime.Monitor.Coeff, 1
TestParameter, Measurement.WaitTime.Monitor.Offset, 0
TestParameter, Output.Graph.Enabled, true
TestParameter, Output.Graph.AutoScaling, false
TestParameter, Output.Graph.XAxis.Data, V
TestParameter, Output.Graph.XAxis.Scale, Linear
TestParameter, Output.Graph.XAxis.Left, -2
TestParameter, Output.Graph.XAxis.Right, 2
TestParameter, Output.Graph.XAxis.RunTimeAutoScale, true
TestParameter, Output.Graph.YAxis.Data, I
TestParameter, Output.Graph.YAxis.Scale, Linear
TestParameter, Output.Graph.YAxis.Bottom, -0.1
TestParameter, Output.Graph.YAxis.Top, 0.1
TestParameter, Output.Graph.YAxis.Group, 
TestParameter, Output.Graph.YAxis.RunTimeAutoScale, true
TestParameter, AutoAnalysis.Interpolation, false
TestParameter, AutoAnalysis.Var2StepCount, 1
TestParameter, AutoAnalysis.Var2StepScript, 
TestParameter, AutoAnalysis.Line1.Enabled, false
TestParameter, AutoAnalysis.Line1.Type, 1
TestParameter, AutoAnalysis.Line1.Fix, True
TestParameter, AutoAnalysis.Line1.YAxis, 0
TestParameter, AutoAnalysis.Line1.Point1.Type, 0
TestParameter, AutoAnalysis.Line1.Point1.XY.X, 
TestParameter, AutoAnalysis.Line1.Point1.XY.Y, 
TestParameter, AutoAnalysis.Line1.Point1.Data.Var, 
TestParameter, AutoAnalysis.Line1.Point1.Data.Condition, 
TestParameter, AutoAnalysis.Line1.Point1.Data.Start, false
TestParameter, AutoAnalysis.Line1.Point1.Data.StartVar, 
TestParameter, AutoAnalysis.Line1.Point1.Data.StartCondition, 
TestParameter, AutoAnalysis.Line1.Point2.Type, 0
TestParameter, AutoAnalysis.Line1.Point2.XY.X, 
TestParameter, AutoAnalysis.Line1.Point2.XY.Y, 
TestParameter, AutoAnalysis.Line1.Point2.Data.Var, 
TestParameter, AutoAnalysis.Line1.Point2.Data.Condition, 
TestParameter, AutoAnalysis.Line1.Point2.Data.Start, false
TestParameter, AutoAnalysis.Line1.Point2.Data.StartVar, 
TestParameter, AutoAnalysis.Line1.Point2.Data.StartCondition, 
TestParameter, AutoAnalysis.Line1.GradientExpr, 0
TestParameter, AutoAnalysis.Line2.Enabled, false
TestParameter, AutoAnalysis.Line2.Type, 1
TestParameter, AutoAnalysis.Line2.Fix, True
TestParameter, AutoAnalysis.Line2.YAxis, 0
TestParameter, AutoAnalysis.Line2.Point1.Type, 0
TestParameter, AutoAnalysis.Line2.Point1.XY.X, 
TestParameter, AutoAnalysis.Line2.Point1.XY.Y, 
TestParameter, AutoAnalysis.Line2.Point1.Data.Var, 
TestParameter, AutoAnalysis.Line2.Point1.Data.Condition, 
TestParameter, AutoAnalysis.Line2.Point1.Data.Start, false
TestParameter, AutoAnalysis.Line2.Point1.Data.StartVar, 
TestParameter, AutoAnalysis.Line2.Point1.Data.StartCondition, 
TestParameter, AutoAnalysis.Line2.Point2.Type, 0
TestParameter, AutoAnalysis.Line2.Point2.XY.X, 
TestParameter, AutoAnalysis.Line2.Point2.XY.Y, 
TestParameter, AutoAnalysis.Line2.Point2.Data.Var, 
TestParameter, AutoAnalysis.Line2.Point2.Data.Condition, 
TestParameter, AutoAnalysis.Line2.Point2.Data.Start, false
TestParameter, AutoAnalysis.Line2.Point2.Data.StartVar, 
TestParameter, AutoAnalysis.Line2.Point2.Data.StartCondition, 
TestParameter, AutoAnalysis.Line2.GradientExpr, 0
TestParameter, AutoAnalysis.Marker.Enabled, false
TestParameter, AutoAnalysis.Marker.Data.Var, 
TestParameter, AutoAnalysis.Marker.Data.Condition, 
TestParameter, AutoAnalysis.Marker.Data.Start, false
TestParameter, AutoAnalysis.Marker.Data.StartVar, 
TestParameter, AutoAnalysis.Marker.Data.StartCondition, 
MetaData, TestRecord.EntryPoint, true
MetaData, TestRecord.RecordTime, 10/19/2022 11:43:50
MetaData, TestRecord.TestTarget, 
MetaData, TestRecord.IterationIndex, 216
MetaData, TestRecord.Preservation, true
MetaData, TestRecord.Flag, 
MetaData, TestRecord.Remarks, 
MetaData, TestRecord.LinkKey, 457604b1-f44f-46f7-92ab-7c9552f4cdc5
MetaData, TestRecord.Parameters, 
Dimension1, 101, 101
Dimension2, 1, 1
DataName, V, I
DataValue, -2, -5.5844999999999995E-08
DataValue, -1.9600000000000002, 4.91256E-08
DataValue, -1.9200000000000002, -3.9350199999999996E-08
DataValue, -1.8800000000000001, 2.3829599999999997E-08
DataValue, -1.84, -7.5042E-09
DataValue, -1.8, -1.4213999999999999E-09
DataValue, -1.76, 1.3728199999999998E-08
DataValue, -1.72, -2.8371199999999997E-08
DataValue, -1.6800000000000002, 4.6904399999999996E-08
DataValue, -1.6400000000000001, -5.5407199999999992E-08
DataValue, -1.6, 5.7030799999999992E-08
DataValue, -1.56, -5.9323599999999994E-08
DataValue, -1.52, 6.0236799999999988E-08
DataValue, -1.48, -5.53072E-08
DataValue, -1.4400000000000002, 4.5299399999999996E-08
DataValue, -1.4000000000000001, -3.53406E-08
DataValue, -1.36, 1.84976E-08
DataValue, -1.32, -2.4012E-09
DataValue, -1.28, -9.2835999999999988E-09
DataValue, -1.24, 2.2213E-08
DataValue, -1.2, -3.85794E-08
DataValue, -1.1600000000000001, 5.4822399999999995E-08
DataValue, -1.12, -5.6740599999999997E-08
DataValue, -1.08, 5.96654E-08
DataValue, -1.04, -5.9458599999999995E-08
DataValue, -1, 4.5367999999999993E-08
DataValue, -0.96000000000000008, -3.0095E-08
DataValue, -0.92, 5.5211799999999994E-08
DataValue, -0.88, -5.6818999999999994E-08
DataValue, -0.84000000000000008, 5.9781E-08
DataValue, -0.8, -5.91844E-08
DataValue, -0.76, 5.9904999999999993E-08
DataValue, -0.72000000000000008, -5.2541399999999996E-08
DataValue, -0.68, 4.38828E-08
DataValue, -0.64, -3.0963199999999995E-08
DataValue, -0.6, 1.9481799999999998E-08
DataValue, -0.56, -1.3838799999999998E-08
DataValue, -0.52, 1.1296E-09
DataValue, -0.48000000000000004, 1.4409999999999998E-08
DataValue, -0.44, -2.55808E-08
DataValue, -0.4, 4.3030999999999997E-08
DataValue, -0.36000000000000004, -5.4418399999999993E-08
DataValue, -0.32, -5.326E-08
DataValue, -0.28, -1.73446E-08
DataValue, -0.24000000000000002, 3.32284E-08
DataValue, -0.2, -4.6095E-08
DataValue, -0.16, 4.2391799999999996E-08
DataValue, -0.12000000000000001, -5.5926199999999992E-08
DataValue, -0.08, 6.23614E-08
DataValue, -0.04, -5.5072999999999993E-08
DataValue, 0, 6.01398E-08
DataValue, 0.04, -5.8234E-08
DataValue, 0.08, 6.0505799999999988E-08
DataValue, 0.12000000000000001, -5.9550999999999995E-08
DataValue, 0.16, 6.0232399999999988E-08
DataValue, 0.2, -5.9063199999999995E-08
DataValue, 0.24000000000000002, 5.1249999999999992E-08
DataValue, 0.28, -5.03254E-08
DataValue, 0.32, 4.9282399999999993E-08
DataValue, 0.36000000000000004, -3.0796E-08
DataValue, 0.4, 3.6046E-08
DataValue, 0.44, -3.02694E-08
DataValue, 0.48000000000000004, 6.724999999999999E-09
DataValue, 0.52, -8.1696E-09
DataValue, 0.56, 5.8410399999999993E-08
DataValue, 0.6, -5.6552199999999993E-08
DataValue, 0.64, 5.8298599999999996E-08
DataValue, 0.68, -5.8570999999999996E-08
DataValue, 0.72000000000000008, 5.9303799999999995E-08
DataValue, 0.76, -5.7266399999999993E-08
DataValue, 0.8, 6.115099999999999E-08
DataValue, 0.84000000000000008, -5.8663399999999996E-08
DataValue, 0.88, 5.6410999999999995E-08
DataValue, 0.92, -5.7923999999999996E-08
DataValue, 0.96000000000000008, 6.08804E-08
DataValue, 1, -5.4911799999999991E-08
DataValue, 1.04, 4.6609799999999994E-08
DataValue, 1.08, -3.4578999999999995E-08
DataValue, 1.12, 1.992E-08
DataValue, 1.1600000000000001, -1.336E-09
DataValue, 1.2, -6.4301999999999996E-09
DataValue, 1.24, 1.6226399999999998E-08
DataValue, 1.28, -2.7969599999999997E-08
DataValue, 1.32, 4.7200399999999994E-08
DataValue, 1.36, -5.4361799999999996E-08
DataValue, 1.4000000000000001, 5.6959999999999995E-08
DataValue, 1.4400000000000002, -5.8505599999999993E-08
DataValue, 1.48, 5.9441799999999993E-08
DataValue, 1.52, -5.0823999999999992E-08
DataValue, 1.56, 4.6789799999999993E-08
DataValue, 1.6, -2.17126E-08
DataValue, 1.6400000000000001, 1.65172E-08
DataValue, 1.6800000000000002, -1.8441E-08
DataValue, 1.72, 2.35946E-08
DataValue, 1.76, -2.5695799999999996E-08
DataValue, 1.8, 3.0374799999999995E-08
DataValue, 1.84, -3.0689999999999996E-09
DataValue, 1.8800000000000001, 5.973459999999999E-08
DataValue, 1.9200000000000002, -5.8272999999999995E-08
DataValue, 1.9600000000000002, 5.7158399999999997E-08
DataValue, 2, -5.5463199999999996E-08