
SetupTitle, I/V Sweep
PrimitiveTest, I/V Sweep
TestParameter, Context.MainFrame, B1500A
TestParameter, Channel.UnitType, SMU, SMU, SMU, SMU, SMU
TestParameter, Channel.Unit, SMU1:HP, SMU2:MP, SMU3:MP, SMU4:MP, SMU5:MP
TestParameter, Channel.IName, I, IDD1, IDD2, ISS, IPP
TestParameter, Channel.VName, V, VDD1, VDD2, VSS, VPP
TestParameter, Channel.Mode, V, V, V, V, V
TestParameter, Channel.Func, VAR1, CONST, CONST, CONST, CONST
TestParameter, Channel.Index, 
TestParameter, Channel.Time, 
TestParameter, Measurement.Port.Unit, SMU1:HP, SMU2:MP, SMU3:MP, SMU4:MP, SMU5:MP
TestParameter, Measurement.Port.SeriesResistor, NONE, NONE, NONE, NONE, NONE
TestParameter, Measurement.Port.Filter, ON, ON, ON, ON, ON
TestParameter, Measurement.Port.OutputVoltageComparison, 0, 0, 0, 0, 0
TestParameter, Measurement.Primary.Locus, Single
TestParameter, Measurement.Primary.Scale, LINEAR
TestParameter, Measurement.Primary.Start, -2
TestParameter, Measurement.Primary.Stop, 2
TestParameter, Measurement.Primary.Step, 0.04
TestParameter, Measurement.Primary.Compliance, 0.1
TestParameter, Measurement.Primary.PowerCompliance, 0
TestParameter, Measurement.Aborting.Condition, CONTINUE AT ANY
TestParameter, Measurement.PostOutput.Value, START
TestParameter, Measurement.PostOutput.Retention, OFF
TestParameter, Measurement.Bias.Source, -2, 1.8, 1.1, 0, 0
TestParameter, Measurement.Bias.Compliance, 0.1, 0.1, 0.1, 0.1, 0.1
TestParameter, Measurement.Monitor.Unit, SMU1:HP, SMU2:MP, SMU3:MP, SMU4:MP, SMU5:MP
TestParameter, Measurement.Monitor.Adc, HR ADC, HR ADC, HR ADC, HR ADC, HR ADC
TestParameter, Measurement.Monitor.Measurement, Compliance Side, Compliance Side, Compliance Side, Compliance Side, Compliance Side
TestParameter, Measurement.Monitor.RangingMode, LIMITED, LIMITED, LIMITED, LIMITED, LIMITED
TestParameter, Measurement.Monitor.RangeBoundary, 1nA, 1nA, 1nA, 1nA, 1nA
TestParameter, Measurement.Monitor.RangeRating, BY FULL RANGE, BY FULL RANGE, BY FULL RANGE, BY FULL RANGE, BY FULL RANGE
TestParameter, Measurement.Monitor.RangeRatingCoeff, 50, 50, 50, 50, 50
TestParameter, Measurement.Timing.Hold, 0
TestParameter, Measurement.Timing.Delay, 0
TestParameter, Measurement.Adc.HighSpeed.Mode, AUTO
TestParameter, Measurement.Adc.HighSpeed.Coeff, 1
TestParameter, Measurement.Adc.HighResolution.AutoZero, OFF
TestParameter, Measurement.Adc.HighResolution.Mode, AUTO
TestParameter, Measurement.Adc.HighResolution.Coeff, 6
TestParameter, Measurement.WaitTime.Source.Coeff, 1
TestParameter, Measurement.WaitTime.Source.Offset, 0
TestParameter, Measurement.WaitTime.Monitor.Coeff, 1
TestParameter, Measurement.WaitTime.Monitor.Offset, 0
TestParameter, Output.Graph.Enabled, true
TestParameter, Output.Graph.AutoScaling, false
TestParameter, Output.Graph.XAxis.Data, V
TestParameter, Output.Graph.XAxis.Scale, Linear
TestParameter, Output.Graph.XAxis.Left, -2
TestParameter, Output.Graph.XAxis.Right, 2
TestParameter, Output.Graph.XAxis.RunTimeAutoScale, true
TestParameter, Output.Graph.YAxis.Data, I
TestParameter, Output.Graph.YAxis.Scale, Linear
TestParameter, Output.Graph.YAxis.Bottom, -0.1
TestParameter, Output.Graph.YAxis.Top, 0.1
TestParameter, Output.Graph.YAxis.Group, 
TestParameter, Output.Graph.YAxis.RunTimeAutoScale, true
TestParameter, AutoAnalysis.Interpolation, false
TestParameter, AutoAnalysis.Var2StepCount, 1
TestParameter, AutoAnalysis.Var2StepScript, 
TestParameter, AutoAnalysis.Line1.Enabled, false
TestParameter, AutoAnalysis.Line1.Type, 1
TestParameter, AutoAnalysis.Line1.Fix, True
TestParameter, AutoAnalysis.Line1.YAxis, 0
TestParameter, AutoAnalysis.Line1.Point1.Type, 0
TestParameter, AutoAnalysis.Line1.Point1.XY.X, 
TestParameter, AutoAnalysis.Line1.Point1.XY.Y, 
TestParameter, AutoAnalysis.Line1.Point1.Data.Var, 
TestParameter, AutoAnalysis.Line1.Point1.Data.Condition, 
TestParameter, AutoAnalysis.Line1.Point1.Data.Start, false
TestParameter, AutoAnalysis.Line1.Point1.Data.StartVar, 
TestParameter, AutoAnalysis.Line1.Point1.Data.StartCondition, 
TestParameter, AutoAnalysis.Line1.Point2.Type, 0
TestParameter, AutoAnalysis.Line1.Point2.XY.X, 
TestParameter, AutoAnalysis.Line1.Point2.XY.Y, 
TestParameter, AutoAnalysis.Line1.Point2.Data.Var, 
TestParameter, AutoAnalysis.Line1.Point2.Data.Condition, 
TestParameter, AutoAnalysis.Line1.Point2.Data.Start, false
TestParameter, AutoAnalysis.Line1.Point2.Data.StartVar, 
TestParameter, AutoAnalysis.Line1.Point2.Data.StartCondition, 
TestParameter, AutoAnalysis.Line1.GradientExpr, 0
TestParameter, AutoAnalysis.Line2.Enabled, false
TestParameter, AutoAnalysis.Line2.Type, 1
TestParameter, AutoAnalysis.Line2.Fix, True
TestParameter, AutoAnalysis.Line2.YAxis, 0
TestParameter, AutoAnalysis.Line2.Point1.Type, 0
TestParameter, AutoAnalysis.Line2.Point1.XY.X, 
TestParameter, AutoAnalysis.Line2.Point1.XY.Y, 
TestParameter, AutoAnalysis.Line2.Point1.Data.Var, 
TestParameter, AutoAnalysis.Line2.Point1.Data.Condition, 
TestParameter, AutoAnalysis.Line2.Point1.Data.Start, false
TestParameter, AutoAnalysis.Line2.Point1.Data.StartVar, 
TestParameter, AutoAnalysis.Line2.Point1.Data.StartCondition, 
TestParameter, AutoAnalysis.Line2.Point2.Type, 0
TestParameter, AutoAnalysis.Line2.Point2.XY.X, 
TestParameter, AutoAnalysis.Line2.Point2.XY.Y, 
TestParameter, AutoAnalysis.Line2.Point2.Data.Var, 
TestParameter, AutoAnalysis.Line2.Point2.Data.Condition, 
TestParameter, AutoAnalysis.Line2.Point2.Data.Start, false
TestParameter, AutoAnalysis.Line2.Point2.Data.StartVar, 
TestParameter, AutoAnalysis.Line2.Point2.Data.StartCondition, 
TestParameter, AutoAnalysis.Line2.GradientExpr, 0
TestParameter, AutoAnalysis.Marker.Enabled, false
TestParameter, AutoAnalysis.Marker.Data.Var, 
TestParameter, AutoAnalysis.Marker.Data.Condition, 
TestParameter, AutoAnalysis.Marker.Data.Start, false
TestParameter, AutoAnalysis.Marker.Data.StartVar, 
TestParameter, AutoAnalysis.Marker.Data.StartCondition, 
MetaData, TestRecord.EntryPoint, true
MetaData, TestRecord.RecordTime, 10/19/2022 11:43:04
MetaData, TestRecord.TestTarget, 
MetaData, TestRecord.IterationIndex, 215
MetaData, TestRecord.Preservation, true
MetaData, TestRecord.Flag, 
MetaData, TestRecord.Remarks, 
MetaData, TestRecord.LinkKey, 763de61f-eee6-45af-aa04-29e2fbc41ca1
MetaData, TestRecord.Parameters, 
Dimension1, 101, 101
Dimension2, 1, 1
DataName, V, I
DataValue, -2, 4.5708199999999992E-08
DataValue, -1.9600000000000002, -5.3639399999999997E-08
DataValue, -1.9200000000000002, 5.6103799999999993E-08
DataValue, -1.8800000000000001, -5.96792E-08
DataValue, -1.84, 5.9765399999999988E-08
DataValue, -1.8, -5.6373799999999995E-08
DataValue, -1.76, 4.8134599999999992E-08
DataValue, -1.72, -3.7828799999999997E-08
DataValue, -1.6800000000000002, 6.031319999999999E-08
DataValue, -1.6400000000000001, -4.2217399999999995E-08
DataValue, -1.6, 5.9643E-08
DataValue, -1.56, -5.6298599999999992E-08
DataValue, -1.52, 4.77426E-08
DataValue, -1.48, -3.8457E-08
DataValue, -1.4400000000000002, 6.04764E-08
DataValue, -1.4000000000000001, -5.5715999999999994E-08
DataValue, -1.36, 4.5261399999999993E-08
DataValue, -1.32, -3.53088E-08
DataValue, -1.28, 5.9747799999999989E-08
DataValue, -1.24, -5.3240799999999996E-08
DataValue, -1.2, 4.28166E-08
DataValue, -1.1600000000000001, -2.8084E-08
DataValue, -1.12, -2.8812199999999998E-08
DataValue, -1.08, 4.7682599999999996E-08
DataValue, -1.04, -5.56168E-08
DataValue, -1, 5.7205799999999992E-08
DataValue, -0.96000000000000008, -5.94852E-08
DataValue, -0.92, 6.05104E-08
DataValue, -0.88, -5.5491599999999996E-08
DataValue, -0.84000000000000008, 4.8381599999999994E-08
DataValue, -0.8, -2.8600399999999996E-08
DataValue, -0.76, -2.69714E-08
DataValue, -0.72000000000000008, 4.5426399999999994E-08
DataValue, -0.68, -5.5086599999999994E-08
DataValue, -0.64, 5.65152E-08
DataValue, -0.6, -5.9417799999999992E-08
DataValue, -0.56, 5.3662399999999996E-08
DataValue, -0.52, -4.2154999999999996E-08
DataValue, -0.48000000000000004, 5.9734399999999993E-08
DataValue, -0.44, -5.65136E-08
DataValue, -0.4, 5.3598199999999992E-08
DataValue, -0.36000000000000004, -5.2805599999999995E-08
DataValue, -0.32, 4.2566199999999996E-08
DataValue, -0.28, -2.7243399999999996E-08
DataValue, -0.24000000000000002, -2.9226199999999997E-08
DataValue, -0.2, 4.68152E-08
DataValue, -0.16, -5.5727599999999993E-08
DataValue, -0.12000000000000001, 5.7224199999999994E-08
DataValue, -0.08, -5.9487799999999992E-08
DataValue, -0.04, 6.0444E-08
DataValue, 0, -4.28226E-08
DataValue, 0.04, 3.1690599999999994E-08
DataValue, 0.08, -1.2241399999999999E-08
DataValue, 0.12000000000000001, 5.6896599999999995E-08
DataValue, 0.16, -5.9818999999999988E-08
DataValue, 0.2, 6.0398399999999991E-08
DataValue, 0.24000000000000002, -5.5772199999999996E-08
DataValue, 0.28, 4.5602399999999995E-08
DataValue, 0.32, -3.4421999999999995E-08
DataValue, 0.36000000000000004, -2.3168E-08
DataValue, 0.4, 3.96826E-08
DataValue, 0.44, -5.5098399999999997E-08
DataValue, 0.48000000000000004, 5.6838799999999993E-08
DataValue, 0.52, -5.9816E-08
DataValue, 0.56, 6.0451999999999991E-08
DataValue, 0.6, -5.5822199999999993E-08
DataValue, 0.64, 4.6526599999999995E-08
DataValue, 0.68, -4.0196E-08
DataValue, 0.72000000000000008, -2.2315399999999997E-08
DataValue, 0.76, 3.6345199999999996E-08
DataValue, 0.8, -5.0373399999999992E-08
DataValue, 0.84000000000000008, 4.7156599999999995E-08
DataValue, 0.88, -5.6005399999999993E-08
DataValue, 0.92, 5.7138199999999996E-08
DataValue, 0.96000000000000008, -5.9626E-08
DataValue, 1, 6.04208E-08
DataValue, 1.04, -5.4546E-08
DataValue, 1.08, 4.4096599999999993E-08
DataValue, 1.12, -3.1092E-08
DataValue, 1.1600000000000001, -2.6219399999999997E-08
DataValue, 1.2, 4.2456399999999995E-08
DataValue, 1.24, -5.4582999999999993E-08
DataValue, 1.28, 5.6606399999999993E-08
DataValue, 1.32, -5.9811999999999993E-08
DataValue, 1.36, 6.0604999999999992E-08
DataValue, 1.4000000000000001, -5.5845999999999996E-08
DataValue, 1.4400000000000002, 4.5537999999999994E-08
DataValue, 1.48, -3.38706E-08
DataValue, 1.52, -2.33786E-08
DataValue, 1.56, 3.74912E-08
DataValue, 1.6, -5.08652E-08
DataValue, 1.6400000000000001, 5.6067599999999994E-08
DataValue, 1.6800000000000002, -5.59684E-08
DataValue, 1.72, 5.5413199999999992E-08
DataValue, 1.76, -5.9849199999999993E-08
DataValue, 1.8, 5.9042199999999991E-08
DataValue, 1.84, -5.9506599999999996E-08
DataValue, 1.8800000000000001, 6.0408399999999989E-08
DataValue, 1.9200000000000002, -5.9731E-08
DataValue, 1.9600000000000002, 5.26884E-08
DataValue, 2, -5.3921199999999994E-08