
SetupTitle, I/V Sweep
PrimitiveTest, I/V Sweep
TestParameter, Context.MainFrame, B1500A
TestParameter, Channel.UnitType, SMU, SMU, SMU, SMU, SMU
TestParameter, Channel.Unit, SMU1:HP, SMU2:MP, SMU3:MP, SMU4:MP, SMU5:MP
TestParameter, Channel.IName, I, IDD1, IDD2, ISS, IPP
TestParameter, Channel.VName, V, VDD1, VDD2, VSS, VPP
TestParameter, Channel.Mode, V, V, V, V, V
TestParameter, Channel.Func, VAR1, CONST, CONST, CONST, CONST
TestParameter, Channel.Index, 
TestParameter, Channel.Time, 
TestParameter, Measurement.Port.Unit, SMU1:HP, SMU2:MP, SMU3:MP, SMU4:MP, SMU5:MP
TestParameter, Measurement.Port.SeriesResistor, NONE, NONE, NONE, NONE, NONE
TestParameter, Measurement.Port.Filter, ON, ON, ON, ON, ON
TestParameter, Measurement.Port.OutputVoltageComparison, 0, 0, 0, 0, 0
TestParameter, Measurement.Primary.Locus, Single
TestParameter, Measurement.Primary.Scale, LINEAR
TestParameter, Measurement.Primary.Start, -2
TestParameter, Measurement.Primary.Stop, 2
TestParameter, Measurement.Primary.Step, 0.04
TestParameter, Measurement.Primary.Compliance, 0.1
TestParameter, Measurement.Primary.PowerCompliance, 0
TestParameter, Measurement.Aborting.Condition, CONTINUE AT ANY
TestParameter, Measurement.PostOutput.Value, START
TestParameter, Measurement.PostOutput.Retention, OFF
TestParameter, Measurement.Bias.Source, -2, 1.8, 1.1, 0, 0
TestParameter, Measurement.Bias.Compliance, 0.1, 0.1, 0.1, 0.1, 0.1
TestParameter, Measurement.Monitor.Unit, SMU1:HP, SMU2:MP, SMU3:MP, SMU4:MP, SMU5:MP
TestParameter, Measurement.Monitor.Adc, HR ADC, HR ADC, HR ADC, HR ADC, HR ADC
TestParameter, Measurement.Monitor.Measurement, Compliance Side, Compliance Side, Compliance Side, Compliance Side, Compliance Side
TestParameter, Measurement.Monitor.RangingMode, LIMITED, LIMITED, LIMITED, LIMITED, LIMITED
TestParameter, Measurement.Monitor.RangeBoundary, 1nA, 1nA, 1nA, 1nA, 1nA
TestParameter, Measurement.Monitor.RangeRating, BY FULL RANGE, BY FULL RANGE, BY FULL RANGE, BY FULL RANGE, BY FULL RANGE
TestParameter, Measurement.Monitor.RangeRatingCoeff, 50, 50, 50, 50, 50
TestParameter, Measurement.Timing.Hold, 0
TestParameter, Measurement.Timing.Delay, 0
TestParameter, Measurement.Adc.HighSpeed.Mode, AUTO
TestParameter, Measurement.Adc.HighSpeed.Coeff, 1
TestParameter, Measurement.Adc.HighResolution.AutoZero, OFF
TestParameter, Measurement.Adc.HighResolution.Mode, AUTO
TestParameter, Measurement.Adc.HighResolution.Coeff, 6
TestParameter, Measurement.WaitTime.Source.Coeff, 1
TestParameter, Measurement.WaitTime.Source.Offset, 0
TestParameter, Measurement.WaitTime.Monitor.Coeff, 1
TestParameter, Measurement.WaitTime.Monitor.Offset, 0
TestParameter, Output.Graph.Enabled, true
TestParameter, Output.Graph.AutoScaling, false
TestParameter, Output.Graph.XAxis.Data, V
TestParameter, Output.Graph.XAxis.Scale, Linear
TestParameter, Output.Graph.XAxis.Left, -2
TestParameter, Output.Graph.XAxis.Right, 2
TestParameter, Output.Graph.XAxis.RunTimeAutoScale, true
TestParameter, Output.Graph.YAxis.Data, I
TestParameter, Output.Graph.YAxis.Scale, Linear
TestParameter, Output.Graph.YAxis.Bottom, -0.1
TestParameter, Output.Graph.YAxis.Top, 0.1
TestParameter, Output.Graph.YAxis.Group, 
TestParameter, Output.Graph.YAxis.RunTimeAutoScale, true
TestParameter, AutoAnalysis.Interpolation, false
TestParameter, AutoAnalysis.Var2StepCount, 1
TestParameter, AutoAnalysis.Var2StepScript, 
TestParameter, AutoAnalysis.Line1.Enabled, false
TestParameter, AutoAnalysis.Line1.Type, 1
TestParameter, AutoAnalysis.Line1.Fix, True
TestParameter, AutoAnalysis.Line1.YAxis, 0
TestParameter, AutoAnalysis.Line1.Point1.Type, 0
TestParameter, AutoAnalysis.Line1.Point1.XY.X, 
TestParameter, AutoAnalysis.Line1.Point1.XY.Y, 
TestParameter, AutoAnalysis.Line1.Point1.Data.Var, 
TestParameter, AutoAnalysis.Line1.Point1.Data.Condition, 
TestParameter, AutoAnalysis.Line1.Point1.Data.Start, false
TestParameter, AutoAnalysis.Line1.Point1.Data.StartVar, 
TestParameter, AutoAnalysis.Line1.Point1.Data.StartCondition, 
TestParameter, AutoAnalysis.Line1.Point2.Type, 0
TestParameter, AutoAnalysis.Line1.Point2.XY.X, 
TestParameter, AutoAnalysis.Line1.Point2.XY.Y, 
TestParameter, AutoAnalysis.Line1.Point2.Data.Var, 
TestParameter, AutoAnalysis.Line1.Point2.Data.Condition, 
TestParameter, AutoAnalysis.Line1.Point2.Data.Start, false
TestParameter, AutoAnalysis.Line1.Point2.Data.StartVar, 
TestParameter, AutoAnalysis.Line1.Point2.Data.StartCondition, 
TestParameter, AutoAnalysis.Line1.GradientExpr, 0
TestParameter, AutoAnalysis.Line2.Enabled, false
TestParameter, AutoAnalysis.Line2.Type, 1
TestParameter, AutoAnalysis.Line2.Fix, True
TestParameter, AutoAnalysis.Line2.YAxis, 0
TestParameter, AutoAnalysis.Line2.Point1.Type, 0
TestParameter, AutoAnalysis.Line2.Point1.XY.X, 
TestParameter, AutoAnalysis.Line2.Point1.XY.Y, 
TestParameter, AutoAnalysis.Line2.Point1.Data.Var, 
TestParameter, AutoAnalysis.Line2.Point1.Data.Condition, 
TestParameter, AutoAnalysis.Line2.Point1.Data.Start, false
TestParameter, AutoAnalysis.Line2.Point1.Data.StartVar, 
TestParameter, AutoAnalysis.Line2.Point1.Data.StartCondition, 
TestParameter, AutoAnalysis.Line2.Point2.Type, 0
TestParameter, AutoAnalysis.Line2.Point2.XY.X, 
TestParameter, AutoAnalysis.Line2.Point2.XY.Y, 
TestParameter, AutoAnalysis.Line2.Point2.Data.Var, 
TestParameter, AutoAnalysis.Line2.Point2.Data.Condition, 
TestParameter, AutoAnalysis.Line2.Point2.Data.Start, false
TestParameter, AutoAnalysis.Line2.Point2.Data.StartVar, 
TestParameter, AutoAnalysis.Line2.Point2.Data.StartCondition, 
TestParameter, AutoAnalysis.Line2.GradientExpr, 0
TestParameter, AutoAnalysis.Marker.Enabled, false
TestParameter, AutoAnalysis.Marker.Data.Var, 
TestParameter, AutoAnalysis.Marker.Data.Condition, 
TestParameter, AutoAnalysis.Marker.Data.Start, false
TestParameter, AutoAnalysis.Marker.Data.StartVar, 
TestParameter, AutoAnalysis.Marker.Data.StartCondition, 
MetaData, TestRecord.EntryPoint, true
MetaData, TestRecord.RecordTime, 10/19/2022 11:45:26
MetaData, TestRecord.TestTarget, 
MetaData, TestRecord.IterationIndex, 220
MetaData, TestRecord.Preservation, true
MetaData, TestRecord.Flag, 
MetaData, TestRecord.Remarks, 
MetaData, TestRecord.LinkKey, e57b762f-d3b2-4c25-87c6-cd9897d633b1
MetaData, TestRecord.Parameters, 
Dimension1, 101, 101
Dimension2, 1, 1
DataName, V, I
DataValue, -2, -5.9028999999999992E-08
DataValue, -1.9600000000000002, 4.6306399999999993E-08
DataValue, -1.9200000000000002, -4.8875399999999994E-08
DataValue, -1.8800000000000001, -2.3443599999999996E-08
DataValue, -1.84, 3.94878E-08
DataValue, -1.8, -5.46756E-08
DataValue, -1.76, 5.6358199999999992E-08
DataValue, -1.72, -5.9818999999999988E-08
DataValue, -1.6800000000000002, 6.01804E-08
DataValue, -1.6400000000000001, -5.61056E-08
DataValue, -1.6, 5.11134E-08
DataValue, -1.56, -4.0428199999999994E-08
DataValue, -1.52, 6.0392799999999993E-08
DataValue, -1.48, -5.5958E-08
DataValue, -1.4400000000000002, 5.0940799999999995E-08
DataValue, -1.4000000000000001, -1.82628E-08
DataValue, -1.36, -3.6426E-08
DataValue, -1.32, 5.1021999999999992E-08
DataValue, -1.28, -5.5996399999999996E-08
DataValue, -1.24, 5.5836799999999995E-08
DataValue, -1.2, -5.9325599999999996E-08
DataValue, -1.1600000000000001, 6.04698E-08
DataValue, -1.12, -5.9538199999999991E-08
DataValue, -1.08, 5.6648999999999993E-08
DataValue, -1.04, -4.4352399999999994E-08
DataValue, -1, 3.3217799999999996E-08
DataValue, -0.96000000000000008, -1.5728799999999997E-08
DataValue, -0.92, -3.48002E-08
DataValue, -0.88, 5.0588799999999993E-08
DataValue, -0.84000000000000008, -5.5841199999999994E-08
DataValue, -0.8, 5.3826599999999994E-08
DataValue, -0.76, -5.6314199999999995E-08
DataValue, -0.72000000000000008, 5.5946399999999992E-08
DataValue, -0.68, -5.6376399999999997E-08
DataValue, -0.64, 5.98992E-08
DataValue, -0.6, -5.9566399999999994E-08
DataValue, -0.56, 5.9353199999999993E-08
DataValue, -0.52, -5.8629999999999996E-08
DataValue, -0.48000000000000004, 6.02818E-08
DataValue, -0.44, -5.7575799999999995E-08
DataValue, -0.4, 5.9778199999999992E-08
DataValue, -0.36000000000000004, -5.979479999999999E-08
DataValue, -0.32, 5.9068399999999992E-08
DataValue, -0.28, -5.9075999999999992E-08
DataValue, -0.24000000000000002, 5.2090999999999993E-08
DataValue, -0.2, -5.6385999999999993E-08
DataValue, -0.16, 5.8544199999999996E-08
DataValue, -0.12000000000000001, -5.8986199999999994E-08
DataValue, -0.08, 5.2280599999999995E-08
DataValue, -0.04, -5.6203799999999994E-08
DataValue, 0, 5.97362E-08
DataValue, 0.04, -5.5983399999999994E-08
DataValue, 0.08, 4.8839999999999993E-08
DataValue, 0.12000000000000001, -3.8596199999999995E-08
DataValue, 0.16, 6.05688E-08
DataValue, 0.2, -5.5143799999999996E-08
DataValue, 0.24000000000000002, 4.5108799999999993E-08
DataValue, 0.28, -5.8951999999999992E-09
DataValue, 0.32, 5.8156399999999997E-08
DataValue, 0.36000000000000004, -5.9120599999999995E-08
DataValue, 0.4, 5.2231599999999992E-08
DataValue, 0.44, -5.6292399999999994E-08
DataValue, 0.48000000000000004, 5.8561E-08
DataValue, 0.52, -5.9193399999999995E-08
DataValue, 0.56, 5.3240999999999993E-08
DataValue, 0.6, -5.6402399999999993E-08
DataValue, 0.64, 5.9351599999999993E-08
DataValue, 0.68, -5.9478199999999996E-08
DataValue, 0.72000000000000008, 5.6633999999999996E-08
DataValue, 0.76, -4.65822E-08
DataValue, 0.8, 3.79458E-08
DataValue, 0.84000000000000008, -2.1699599999999997E-08
DataValue, 0.88, -3.3717199999999994E-08
DataValue, 0.92, 5.0902399999999997E-08
DataValue, 0.96000000000000008, -5.6376199999999992E-08
DataValue, 1, 5.6758399999999993E-08
DataValue, 1.04, -5.6490399999999993E-08
DataValue, 1.08, 5.5918399999999993E-08
DataValue, 1.12, -5.8829799999999994E-08
DataValue, 1.1600000000000001, 5.7798999999999994E-08
DataValue, 1.2, -5.7213799999999994E-08
DataValue, 1.24, 5.9557999999999996E-08
DataValue, 1.28, -5.9161199999999994E-08
DataValue, 1.32, 5.9282799999999991E-08
DataValue, 1.36, -5.6031199999999992E-08
DataValue, 1.4000000000000001, 5.9352599999999994E-08
DataValue, 1.4400000000000002, -5.86912E-08
DataValue, 1.48, 6.073319999999999E-08
DataValue, 1.52, -5.9548599999999991E-08
DataValue, 1.56, 6.0723E-08
DataValue, 1.6, -5.0259599999999993E-08
DataValue, 1.6400000000000001, 5.3760999999999994E-08
DataValue, 1.6800000000000002, -3.29902E-08
DataValue, 1.72, 3.7535399999999993E-08
DataValue, 1.76, -3.9909599999999996E-08
DataValue, 1.8, 2.4059199999999998E-08
DataValue, 1.84, -2.8015199999999997E-08
DataValue, 1.8800000000000001, 3.2303999999999996E-08
DataValue, 1.9200000000000002, -2.6481599999999997E-08
DataValue, 1.9600000000000002, 5.4818799999999992E-08
DataValue, 2, -5.58956E-08