
SetupTitle, I/V Sweep
PrimitiveTest, I/V Sweep
TestParameter, Context.MainFrame, B1500A
TestParameter, Channel.UnitType, SMU, SMU, SMU, SMU, SMU
TestParameter, Channel.Unit, SMU1:HP, SMU2:MP, SMU3:MP, SMU4:MP, SMU5:MP
TestParameter, Channel.IName, I, IDD1, IDD2, ISS, IPP
TestParameter, Channel.VName, V, VDD1, VDD2, VSS, VPP
TestParameter, Channel.Mode, V, V, V, V, V
TestParameter, Channel.Func, VAR1, CONST, CONST, CONST, CONST
TestParameter, Channel.Index, 
TestParameter, Channel.Time, 
TestParameter, Measurement.Port.Unit, SMU1:HP, SMU2:MP, SMU3:MP, SMU4:MP, SMU5:MP
TestParameter, Measurement.Port.SeriesResistor, NONE, NONE, NONE, NONE, NONE
TestParameter, Measurement.Port.Filter, ON, ON, ON, ON, ON
TestParameter, Measurement.Port.OutputVoltageComparison, 0, 0, 0, 0, 0
TestParameter, Measurement.Primary.Locus, Single
TestParameter, Measurement.Primary.Scale, LINEAR
TestParameter, Measurement.Primary.Start, -2
TestParameter, Measurement.Primary.Stop, 2
TestParameter, Measurement.Primary.Step, 0.04
TestParameter, Measurement.Primary.Compliance, 0.1
TestParameter, Measurement.Primary.PowerCompliance, 0
TestParameter, Measurement.Aborting.Condition, CONTINUE AT ANY
TestParameter, Measurement.PostOutput.Value, START
TestParameter, Measurement.PostOutput.Retention, OFF
TestParameter, Measurement.Bias.Source, -2, 1.8, 1.1, 0, 0
TestParameter, Measurement.Bias.Compliance, 0.1, 0.1, 0.1, 0.1, 0.1
TestParameter, Measurement.Monitor.Unit, SMU1:HP, SMU2:MP, SMU3:MP, SMU4:MP, SMU5:MP
TestParameter, Measurement.Monitor.Adc, HR ADC, HR ADC, HR ADC, HR ADC, HR ADC
TestParameter, Measurement.Monitor.Measurement, Compliance Side, Compliance Side, Compliance Side, Compliance Side, Compliance Side
TestParameter, Measurement.Monitor.RangingMode, LIMITED, LIMITED, LIMITED, LIMITED, LIMITED
TestParameter, Measurement.Monitor.RangeBoundary, 1nA, 1nA, 1nA, 1nA, 1nA
TestParameter, Measurement.Monitor.RangeRating, BY FULL RANGE, BY FULL RANGE, BY FULL RANGE, BY FULL RANGE, BY FULL RANGE
TestParameter, Measurement.Monitor.RangeRatingCoeff, 50, 50, 50, 50, 50
TestParameter, Measurement.Timing.Hold, 0
TestParameter, Measurement.Timing.Delay, 0
TestParameter, Measurement.Adc.HighSpeed.Mode, AUTO
TestParameter, Measurement.Adc.HighSpeed.Coeff, 1
TestParameter, Measurement.Adc.HighResolution.AutoZero, OFF
TestParameter, Measurement.Adc.HighResolution.Mode, AUTO
TestParameter, Measurement.Adc.HighResolution.Coeff, 6
TestParameter, Measurement.WaitTime.Source.Coeff, 1
TestParameter, Measurement.WaitTime.Source.Offset, 0
TestParameter, Measurement.WaitTime.Monitor.Coeff, 1
TestParameter, Measurement.WaitTime.Monitor.Offset, 0
TestParameter, Output.Graph.Enabled, true
TestParameter, Output.Graph.AutoScaling, false
TestParameter, Output.Graph.XAxis.Data, V
TestParameter, Output.Graph.XAxis.Scale, Linear
TestParameter, Output.Graph.XAxis.Left, -2
TestParameter, Output.Graph.XAxis.Right, 2
TestParameter, Output.Graph.XAxis.RunTimeAutoScale, true
TestParameter, Output.Graph.YAxis.Data, I
TestParameter, Output.Graph.YAxis.Scale, Linear
TestParameter, Output.Graph.YAxis.Bottom, -0.1
TestParameter, Output.Graph.YAxis.Top, 0.1
TestParameter, Output.Graph.YAxis.Group, 
TestParameter, Output.Graph.YAxis.RunTimeAutoScale, true
TestParameter, AutoAnalysis.Interpolation, false
TestParameter, AutoAnalysis.Var2StepCount, 1
TestParameter, AutoAnalysis.Var2StepScript, 
TestParameter, AutoAnalysis.Line1.Enabled, false
TestParameter, AutoAnalysis.Line1.Type, 1
TestParameter, AutoAnalysis.Line1.Fix, True
TestParameter, AutoAnalysis.Line1.YAxis, 0
TestParameter, AutoAnalysis.Line1.Point1.Type, 0
TestParameter, AutoAnalysis.Line1.Point1.XY.X, 
TestParameter, AutoAnalysis.Line1.Point1.XY.Y, 
TestParameter, AutoAnalysis.Line1.Point1.Data.Var, 
TestParameter, AutoAnalysis.Line1.Point1.Data.Condition, 
TestParameter, AutoAnalysis.Line1.Point1.Data.Start, false
TestParameter, AutoAnalysis.Line1.Point1.Data.StartVar, 
TestParameter, AutoAnalysis.Line1.Point1.Data.StartCondition, 
TestParameter, AutoAnalysis.Line1.Point2.Type, 0
TestParameter, AutoAnalysis.Line1.Point2.XY.X, 
TestParameter, AutoAnalysis.Line1.Point2.XY.Y, 
TestParameter, AutoAnalysis.Line1.Point2.Data.Var, 
TestParameter, AutoAnalysis.Line1.Point2.Data.Condition, 
TestParameter, AutoAnalysis.Line1.Point2.Data.Start, false
TestParameter, AutoAnalysis.Line1.Point2.Data.StartVar, 
TestParameter, AutoAnalysis.Line1.Point2.Data.StartCondition, 
TestParameter, AutoAnalysis.Line1.GradientExpr, 0
TestParameter, AutoAnalysis.Line2.Enabled, false
TestParameter, AutoAnalysis.Line2.Type, 1
TestParameter, AutoAnalysis.Line2.Fix, True
TestParameter, AutoAnalysis.Line2.YAxis, 0
TestParameter, AutoAnalysis.Line2.Point1.Type, 0
TestParameter, AutoAnalysis.Line2.Point1.XY.X, 
TestParameter, AutoAnalysis.Line2.Point1.XY.Y, 
TestParameter, AutoAnalysis.Line2.Point1.Data.Var, 
TestParameter, AutoAnalysis.Line2.Point1.Data.Condition, 
TestParameter, AutoAnalysis.Line2.Point1.Data.Start, false
TestParameter, AutoAnalysis.Line2.Point1.Data.StartVar, 
TestParameter, AutoAnalysis.Line2.Point1.Data.StartCondition, 
TestParameter, AutoAnalysis.Line2.Point2.Type, 0
TestParameter, AutoAnalysis.Line2.Point2.XY.X, 
TestParameter, AutoAnalysis.Line2.Point2.XY.Y, 
TestParameter, AutoAnalysis.Line2.Point2.Data.Var, 
TestParameter, AutoAnalysis.Line2.Point2.Data.Condition, 
TestParameter, AutoAnalysis.Line2.Point2.Data.Start, false
TestParameter, AutoAnalysis.Line2.Point2.Data.StartVar, 
TestParameter, AutoAnalysis.Line2.Point2.Data.StartCondition, 
TestParameter, AutoAnalysis.Line2.GradientExpr, 0
TestParameter, AutoAnalysis.Marker.Enabled, false
TestParameter, AutoAnalysis.Marker.Data.Var, 
TestParameter, AutoAnalysis.Marker.Data.Condition, 
TestParameter, AutoAnalysis.Marker.Data.Start, false
TestParameter, AutoAnalysis.Marker.Data.StartVar, 
TestParameter, AutoAnalysis.Marker.Data.StartCondition, 
MetaData, TestRecord.EntryPoint, true
MetaData, TestRecord.RecordTime, 10/19/2022 11:53:16
MetaData, TestRecord.TestTarget, 
MetaData, TestRecord.IterationIndex, 239
MetaData, TestRecord.Preservation, true
MetaData, TestRecord.Flag, 
MetaData, TestRecord.Remarks, 
MetaData, TestRecord.LinkKey, 197259b6-e85a-4f31-877a-e2db58ce84aa
MetaData, TestRecord.Parameters, 
Dimension1, 101, 101
Dimension2, 1, 1
DataName, V, I
DataValue, -2, -5.2112199999999995E-08
DataValue, -1.9600000000000002, 4.6772799999999994E-08
DataValue, -1.9200000000000002, -6.44274E-08
DataValue, -1.8800000000000001, 5.4158199999999992E-08
DataValue, -1.84, -6.48064E-08
DataValue, -1.8, 5.1173199999999995E-08
DataValue, -1.76, -5.0790999999999995E-08
DataValue, -1.72, 3.67048E-08
DataValue, -1.6800000000000002, -4.6981199999999993E-08
DataValue, -1.6400000000000001, 1.00188E-08
DataValue, -1.6, -4.2187999999999995E-09
DataValue, -1.56, 3.8666799999999994E-08
DataValue, -1.52, -2.9833399999999995E-08
DataValue, -1.48, -3.2529E-08
DataValue, -1.4400000000000002, 4.4257E-08
DataValue, -1.4000000000000001, -5.9104799999999995E-08
DataValue, -1.36, 5.4499599999999997E-08
DataValue, -1.32, -6.29996E-08
DataValue, -1.28, 5.6781799999999994E-08
DataValue, -1.24, -5.7574199999999994E-08
DataValue, -1.2, 4.2069199999999995E-08
DataValue, -1.1600000000000001, -3.3503799999999996E-08
DataValue, -1.12, -2.7231599999999997E-08
DataValue, -1.08, 3.71364E-08
DataValue, -1.04, -5.2757599999999993E-08
DataValue, -1, 5.3828199999999995E-08
DataValue, -0.96000000000000008, -6.1322599999999991E-08
DataValue, -0.92, 5.73514E-08
DataValue, -0.88, -6.10234E-08
DataValue, -0.84000000000000008, 5.7908199999999996E-08
DataValue, -0.8, -6.15608E-08
DataValue, -0.76, 5.97152E-08
DataValue, -0.72000000000000008, -4.6829599999999995E-08
DataValue, -0.68, 4.8680199999999994E-08
DataValue, -0.64, -4.9084E-08
DataValue, -0.6, 3.05056E-08
DataValue, -0.56, -3.5183799999999995E-08
DataValue, -0.52, -9.9459999999999992E-08
DataValue, -0.48000000000000004, -6.046519999999999E-08
DataValue, -0.44, 5.96594E-08
DataValue, -0.4, -5.7238399999999995E-08
DataValue, -0.36000000000000004, 4.8825599999999995E-08
DataValue, -0.32, -3.96334E-08
DataValue, -0.28, 6.0665199999999992E-08
DataValue, -0.24000000000000002, -5.6041799999999996E-08
DataValue, -0.2, 4.6085199999999996E-08
DataValue, -0.16, -3.5640999999999995E-08
DataValue, -0.12000000000000001, 5.2437999999999996E-08
DataValue, -0.08, -5.98326E-08
DataValue, -0.04, 6.0233199999999992E-08
DataValue, 0, -4.5545199999999993E-08
DataValue, 0.04, 3.7636999999999995E-08
DataValue, 0.08, -1.9323799999999997E-08
DataValue, 0.12000000000000001, -3.5205799999999994E-08
DataValue, 0.16, 5.11512E-08
DataValue, 0.2, -5.6121199999999994E-08
DataValue, 0.24000000000000002, 5.74312E-08
DataValue, 0.28, -6.0005E-08
DataValue, 0.32, 6.1497399999999993E-08
DataValue, 0.36000000000000004, -5.57146E-08
DataValue, 0.4, 4.6546399999999994E-08
DataValue, 0.44, -3.4039799999999995E-08
DataValue, 0.48000000000000004, -2.1482799999999997E-08
DataValue, 0.52, 3.79544E-08
DataValue, 0.56, -5.6066599999999993E-08
DataValue, 0.6, 6.19958E-08
DataValue, 0.64, -5.8354599999999994E-08
DataValue, 0.68, 5.8826399999999995E-08
DataValue, 0.72000000000000008, -4.1130399999999994E-08
DataValue, 0.76, 6.15224E-08
DataValue, 0.8, -5.5159199999999995E-08
DataValue, 0.84000000000000008, 6.0062E-08
DataValue, 0.88, -3.9994999999999995E-08
DataValue, 0.92, 6.43824E-08
DataValue, 0.96000000000000008, -5.3076199999999996E-08
DataValue, 1, 5.4277799999999994E-08
DataValue, 1.04, -3.88326E-08
DataValue, 1.08, 6.067519999999999E-08
DataValue, 1.12, -4.61452E-08
DataValue, 1.1600000000000001, 4.5898799999999995E-08
DataValue, 1.2, -2.1601E-08
DataValue, 1.24, -4.5674199999999994E-08
DataValue, 1.28, -5.888E-08
DataValue, 1.32, -3.42928E-08
DataValue, 1.36, 5.9273799999999994E-08
DataValue, 1.4000000000000001, -5.03308E-08
DataValue, 1.4400000000000002, 6.1465999999999989E-08
DataValue, 1.48, -5.6235399999999995E-08
DataValue, 1.52, 5.8217399999999993E-08
DataValue, 1.56, -1.5914E-08
DataValue, 1.6, 7.52012E-08
DataValue, 1.6400000000000001, -5.5111199999999994E-08
DataValue, 1.6800000000000002, 6.2646999999999992E-08
DataValue, 1.72, 5.1126E-09
DataValue, 1.76, 5.4404599999999995E-08
DataValue, 1.8, 3.77E-09
DataValue, 1.84, 1.2189999999999998E-09
DataValue, 1.8800000000000001, -4.79E-08
DataValue, 1.9200000000000002, 8.3E-08
DataValue, 1.9600000000000002, 8.1102399999999989E-08
DataValue, 2, -1.89676E-08