
SetupTitle, I/V Sweep
PrimitiveTest, I/V Sweep
TestParameter, Context.MainFrame, B1500A
TestParameter, Channel.UnitType, SMU, SMU, SMU, SMU
TestParameter, Channel.Unit, SMU1:HP, SMU2:MP, SMU3:MP, SMU4:MP
TestParameter, Channel.IName, I, IDD1, IDD2, II
TestParameter, Channel.VName, V, VDD1, VDD2, VV
TestParameter, Channel.Mode, V, V, V, V
TestParameter, Channel.Func, CONST, VAR1, CONST, CONST
TestParameter, Channel.Index, 
TestParameter, Channel.Time, 
TestParameter, Measurement.Port.Unit, SMU1:HP, SMU2:MP, SMU3:MP, SMU4:MP
TestParameter, Measurement.Port.SeriesResistor, NONE, NONE, NONE, NONE
TestParameter, Measurement.Port.Filter, ON, ON, ON, ON
TestParameter, Measurement.Port.OutputVoltageComparison, 0, 0, 0, 0
TestParameter, Measurement.Primary.Locus, Single
TestParameter, Measurement.Primary.Scale, LINEAR
TestParameter, Measurement.Primary.Start, -2
TestParameter, Measurement.Primary.Stop, 2
TestParameter, Measurement.Primary.Step, 0.04
TestParameter, Measurement.Primary.Compliance, 0.1
TestParameter, Measurement.Primary.PowerCompliance, 0
TestParameter, Measurement.Aborting.Condition, CONTINUE AT ANY
TestParameter, Measurement.PostOutput.Value, START
TestParameter, Measurement.PostOutput.Retention, OFF
TestParameter, Measurement.Bias.Source, -2, -2, 1.1, 0
TestParameter, Measurement.Bias.Compliance, 0.1, 0.1, 0.1, 0.1
TestParameter, Measurement.Monitor.Unit, SMU1:HP, SMU2:MP, SMU3:MP, SMU4:MP
TestParameter, Measurement.Monitor.Adc, HR ADC, HR ADC, HR ADC, HR ADC
TestParameter, Measurement.Monitor.Measurement, Compliance Side, Compliance Side, Compliance Side, Compliance Side
TestParameter, Measurement.Monitor.RangingMode, LIMITED, LIMITED, LIMITED, LIMITED
TestParameter, Measurement.Monitor.RangeBoundary, 1nA, 1nA, 1nA, 1nA
TestParameter, Measurement.Monitor.RangeRating, BY FULL RANGE, BY FULL RANGE, BY FULL RANGE, BY FULL RANGE
TestParameter, Measurement.Monitor.RangeRatingCoeff, 50, 50, 50, 50
TestParameter, Measurement.Timing.Hold, 0
TestParameter, Measurement.Timing.Delay, 0
TestParameter, Measurement.Adc.HighSpeed.Mode, AUTO
TestParameter, Measurement.Adc.HighSpeed.Coeff, 1
TestParameter, Measurement.Adc.HighResolution.AutoZero, OFF
TestParameter, Measurement.Adc.HighResolution.Mode, AUTO
TestParameter, Measurement.Adc.HighResolution.Coeff, 6
TestParameter, Measurement.WaitTime.Source.Coeff, 1
TestParameter, Measurement.WaitTime.Source.Offset, 0
TestParameter, Measurement.WaitTime.Monitor.Coeff, 1
TestParameter, Measurement.WaitTime.Monitor.Offset, 0
TestParameter, Output.Graph.Enabled, true
TestParameter, Output.Graph.AutoScaling, false
TestParameter, Output.Graph.XAxis.Data, VDD1
TestParameter, Output.Graph.XAxis.Scale, Linear
TestParameter, Output.Graph.XAxis.Left, -2
TestParameter, Output.Graph.XAxis.Right, 2
TestParameter, Output.Graph.XAxis.RunTimeAutoScale, true
TestParameter, Output.Graph.YAxis.Data, IDD1
TestParameter, Output.Graph.YAxis.Scale, Linear
TestParameter, Output.Graph.YAxis.Bottom, -0.1
TestParameter, Output.Graph.YAxis.Top, 0.1
TestParameter, Output.Graph.YAxis.Group, 
TestParameter, Output.Graph.YAxis.RunTimeAutoScale, true
TestParameter, AutoAnalysis.Interpolation, false
TestParameter, AutoAnalysis.Var2StepCount, 1
TestParameter, AutoAnalysis.Var2StepScript, 
TestParameter, AutoAnalysis.Line1.Enabled, false
TestParameter, AutoAnalysis.Line1.Type, 1
TestParameter, AutoAnalysis.Line1.Fix, True
TestParameter, AutoAnalysis.Line1.YAxis, 0
TestParameter, AutoAnalysis.Line1.Point1.Type, 0
TestParameter, AutoAnalysis.Line1.Point1.XY.X, 
TestParameter, AutoAnalysis.Line1.Point1.XY.Y, 
TestParameter, AutoAnalysis.Line1.Point1.Data.Var, 
TestParameter, AutoAnalysis.Line1.Point1.Data.Condition, 
TestParameter, AutoAnalysis.Line1.Point1.Data.Start, false
TestParameter, AutoAnalysis.Line1.Point1.Data.StartVar, 
TestParameter, AutoAnalysis.Line1.Point1.Data.StartCondition, 
TestParameter, AutoAnalysis.Line1.Point2.Type, 0
TestParameter, AutoAnalysis.Line1.Point2.XY.X, 
TestParameter, AutoAnalysis.Line1.Point2.XY.Y, 
TestParameter, AutoAnalysis.Line1.Point2.Data.Var, 
TestParameter, AutoAnalysis.Line1.Point2.Data.Condition, 
TestParameter, AutoAnalysis.Line1.Point2.Data.Start, false
TestParameter, AutoAnalysis.Line1.Point2.Data.StartVar, 
TestParameter, AutoAnalysis.Line1.Point2.Data.StartCondition, 
TestParameter, AutoAnalysis.Line1.GradientExpr, 0
TestParameter, AutoAnalysis.Line2.Enabled, false
TestParameter, AutoAnalysis.Line2.Type, 1
TestParameter, AutoAnalysis.Line2.Fix, True
TestParameter, AutoAnalysis.Line2.YAxis, 0
TestParameter, AutoAnalysis.Line2.Point1.Type, 0
TestParameter, AutoAnalysis.Line2.Point1.XY.X, 
TestParameter, AutoAnalysis.Line2.Point1.XY.Y, 
TestParameter, AutoAnalysis.Line2.Point1.Data.Var, 
TestParameter, AutoAnalysis.Line2.Point1.Data.Condition, 
TestParameter, AutoAnalysis.Line2.Point1.Data.Start, false
TestParameter, AutoAnalysis.Line2.Point1.Data.StartVar, 
TestParameter, AutoAnalysis.Line2.Point1.Data.StartCondition, 
TestParameter, AutoAnalysis.Line2.Point2.Type, 0
TestParameter, AutoAnalysis.Line2.Point2.XY.X, 
TestParameter, AutoAnalysis.Line2.Point2.XY.Y, 
TestParameter, AutoAnalysis.Line2.Point2.Data.Var, 
TestParameter, AutoAnalysis.Line2.Point2.Data.Condition, 
TestParameter, AutoAnalysis.Line2.Point2.Data.Start, false
TestParameter, AutoAnalysis.Line2.Point2.Data.StartVar, 
TestParameter, AutoAnalysis.Line2.Point2.Data.StartCondition, 
TestParameter, AutoAnalysis.Line2.GradientExpr, 0
TestParameter, AutoAnalysis.Marker.Enabled, false
TestParameter, AutoAnalysis.Marker.Data.Var, 
TestParameter, AutoAnalysis.Marker.Data.Condition, 
TestParameter, AutoAnalysis.Marker.Data.Start, false
TestParameter, AutoAnalysis.Marker.Data.StartVar, 
TestParameter, AutoAnalysis.Marker.Data.StartCondition, 
MetaData, TestRecord.EntryPoint, true
MetaData, TestRecord.RecordTime, 10/19/2022 15:57:52
MetaData, TestRecord.TestTarget, 
MetaData, TestRecord.IterationIndex, 114
MetaData, TestRecord.Preservation, true
MetaData, TestRecord.Flag, 
MetaData, TestRecord.Remarks, 
MetaData, TestRecord.LinkKey, fad1c311-ce7a-44af-b43d-5ac2646641dd
MetaData, TestRecord.Parameters, 
Dimension1, 101, 101
Dimension2, 1, 1
DataName, VDD1, IDD1
DataValue, -2, -1.9050000000000001E-10
DataValue, -1.9600000000000002, -6.994E-11
DataValue, -1.9200000000000002, -1.2913E-10
DataValue, -1.8800000000000001, -7.579E-11
DataValue, -1.84, -9.734000000000001E-11
DataValue, -1.8, -1.3979000000000002E-10
DataValue, -1.76, -7.116E-11
DataValue, -1.72, -1.1360000000000001E-10
DataValue, -1.6800000000000002, -4.3210000000000005E-11
DataValue, -1.6400000000000001, -1.3389000000000002E-10
DataValue, -1.6, -1.639E-11
DataValue, -1.56, -1.6015E-10
DataValue, -1.52, 3.4910000000000005E-11
DataValue, -1.48, -1.7298E-10
DataValue, -1.4400000000000002, 3.095E-11
DataValue, -1.4000000000000001, -1.6438E-10
DataValue, -1.36, 3.3450000000000005E-11
DataValue, -1.32, -1.565E-10
DataValue, -1.28, 3.379E-11
DataValue, -1.24, -1.476E-10
DataValue, -1.2, 4.09E-11
DataValue, -1.1600000000000001, -1.4078E-10
DataValue, -1.12, 4.1430000000000006E-11
DataValue, -1.08, -1.3584000000000002E-10
DataValue, -1.04, 4.2850000000000006E-11
DataValue, -1, -1.3583E-10
DataValue, -0.96000000000000008, 4.8570000000000006E-11
DataValue, -0.92, -1.2900000000000002E-10
DataValue, -0.88, 5.0460000000000006E-11
DataValue, -0.84000000000000008, -1.2125000000000002E-10
DataValue, -0.8, 5.233E-11
DataValue, -0.76, -1.1543000000000001E-10
DataValue, -0.72000000000000008, 5.208E-11
DataValue, -0.68, -1.1089E-10
DataValue, -0.64, 5.3870000000000004E-11
DataValue, -0.6, -1.0649000000000001E-10
DataValue, -0.56, 5.1370000000000006E-11
DataValue, -0.52, -1.0406000000000001E-10
DataValue, -0.48000000000000004, 5.506E-11
DataValue, -0.44, -1.0069E-10
DataValue, -0.4, 4.083E-11
DataValue, -0.36000000000000004, -7.6500000000000007E-11
DataValue, -0.32, 4.355E-11
DataValue, -0.28, -7.721000000000001E-11
DataValue, -0.24000000000000002, 4.2920000000000005E-11
DataValue, -0.2, -7.522E-11
DataValue, -0.16, 4.968E-11
DataValue, -0.12000000000000001, -7.3630000000000008E-11
DataValue, -0.08, 4.887E-11
DataValue, -0.04, -6.95E-11
DataValue, 0, 4.526E-11
DataValue, 0.04, -6.361E-11
DataValue, 0.08, 4.8480000000000003E-11
DataValue, 0.12000000000000001, -6.171E-11
DataValue, 0.16, 4.639E-11
DataValue, 0.2, -5.7080000000000005E-11
DataValue, 0.24000000000000002, 4.949E-11
DataValue, 0.28, -5.2390000000000006E-11
DataValue, 0.32, 4.668E-11
DataValue, 0.36000000000000004, -4.792E-11
DataValue, 0.4, 4.632E-11
DataValue, 0.44, -4.6300000000000004E-11
DataValue, 0.48000000000000004, 4.901E-11
DataValue, 0.52, -4.315E-11
DataValue, 0.56, 4.9040000000000006E-11
DataValue, 0.6, -4.2230000000000006E-11
DataValue, 0.64, 5.102E-11
DataValue, 0.68, -3.7460000000000006E-11
DataValue, 0.72000000000000008, 5.292E-11
DataValue, 0.76, -3.7490000000000004E-11
DataValue, 0.8, 5.3810000000000006E-11
DataValue, 0.84000000000000008, -3.6800000000000005E-11
DataValue, 0.88, 5.798E-11
DataValue, 0.92, -3.299E-11
DataValue, 0.96000000000000008, 6.1720000000000008E-11
DataValue, 1, -3.6330000000000005E-11
DataValue, 1.04, 6.4120000000000007E-11
DataValue, 1.08, -3.081E-11
DataValue, 1.12, 6.551E-11
DataValue, 1.1600000000000001, -2.8310000000000004E-11
DataValue, 1.2, 6.4230000000000007E-11
DataValue, 1.24, -2.0860000000000003E-11
DataValue, 1.28, 6.4450000000000008E-11
DataValue, 1.32, -1.8930000000000003E-11
DataValue, 1.36, 6.874E-11
DataValue, 1.4000000000000001, -1.4000000000000002E-11
DataValue, 1.4400000000000002, 6.7640000000000011E-11
DataValue, 1.48, -1.271E-11
DataValue, 1.52, 6.9680000000000012E-11
DataValue, 1.56, -4.5500000000000006E-12
DataValue, 1.6, 7.122E-11
DataValue, 1.6400000000000001, -5.0000000000000005E-12
DataValue, 1.6800000000000002, 7.287E-11
DataValue, 1.72, -7.100000000000001E-13
DataValue, 1.76, 7.102E-11
DataValue, 1.8, 6.1E-12
DataValue, 1.84, 7.168E-11
DataValue, 1.8800000000000001, 1.007E-11
DataValue, 1.9200000000000002, 7.67E-11
DataValue, 1.9600000000000002, 6.9500000000000009E-12
DataValue, 2, 8.4770000000000008E-11