
SetupTitle, I/V Sweep
PrimitiveTest, I/V Sweep
TestParameter, Context.MainFrame, B1500A
TestParameter, Channel.UnitType, SMU, SMU, SMU, SMU
TestParameter, Channel.Unit, SMU1:HP, SMU2:MP, SMU3:MP, SMU4:MP
TestParameter, Channel.IName, I, IDD1, IDD2, II
TestParameter, Channel.VName, V, VDD1, VDD2, VV
TestParameter, Channel.Mode, V, V, V, V
TestParameter, Channel.Func, VAR1, CONST, CONST, CONST
TestParameter, Channel.Index, 
TestParameter, Channel.Time, 
TestParameter, Measurement.Port.Unit, SMU1:HP, SMU2:MP, SMU3:MP, SMU4:MP
TestParameter, Measurement.Port.SeriesResistor, NONE, NONE, NONE, NONE
TestParameter, Measurement.Port.Filter, ON, ON, ON, ON
TestParameter, Measurement.Port.OutputVoltageComparison, 0, 0, 0, 0
TestParameter, Measurement.Primary.Locus, Single
TestParameter, Measurement.Primary.Scale, LINEAR
TestParameter, Measurement.Primary.Start, -2
TestParameter, Measurement.Primary.Stop, 2
TestParameter, Measurement.Primary.Step, 0.04
TestParameter, Measurement.Primary.Compliance, 0.1
TestParameter, Measurement.Primary.PowerCompliance, 0
TestParameter, Measurement.Aborting.Condition, CONTINUE AT ANY
TestParameter, Measurement.PostOutput.Value, START
TestParameter, Measurement.PostOutput.Retention, OFF
TestParameter, Measurement.Bias.Source, -2, 1.8, 1.1, 0
TestParameter, Measurement.Bias.Compliance, 0.1, 0.1, 0.1, 0.1
TestParameter, Measurement.Monitor.Unit, SMU1:HP, SMU2:MP, SMU3:MP, SMU4:MP
TestParameter, Measurement.Monitor.Adc, HR ADC, HR ADC, HR ADC, HR ADC
TestParameter, Measurement.Monitor.Measurement, Compliance Side, Compliance Side, Compliance Side, Compliance Side
TestParameter, Measurement.Monitor.RangingMode, LIMITED, LIMITED, LIMITED, LIMITED
TestParameter, Measurement.Monitor.RangeBoundary, 1nA, 1nA, 1nA, 1nA
TestParameter, Measurement.Monitor.RangeRating, BY FULL RANGE, BY FULL RANGE, BY FULL RANGE, BY FULL RANGE
TestParameter, Measurement.Monitor.RangeRatingCoeff, 50, 50, 50, 50
TestParameter, Measurement.Timing.Hold, 0
TestParameter, Measurement.Timing.Delay, 0
TestParameter, Measurement.Adc.HighSpeed.Mode, AUTO
TestParameter, Measurement.Adc.HighSpeed.Coeff, 1
TestParameter, Measurement.Adc.HighResolution.AutoZero, OFF
TestParameter, Measurement.Adc.HighResolution.Mode, AUTO
TestParameter, Measurement.Adc.HighResolution.Coeff, 6
TestParameter, Measurement.WaitTime.Source.Coeff, 1
TestParameter, Measurement.WaitTime.Source.Offset, 0
TestParameter, Measurement.WaitTime.Monitor.Coeff, 1
TestParameter, Measurement.WaitTime.Monitor.Offset, 0
TestParameter, Output.Graph.Enabled, true
TestParameter, Output.Graph.AutoScaling, false
TestParameter, Output.Graph.XAxis.Data, V
TestParameter, Output.Graph.XAxis.Scale, Linear
TestParameter, Output.Graph.XAxis.Left, -2
TestParameter, Output.Graph.XAxis.Right, 2
TestParameter, Output.Graph.XAxis.RunTimeAutoScale, true
TestParameter, Output.Graph.YAxis.Data, I
TestParameter, Output.Graph.YAxis.Scale, Linear
TestParameter, Output.Graph.YAxis.Bottom, -0.1
TestParameter, Output.Graph.YAxis.Top, 0.1
TestParameter, Output.Graph.YAxis.Group, 
TestParameter, Output.Graph.YAxis.RunTimeAutoScale, true
TestParameter, AutoAnalysis.Interpolation, false
TestParameter, AutoAnalysis.Var2StepCount, 1
TestParameter, AutoAnalysis.Var2StepScript, 
TestParameter, AutoAnalysis.Line1.Enabled, false
TestParameter, AutoAnalysis.Line1.Type, 1
TestParameter, AutoAnalysis.Line1.Fix, True
TestParameter, AutoAnalysis.Line1.YAxis, 0
TestParameter, AutoAnalysis.Line1.Point1.Type, 0
TestParameter, AutoAnalysis.Line1.Point1.XY.X, 
TestParameter, AutoAnalysis.Line1.Point1.XY.Y, 
TestParameter, AutoAnalysis.Line1.Point1.Data.Var, 
TestParameter, AutoAnalysis.Line1.Point1.Data.Condition, 
TestParameter, AutoAnalysis.Line1.Point1.Data.Start, false
TestParameter, AutoAnalysis.Line1.Point1.Data.StartVar, 
TestParameter, AutoAnalysis.Line1.Point1.Data.StartCondition, 
TestParameter, AutoAnalysis.Line1.Point2.Type, 0
TestParameter, AutoAnalysis.Line1.Point2.XY.X, 
TestParameter, AutoAnalysis.Line1.Point2.XY.Y, 
TestParameter, AutoAnalysis.Line1.Point2.Data.Var, 
TestParameter, AutoAnalysis.Line1.Point2.Data.Condition, 
TestParameter, AutoAnalysis.Line1.Point2.Data.Start, false
TestParameter, AutoAnalysis.Line1.Point2.Data.StartVar, 
TestParameter, AutoAnalysis.Line1.Point2.Data.StartCondition, 
TestParameter, AutoAnalysis.Line1.GradientExpr, 0
TestParameter, AutoAnalysis.Line2.Enabled, false
TestParameter, AutoAnalysis.Line2.Type, 1
TestParameter, AutoAnalysis.Line2.Fix, True
TestParameter, AutoAnalysis.Line2.YAxis, 0
TestParameter, AutoAnalysis.Line2.Point1.Type, 0
TestParameter, AutoAnalysis.Line2.Point1.XY.X, 
TestParameter, AutoAnalysis.Line2.Point1.XY.Y, 
TestParameter, AutoAnalysis.Line2.Point1.Data.Var, 
TestParameter, AutoAnalysis.Line2.Point1.Data.Condition, 
TestParameter, AutoAnalysis.Line2.Point1.Data.Start, false
TestParameter, AutoAnalysis.Line2.Point1.Data.StartVar, 
TestParameter, AutoAnalysis.Line2.Point1.Data.StartCondition, 
TestParameter, AutoAnalysis.Line2.Point2.Type, 0
TestParameter, AutoAnalysis.Line2.Point2.XY.X, 
TestParameter, AutoAnalysis.Line2.Point2.XY.Y, 
TestParameter, AutoAnalysis.Line2.Point2.Data.Var, 
TestParameter, AutoAnalysis.Line2.Point2.Data.Condition, 
TestParameter, AutoAnalysis.Line2.Point2.Data.Start, false
TestParameter, AutoAnalysis.Line2.Point2.Data.StartVar, 
TestParameter, AutoAnalysis.Line2.Point2.Data.StartCondition, 
TestParameter, AutoAnalysis.Line2.GradientExpr, 0
TestParameter, AutoAnalysis.Marker.Enabled, false
TestParameter, AutoAnalysis.Marker.Data.Var, 
TestParameter, AutoAnalysis.Marker.Data.Condition, 
TestParameter, AutoAnalysis.Marker.Data.Start, false
TestParameter, AutoAnalysis.Marker.Data.StartVar, 
TestParameter, AutoAnalysis.Marker.Data.StartCondition, 
MetaData, TestRecord.EntryPoint, true
MetaData, TestRecord.RecordTime, 10/19/2022 16:11:55
MetaData, TestRecord.TestTarget, 
MetaData, TestRecord.IterationIndex, 150
MetaData, TestRecord.Preservation, true
MetaData, TestRecord.Flag, 
MetaData, TestRecord.Remarks, 
MetaData, TestRecord.LinkKey, d9872308-7b34-4952-bb9c-0d4157dcdd68
MetaData, TestRecord.Parameters, 
Dimension1, 101, 101
Dimension2, 1, 1
DataName, V, I
DataValue, -2, -0.003604
DataValue, -1.9600000000000002, -0.003333
DataValue, -1.9200000000000002, -0.0030642
DataValue, -1.8800000000000001, -0.0028024
DataValue, -1.84, -0.0025464
DataValue, -1.8, -0.0023004
DataValue, -1.76, -0.0020594
DataValue, -1.72, -0.0018292
DataValue, -1.6800000000000002, -0.0016052
DataValue, -1.6400000000000001, -0.0013994
DataValue, -1.6, -0.001209
DataValue, -1.56, -0.0010304000000000001
DataValue, -1.52, -0.00086736000000000007
DataValue, -1.48, -0.00072118000000000008
DataValue, -1.4400000000000002, -0.00059166
DataValue, -1.4000000000000001, -0.00047902000000000003
DataValue, -1.36, -0.00038298000000000005
DataValue, -1.32, -0.00030232
DataValue, -1.28, -0.00023582
DataValue, -1.24, -0.00018206
DataValue, -1.2, -0.00013948
DataValue, -1.1600000000000001, -0.00010570000000000001
DataValue, -1.12, -7.975E-05
DataValue, -1.08, -5.9278000000000004E-05
DataValue, -1.04, -4.3474000000000004E-05
DataValue, -1, -3.1474000000000004E-05
DataValue, -0.96000000000000008, -2.2462E-05
DataValue, -0.92, -1.5608E-05
DataValue, -0.88, -1.0520000000000001E-05
DataValue, -0.84000000000000008, -7.1100000000000005E-06
DataValue, -0.8, -4.4029000000000007E-06
DataValue, -0.76, -2.7132E-06
DataValue, -0.72000000000000008, -1.7774000000000001E-06
DataValue, -0.68, -1.1573000000000001E-06
DataValue, -0.64, -8.2636E-07
DataValue, -0.6, -6.1242E-07
DataValue, -0.56, -3.8506E-07
DataValue, -0.52, -3.5194E-07
DataValue, -0.48000000000000004, -3.7276E-07
DataValue, -0.44, -2.9886E-07
DataValue, -0.4, -1.987E-07
DataValue, -0.36000000000000004, -2.9276E-07
DataValue, -0.32, -3.1108E-07
DataValue, -0.28, -3.8474E-07
DataValue, -0.24000000000000002, -4.0212E-07
DataValue, -0.2, -2.3894E-07
DataValue, -0.16, -2.7E-07
DataValue, -0.12000000000000001, -2.414E-07
DataValue, -0.08, -3.5296E-07
DataValue, -0.04, -3.5427999999999997E-07
DataValue, 0, -4.5674E-07
DataValue, 0.04, -3.3746E-07
DataValue, 0.08, -3.0514E-07
DataValue, 0.12000000000000001, -1.8103999999999999E-07
DataValue, 0.16, -3.1612E-07
DataValue, 0.2, -3.1274E-07
DataValue, 0.24000000000000002, -2.4374E-07
DataValue, 0.28, 1.878E-07
DataValue, 0.32, 1.4355E-06
DataValue, 0.36000000000000004, 3.8671000000000006E-06
DataValue, 0.4, 6.2667000000000005E-06
DataValue, 0.44, 7.4457000000000006E-06
DataValue, 0.48000000000000004, 7.9319000000000011E-06
DataValue, 0.52, 8.2886E-06
DataValue, 0.56, 8.6289000000000014E-06
DataValue, 0.6, 9.1899000000000016E-06
DataValue, 0.64, 1.02634E-05
DataValue, 0.68, 1.2836E-05
DataValue, 0.72000000000000008, 1.9744E-05
DataValue, 0.76, 3.6446E-05
DataValue, 0.8, 6.808E-05
DataValue, 0.84000000000000008, 0.00012254
DataValue, 0.88, 0.00021028000000000003
DataValue, 0.92, 0.00033134
DataValue, 0.96000000000000008, 0.0004893
DataValue, 1, 0.00068058000000000007
DataValue, 1.04, 0.00089998000000000009
DataValue, 1.08, 0.00114324
DataValue, 1.12, 0.001418
DataValue, 1.1600000000000001, 0.0016948
DataValue, 1.2, 0.0019834
DataValue, 1.24, 0.0022822
DataValue, 1.28, 0.0025852
DataValue, 1.32, 0.002894
DataValue, 1.36, 0.0032028
DataValue, 1.4000000000000001, 0.0035138
DataValue, 1.4400000000000002, 0.0038282
DataValue, 1.48, 0.004152
DataValue, 1.52, 0.0044836
DataValue, 1.56, 0.0048242
DataValue, 1.6, 0.0051734
DataValue, 1.6400000000000001, 0.0055178
DataValue, 1.6800000000000002, 0.005877
DataValue, 1.72, 0.0062448
DataValue, 1.76, 0.0066096
DataValue, 1.8, 0.0070098
DataValue, 1.84, 0.0074026000000000005
DataValue, 1.8800000000000001, 0.007803
DataValue, 1.9200000000000002, 0.008207
DataValue, 1.9600000000000002, 0.008616
DataValue, 2, 0.0090302