
SetupTitle, I/V Sweep
PrimitiveTest, I/V Sweep
TestParameter, Context.MainFrame, B1500A
TestParameter, Channel.UnitType, SMU, SMU, SMU, SMU
TestParameter, Channel.Unit, SMU1:HP, SMU2:MP, SMU3:MP, SMU4:MP
TestParameter, Channel.IName, I, IDD1, IDD2, II
TestParameter, Channel.VName, V, VDD1, VDD2, VV
TestParameter, Channel.Mode, V, V, V, V
TestParameter, Channel.Func, VAR1, CONST, CONST, CONST
TestParameter, Channel.Index, 
TestParameter, Channel.Time, 
TestParameter, Measurement.Port.Unit, SMU1:HP, SMU2:MP, SMU3:MP, SMU4:MP
TestParameter, Measurement.Port.SeriesResistor, NONE, NONE, NONE, NONE
TestParameter, Measurement.Port.Filter, ON, ON, ON, ON
TestParameter, Measurement.Port.OutputVoltageComparison, 0, 0, 0, 0
TestParameter, Measurement.Primary.Locus, Single
TestParameter, Measurement.Primary.Scale, LINEAR
TestParameter, Measurement.Primary.Start, -2
TestParameter, Measurement.Primary.Stop, 2
TestParameter, Measurement.Primary.Step, 0.04
TestParameter, Measurement.Primary.Compliance, 0.1
TestParameter, Measurement.Primary.PowerCompliance, 0
TestParameter, Measurement.Aborting.Condition, CONTINUE AT ANY
TestParameter, Measurement.PostOutput.Value, START
TestParameter, Measurement.PostOutput.Retention, OFF
TestParameter, Measurement.Bias.Source, -2, 1.8, 1.1, 0
TestParameter, Measurement.Bias.Compliance, 0.1, 0.1, 0.1, 0.1
TestParameter, Measurement.Monitor.Unit, SMU1:HP, SMU2:MP, SMU3:MP, SMU4:MP
TestParameter, Measurement.Monitor.Adc, HR ADC, HR ADC, HR ADC, HR ADC
TestParameter, Measurement.Monitor.Measurement, Compliance Side, Compliance Side, Compliance Side, Compliance Side
TestParameter, Measurement.Monitor.RangingMode, LIMITED, LIMITED, LIMITED, LIMITED
TestParameter, Measurement.Monitor.RangeBoundary, 1nA, 1nA, 1nA, 1nA
TestParameter, Measurement.Monitor.RangeRating, BY FULL RANGE, BY FULL RANGE, BY FULL RANGE, BY FULL RANGE
TestParameter, Measurement.Monitor.RangeRatingCoeff, 50, 50, 50, 50
TestParameter, Measurement.Timing.Hold, 0
TestParameter, Measurement.Timing.Delay, 0
TestParameter, Measurement.Adc.HighSpeed.Mode, AUTO
TestParameter, Measurement.Adc.HighSpeed.Coeff, 1
TestParameter, Measurement.Adc.HighResolution.AutoZero, OFF
TestParameter, Measurement.Adc.HighResolution.Mode, AUTO
TestParameter, Measurement.Adc.HighResolution.Coeff, 6
TestParameter, Measurement.WaitTime.Source.Coeff, 1
TestParameter, Measurement.WaitTime.Source.Offset, 0
TestParameter, Measurement.WaitTime.Monitor.Coeff, 1
TestParameter, Measurement.WaitTime.Monitor.Offset, 0
TestParameter, Output.Graph.Enabled, true
TestParameter, Output.Graph.AutoScaling, false
TestParameter, Output.Graph.XAxis.Data, V
TestParameter, Output.Graph.XAxis.Scale, Linear
TestParameter, Output.Graph.XAxis.Left, -2
TestParameter, Output.Graph.XAxis.Right, 2
TestParameter, Output.Graph.XAxis.RunTimeAutoScale, true
TestParameter, Output.Graph.YAxis.Data, I
TestParameter, Output.Graph.YAxis.Scale, Linear
TestParameter, Output.Graph.YAxis.Bottom, -0.1
TestParameter, Output.Graph.YAxis.Top, 0.1
TestParameter, Output.Graph.YAxis.Group, 
TestParameter, Output.Graph.YAxis.RunTimeAutoScale, true
TestParameter, AutoAnalysis.Interpolation, false
TestParameter, AutoAnalysis.Var2StepCount, 1
TestParameter, AutoAnalysis.Var2StepScript, 
TestParameter, AutoAnalysis.Line1.Enabled, false
TestParameter, AutoAnalysis.Line1.Type, 1
TestParameter, AutoAnalysis.Line1.Fix, True
TestParameter, AutoAnalysis.Line1.YAxis, 0
TestParameter, AutoAnalysis.Line1.Point1.Type, 0
TestParameter, AutoAnalysis.Line1.Point1.XY.X, 
TestParameter, AutoAnalysis.Line1.Point1.XY.Y, 
TestParameter, AutoAnalysis.Line1.Point1.Data.Var, 
TestParameter, AutoAnalysis.Line1.Point1.Data.Condition, 
TestParameter, AutoAnalysis.Line1.Point1.Data.Start, false
TestParameter, AutoAnalysis.Line1.Point1.Data.StartVar, 
TestParameter, AutoAnalysis.Line1.Point1.Data.StartCondition, 
TestParameter, AutoAnalysis.Line1.Point2.Type, 0
TestParameter, AutoAnalysis.Line1.Point2.XY.X, 
TestParameter, AutoAnalysis.Line1.Point2.XY.Y, 
TestParameter, AutoAnalysis.Line1.Point2.Data.Var, 
TestParameter, AutoAnalysis.Line1.Point2.Data.Condition, 
TestParameter, AutoAnalysis.Line1.Point2.Data.Start, false
TestParameter, AutoAnalysis.Line1.Point2.Data.StartVar, 
TestParameter, AutoAnalysis.Line1.Point2.Data.StartCondition, 
TestParameter, AutoAnalysis.Line1.GradientExpr, 0
TestParameter, AutoAnalysis.Line2.Enabled, false
TestParameter, AutoAnalysis.Line2.Type, 1
TestParameter, AutoAnalysis.Line2.Fix, True
TestParameter, AutoAnalysis.Line2.YAxis, 0
TestParameter, AutoAnalysis.Line2.Point1.Type, 0
TestParameter, AutoAnalysis.Line2.Point1.XY.X, 
TestParameter, AutoAnalysis.Line2.Point1.XY.Y, 
TestParameter, AutoAnalysis.Line2.Point1.Data.Var, 
TestParameter, AutoAnalysis.Line2.Point1.Data.Condition, 
TestParameter, AutoAnalysis.Line2.Point1.Data.Start, false
TestParameter, AutoAnalysis.Line2.Point1.Data.StartVar, 
TestParameter, AutoAnalysis.Line2.Point1.Data.StartCondition, 
TestParameter, AutoAnalysis.Line2.Point2.Type, 0
TestParameter, AutoAnalysis.Line2.Point2.XY.X, 
TestParameter, AutoAnalysis.Line2.Point2.XY.Y, 
TestParameter, AutoAnalysis.Line2.Point2.Data.Var, 
TestParameter, AutoAnalysis.Line2.Point2.Data.Condition, 
TestParameter, AutoAnalysis.Line2.Point2.Data.Start, false
TestParameter, AutoAnalysis.Line2.Point2.Data.StartVar, 
TestParameter, AutoAnalysis.Line2.Point2.Data.StartCondition, 
TestParameter, AutoAnalysis.Line2.GradientExpr, 0
TestParameter, AutoAnalysis.Marker.Enabled, false
TestParameter, AutoAnalysis.Marker.Data.Var, 
TestParameter, AutoAnalysis.Marker.Data.Condition, 
TestParameter, AutoAnalysis.Marker.Data.Start, false
TestParameter, AutoAnalysis.Marker.Data.StartVar, 
TestParameter, AutoAnalysis.Marker.Data.StartCondition, 
MetaData, TestRecord.EntryPoint, true
MetaData, TestRecord.RecordTime, 10/19/2022 16:14:34
MetaData, TestRecord.TestTarget, 
MetaData, TestRecord.IterationIndex, 159
MetaData, TestRecord.Preservation, true
MetaData, TestRecord.Flag, 
MetaData, TestRecord.Remarks, 
MetaData, TestRecord.LinkKey, af9cf530-4d60-43bc-83e9-dd31bd732730
MetaData, TestRecord.Parameters, 
Dimension1, 101, 101
Dimension2, 1, 1
DataName, V, I
DataValue, -2, -0.001047
DataValue, -1.9600000000000002, -0.00065058
DataValue, -1.9200000000000002, -0.00052774000000000007
DataValue, -1.8800000000000001, -0.00044778000000000005
DataValue, -1.84, -0.00038748000000000005
DataValue, -1.8, -0.00034474
DataValue, -1.76, -0.00030176000000000004
DataValue, -1.72, -0.00026558
DataValue, -1.6800000000000002, -0.00023716
DataValue, -1.6400000000000001, -0.00020706
DataValue, -1.6, -0.00018642000000000002
DataValue, -1.56, -0.000161
DataValue, -1.52, -0.00013852
DataValue, -1.48, -0.00012040000000000001
DataValue, -1.4400000000000002, -0.0001026
DataValue, -1.4000000000000001, -9.924200000000001E-05
DataValue, -1.36, -8.1634E-05
DataValue, -1.32, -6.6958E-05
DataValue, -1.28, -5.5654E-05
DataValue, -1.24, -4.4846000000000004E-05
DataValue, -1.2, -3.5864E-05
DataValue, -1.1600000000000001, -2.8878E-05
DataValue, -1.12, -2.2336E-05
DataValue, -1.08, -1.6882000000000002E-05
DataValue, -1.04, -1.2888000000000001E-05
DataValue, -1, -1.0407E-05
DataValue, -0.96000000000000008, -7.5307000000000006E-06
DataValue, -0.92, -5.3243000000000008E-06
DataValue, -0.88, -3.4897000000000002E-06
DataValue, -0.84000000000000008, -2.2486000000000004E-06
DataValue, -0.8, -1.5830000000000001E-06
DataValue, -0.76, -1.0867000000000001E-06
DataValue, -0.72000000000000008, -9.7102E-07
DataValue, -0.68, -8.4258E-07
DataValue, -0.64, -6.8632E-07
DataValue, -0.6, -6.0224E-07
DataValue, -0.56, -5.5354E-07
DataValue, -0.52, -5.4098E-07
DataValue, -0.48000000000000004, -4.6847999999999997E-07
DataValue, -0.44, -3.4864E-07
DataValue, -0.4, -3.0632E-07
DataValue, -0.36000000000000004, -2.3678E-07
DataValue, -0.32, -2.8656E-07
DataValue, -0.28, -2.924E-07
DataValue, -0.24000000000000002, -3.689E-07
DataValue, -0.2, -3.9461999999999997E-07
DataValue, -0.16, -4.3196E-07
DataValue, -0.12000000000000001, -3.4786E-07
DataValue, -0.08, -3.9237999999999997E-07
DataValue, -0.04, -2.6837999999999997E-07
DataValue, 0, -2.4202E-07
DataValue, 0.04, -1.634E-07
DataValue, 0.08, -2.74E-07
DataValue, 0.12000000000000001, -3.14E-07
DataValue, 0.16, -3.2254E-07
DataValue, 0.2, -3.4696E-07
DataValue, 0.24000000000000002, -1.576E-07
DataValue, 0.28, 2.5116E-07
DataValue, 0.32, 1.3311E-06
DataValue, 0.36000000000000004, 3.9047E-06
DataValue, 0.4, 6.9725000000000006E-06
DataValue, 0.44, 8.8291000000000016E-06
DataValue, 0.48000000000000004, 1.0752E-05
DataValue, 0.52, 1.3632000000000001E-05
DataValue, 0.56, 1.6986E-05
DataValue, 0.6, 2.2262E-05
DataValue, 0.64, 3.0342000000000002E-05
DataValue, 0.68, 4.339E-05
DataValue, 0.72000000000000008, 6.3778E-05
DataValue, 0.76, 9.2524E-05
DataValue, 0.8, 0.00013012
DataValue, 0.84000000000000008, 0.00017576
DataValue, 0.88, 0.00022712
DataValue, 0.92, 0.000284
DataValue, 0.96000000000000008, 0.00034516
DataValue, 1, 0.00041058
DataValue, 1.04, 0.00048044000000000006
DataValue, 1.08, 0.00055424
DataValue, 1.12, 0.00063182000000000006
DataValue, 1.1600000000000001, 0.00071478
DataValue, 1.2, 0.00080262000000000009
DataValue, 1.24, 0.00089588
DataValue, 1.28, 0.00099476000000000013
DataValue, 1.32, 0.00110238
DataValue, 1.36, 0.001246
DataValue, 1.4000000000000001, 0.0013582
DataValue, 1.4400000000000002, 0.0014726000000000001
DataValue, 1.48, 0.0015970000000000001
DataValue, 1.52, 0.001747
DataValue, 1.56, 0.0019924
DataValue, 1.6, 0.0021764
DataValue, 1.6400000000000001, 0.0024478
DataValue, 1.6800000000000002, 0.0027594
DataValue, 1.72, 0.0030442
DataValue, 1.76, 0.0033402
DataValue, 1.8, 0.0036396
DataValue, 1.84, 0.0039422
DataValue, 1.8800000000000001, 0.0042576
DataValue, 1.9200000000000002, 0.0045716
DataValue, 1.9600000000000002, 0.0048964
DataValue, 2, 0.0052186