
SetupTitle, I/V Sweep
PrimitiveTest, I/V Sweep
TestParameter, Context.MainFrame, B1500A
TestParameter, Channel.UnitType, SMU, SMU, SMU, SMU
TestParameter, Channel.Unit, SMU1:HP, SMU2:MP, SMU3:MP, SMU4:MP
TestParameter, Channel.IName, I, IDD1, IDD2, II
TestParameter, Channel.VName, V, VDD1, VDD2, VV
TestParameter, Channel.Mode, V, V, V, V
TestParameter, Channel.Func, VAR1, CONST, CONST, CONST
TestParameter, Channel.Index, 
TestParameter, Channel.Time, 
TestParameter, Measurement.Port.Unit, SMU1:HP, SMU2:MP, SMU3:MP, SMU4:MP
TestParameter, Measurement.Port.SeriesResistor, NONE, NONE, NONE, NONE
TestParameter, Measurement.Port.Filter, ON, ON, ON, ON
TestParameter, Measurement.Port.OutputVoltageComparison, 0, 0, 0, 0
TestParameter, Measurement.Primary.Locus, Single
TestParameter, Measurement.Primary.Scale, LINEAR
TestParameter, Measurement.Primary.Start, -2
TestParameter, Measurement.Primary.Stop, 2
TestParameter, Measurement.Primary.Step, 0.04
TestParameter, Measurement.Primary.Compliance, 0.1
TestParameter, Measurement.Primary.PowerCompliance, 0
TestParameter, Measurement.Aborting.Condition, CONTINUE AT ANY
TestParameter, Measurement.PostOutput.Value, START
TestParameter, Measurement.PostOutput.Retention, OFF
TestParameter, Measurement.Bias.Source, -2, 1.8, 1.1, 0
TestParameter, Measurement.Bias.Compliance, 0.1, 0.1, 0.1, 0.1
TestParameter, Measurement.Monitor.Unit, SMU1:HP, SMU2:MP, SMU3:MP, SMU4:MP
TestParameter, Measurement.Monitor.Adc, HR ADC, HR ADC, HR ADC, HR ADC
TestParameter, Measurement.Monitor.Measurement, Compliance Side, Compliance Side, Compliance Side, Compliance Side
TestParameter, Measurement.Monitor.RangingMode, LIMITED, LIMITED, LIMITED, LIMITED
TestParameter, Measurement.Monitor.RangeBoundary, 1nA, 1nA, 1nA, 1nA
TestParameter, Measurement.Monitor.RangeRating, BY FULL RANGE, BY FULL RANGE, BY FULL RANGE, BY FULL RANGE
TestParameter, Measurement.Monitor.RangeRatingCoeff, 50, 50, 50, 50
TestParameter, Measurement.Timing.Hold, 0
TestParameter, Measurement.Timing.Delay, 0
TestParameter, Measurement.Adc.HighSpeed.Mode, AUTO
TestParameter, Measurement.Adc.HighSpeed.Coeff, 1
TestParameter, Measurement.Adc.HighResolution.AutoZero, OFF
TestParameter, Measurement.Adc.HighResolution.Mode, AUTO
TestParameter, Measurement.Adc.HighResolution.Coeff, 6
TestParameter, Measurement.WaitTime.Source.Coeff, 1
TestParameter, Measurement.WaitTime.Source.Offset, 0
TestParameter, Measurement.WaitTime.Monitor.Coeff, 1
TestParameter, Measurement.WaitTime.Monitor.Offset, 0
TestParameter, Output.Graph.Enabled, true
TestParameter, Output.Graph.AutoScaling, false
TestParameter, Output.Graph.XAxis.Data, V
TestParameter, Output.Graph.XAxis.Scale, Linear
TestParameter, Output.Graph.XAxis.Left, -2
TestParameter, Output.Graph.XAxis.Right, 2
TestParameter, Output.Graph.XAxis.RunTimeAutoScale, true
TestParameter, Output.Graph.YAxis.Data, I
TestParameter, Output.Graph.YAxis.Scale, Linear
TestParameter, Output.Graph.YAxis.Bottom, -0.1
TestParameter, Output.Graph.YAxis.Top, 0.1
TestParameter, Output.Graph.YAxis.Group, 
TestParameter, Output.Graph.YAxis.RunTimeAutoScale, true
TestParameter, AutoAnalysis.Interpolation, false
TestParameter, AutoAnalysis.Var2StepCount, 1
TestParameter, AutoAnalysis.Var2StepScript, 
TestParameter, AutoAnalysis.Line1.Enabled, false
TestParameter, AutoAnalysis.Line1.Type, 1
TestParameter, AutoAnalysis.Line1.Fix, True
TestParameter, AutoAnalysis.Line1.YAxis, 0
TestParameter, AutoAnalysis.Line1.Point1.Type, 0
TestParameter, AutoAnalysis.Line1.Point1.XY.X, 
TestParameter, AutoAnalysis.Line1.Point1.XY.Y, 
TestParameter, AutoAnalysis.Line1.Point1.Data.Var, 
TestParameter, AutoAnalysis.Line1.Point1.Data.Condition, 
TestParameter, AutoAnalysis.Line1.Point1.Data.Start, false
TestParameter, AutoAnalysis.Line1.Point1.Data.StartVar, 
TestParameter, AutoAnalysis.Line1.Point1.Data.StartCondition, 
TestParameter, AutoAnalysis.Line1.Point2.Type, 0
TestParameter, AutoAnalysis.Line1.Point2.XY.X, 
TestParameter, AutoAnalysis.Line1.Point2.XY.Y, 
TestParameter, AutoAnalysis.Line1.Point2.Data.Var, 
TestParameter, AutoAnalysis.Line1.Point2.Data.Condition, 
TestParameter, AutoAnalysis.Line1.Point2.Data.Start, false
TestParameter, AutoAnalysis.Line1.Point2.Data.StartVar, 
TestParameter, AutoAnalysis.Line1.Point2.Data.StartCondition, 
TestParameter, AutoAnalysis.Line1.GradientExpr, 0
TestParameter, AutoAnalysis.Line2.Enabled, false
TestParameter, AutoAnalysis.Line2.Type, 1
TestParameter, AutoAnalysis.Line2.Fix, True
TestParameter, AutoAnalysis.Line2.YAxis, 0
TestParameter, AutoAnalysis.Line2.Point1.Type, 0
TestParameter, AutoAnalysis.Line2.Point1.XY.X, 
TestParameter, AutoAnalysis.Line2.Point1.XY.Y, 
TestParameter, AutoAnalysis.Line2.Point1.Data.Var, 
TestParameter, AutoAnalysis.Line2.Point1.Data.Condition, 
TestParameter, AutoAnalysis.Line2.Point1.Data.Start, false
TestParameter, AutoAnalysis.Line2.Point1.Data.StartVar, 
TestParameter, AutoAnalysis.Line2.Point1.Data.StartCondition, 
TestParameter, AutoAnalysis.Line2.Point2.Type, 0
TestParameter, AutoAnalysis.Line2.Point2.XY.X, 
TestParameter, AutoAnalysis.Line2.Point2.XY.Y, 
TestParameter, AutoAnalysis.Line2.Point2.Data.Var, 
TestParameter, AutoAnalysis.Line2.Point2.Data.Condition, 
TestParameter, AutoAnalysis.Line2.Point2.Data.Start, false
TestParameter, AutoAnalysis.Line2.Point2.Data.StartVar, 
TestParameter, AutoAnalysis.Line2.Point2.Data.StartCondition, 
TestParameter, AutoAnalysis.Line2.GradientExpr, 0
TestParameter, AutoAnalysis.Marker.Enabled, false
TestParameter, AutoAnalysis.Marker.Data.Var, 
TestParameter, AutoAnalysis.Marker.Data.Condition, 
TestParameter, AutoAnalysis.Marker.Data.Start, false
TestParameter, AutoAnalysis.Marker.Data.StartVar, 
TestParameter, AutoAnalysis.Marker.Data.StartCondition, 
MetaData, TestRecord.EntryPoint, true
MetaData, TestRecord.RecordTime, 10/19/2022 16:13:26
MetaData, TestRecord.TestTarget, 
MetaData, TestRecord.IterationIndex, 156
MetaData, TestRecord.Preservation, true
MetaData, TestRecord.Flag, 
MetaData, TestRecord.Remarks, 
MetaData, TestRecord.LinkKey, ea5a7040-0774-45a2-b07f-2fcebe1cebaf
MetaData, TestRecord.Parameters, 
Dimension1, 101, 101
Dimension2, 1, 1
DataName, V, I
DataValue, -2, -0.056428000000000006
DataValue, -1.9600000000000002, -0.057388000000000008
DataValue, -1.9200000000000002, -0.054268000000000004
DataValue, -1.8800000000000001, -0.053030000000000008
DataValue, -1.84, -0.05138
DataValue, -1.8, -0.051240000000000008
DataValue, -1.76, -0.049690000000000005
DataValue, -1.72, -0.047224
DataValue, -1.6800000000000002, -0.045848000000000007
DataValue, -1.6400000000000001, -0.042742
DataValue, -1.6, -0.040670000000000005
DataValue, -1.56, -0.039594000000000004
DataValue, -1.52, -0.036968
DataValue, -1.48, -0.035252000000000006
DataValue, -1.4400000000000002, -0.034682000000000004
DataValue, -1.4000000000000001, -0.032330000000000005
DataValue, -1.36, -0.030464
DataValue, -1.32, -0.027450000000000002
DataValue, -1.28, -0.026202000000000003
DataValue, -1.24, -0.023696000000000002
DataValue, -1.2, -0.023972000000000004
DataValue, -1.1600000000000001, -0.02244
DataValue, -1.12, -0.021294
DataValue, -1.08, -0.021036000000000003
DataValue, -1.04, -0.020228000000000003
DataValue, -1, -0.019022
DataValue, -0.96000000000000008, -0.017262000000000003
DataValue, -0.92, -0.015918
DataValue, -0.88, -0.013614000000000001
DataValue, -0.84000000000000008, -0.012694
DataValue, -0.8, -0.01114
DataValue, -0.76, -0.010356
DataValue, -0.72000000000000008, -0.009314
DataValue, -0.68, -0.0087544
DataValue, -0.64, -0.0079552
DataValue, -0.6, -0.007932
DataValue, -0.56, -0.0073458
DataValue, -0.52, -0.0066444
DataValue, -0.48000000000000004, -0.0066496
DataValue, -0.44, -0.0063956
DataValue, -0.4, -0.0058938
DataValue, -0.36000000000000004, -0.005481
DataValue, -0.32, -0.0048464
DataValue, -0.28, -0.0042724
DataValue, -0.24000000000000002, -0.0039436
DataValue, -0.2, -0.0036126
DataValue, -0.16, -0.0032962
DataValue, -0.12000000000000001, -0.0029856
DataValue, -0.08, -0.002669
DataValue, -0.04, -0.0020708000000000002
DataValue, 0, -0.001721
DataValue, 0.04, -0.0013818
DataValue, 0.08, -0.0010766
DataValue, 0.12000000000000001, -0.00084216
DataValue, 0.16, -0.00066374
DataValue, 0.2, -0.00051704000000000008
DataValue, 0.24000000000000002, -0.00038774
DataValue, 0.28, -0.00027330000000000003
DataValue, 0.32, -0.00017272
DataValue, 0.36000000000000004, -9.4050000000000009E-05
DataValue, 0.4, -4.1724E-05
DataValue, 0.44, -1.4156000000000001E-05
DataValue, 0.48000000000000004, -3.9888000000000007E-06
DataValue, 0.52, -9.9400000000000014E-07
DataValue, 0.56, -1.9318E-07
DataValue, 0.6, 1.3812799999999999E-08
DataValue, 0.64, 6.5358E-08
DataValue, 0.68, 3.5147E-08
DataValue, 0.72000000000000008, 4.1047199999999994E-08
DataValue, 0.76, 4.8454E-08
DataValue, 0.8, 6.11656E-08
DataValue, 0.84000000000000008, 7.88914E-08
DataValue, 0.88, 9.0557799999999985E-08
DataValue, 0.92, 2.44E-07
DataValue, 0.96000000000000008, 8.7526E-07
DataValue, 1, 3.5249000000000003E-06
DataValue, 1.04, 1.4628000000000001E-05
DataValue, 1.08, 4.7714000000000004E-05
DataValue, 1.12, 6.3980000000000007E-05
DataValue, 1.1600000000000001, 0.00012242
DataValue, 1.2, 0.00023066000000000002
DataValue, 1.24, 0.0003844
DataValue, 1.28, 0.00054828000000000006
DataValue, 1.32, 0.000709
DataValue, 1.36, 0.00093750000000000007
DataValue, 1.4000000000000001, 0.0012374
DataValue, 1.4400000000000002, 0.0016044
DataValue, 1.48, 0.0020316
DataValue, 1.52, 0.002522
DataValue, 1.56, 0.0030646000000000002
DataValue, 1.6, 0.0036578
DataValue, 1.6400000000000001, 0.0042944
DataValue, 1.6800000000000002, 0.0049644
DataValue, 1.72, 0.0056666
DataValue, 1.76, 0.0063834
DataValue, 1.8, 0.0071286000000000006
DataValue, 1.84, 0.0078964
DataValue, 1.8800000000000001, 0.0087224
DataValue, 1.9200000000000002, 0.009528
DataValue, 1.9600000000000002, 0.0103408
DataValue, 2, 0.0111034