
SetupTitle, I/V Sweep
PrimitiveTest, I/V Sweep
TestParameter, Context.MainFrame, B1500A
TestParameter, Channel.UnitType, SMU, SMU, SMU, SMU
TestParameter, Channel.Unit, SMU1:HP, SMU2:MP, SMU3:MP, SMU4:MP
TestParameter, Channel.IName, I, IDD1, IDD2, II
TestParameter, Channel.VName, V, VDD1, VDD2, VV
TestParameter, Channel.Mode, V, V, V, V
TestParameter, Channel.Func, VAR1, CONST, CONST, CONST
TestParameter, Channel.Index, 
TestParameter, Channel.Time, 
TestParameter, Measurement.Port.Unit, SMU1:HP, SMU2:MP, SMU3:MP, SMU4:MP
TestParameter, Measurement.Port.SeriesResistor, NONE, NONE, NONE, NONE
TestParameter, Measurement.Port.Filter, ON, ON, ON, ON
TestParameter, Measurement.Port.OutputVoltageComparison, 0, 0, 0, 0
TestParameter, Measurement.Primary.Locus, Single
TestParameter, Measurement.Primary.Scale, LINEAR
TestParameter, Measurement.Primary.Start, -2
TestParameter, Measurement.Primary.Stop, 2
TestParameter, Measurement.Primary.Step, 0.04
TestParameter, Measurement.Primary.Compliance, 0.1
TestParameter, Measurement.Primary.PowerCompliance, 0
TestParameter, Measurement.Aborting.Condition, CONTINUE AT ANY
TestParameter, Measurement.PostOutput.Value, START
TestParameter, Measurement.PostOutput.Retention, OFF
TestParameter, Measurement.Bias.Source, -2, 1.8, 1.1, 0
TestParameter, Measurement.Bias.Compliance, 0.1, 0.1, 0.1, 0.1
TestParameter, Measurement.Monitor.Unit, SMU1:HP, SMU2:MP, SMU3:MP, SMU4:MP
TestParameter, Measurement.Monitor.Adc, HR ADC, HR ADC, HR ADC, HR ADC
TestParameter, Measurement.Monitor.Measurement, Compliance Side, Compliance Side, Compliance Side, Compliance Side
TestParameter, Measurement.Monitor.RangingMode, LIMITED, LIMITED, LIMITED, LIMITED
TestParameter, Measurement.Monitor.RangeBoundary, 1nA, 1nA, 1nA, 1nA
TestParameter, Measurement.Monitor.RangeRating, BY FULL RANGE, BY FULL RANGE, BY FULL RANGE, BY FULL RANGE
TestParameter, Measurement.Monitor.RangeRatingCoeff, 50, 50, 50, 50
TestParameter, Measurement.Timing.Hold, 0
TestParameter, Measurement.Timing.Delay, 0
TestParameter, Measurement.Adc.HighSpeed.Mode, AUTO
TestParameter, Measurement.Adc.HighSpeed.Coeff, 1
TestParameter, Measurement.Adc.HighResolution.AutoZero, OFF
TestParameter, Measurement.Adc.HighResolution.Mode, AUTO
TestParameter, Measurement.Adc.HighResolution.Coeff, 6
TestParameter, Measurement.WaitTime.Source.Coeff, 1
TestParameter, Measurement.WaitTime.Source.Offset, 0
TestParameter, Measurement.WaitTime.Monitor.Coeff, 1
TestParameter, Measurement.WaitTime.Monitor.Offset, 0
TestParameter, Output.Graph.Enabled, true
TestParameter, Output.Graph.AutoScaling, false
TestParameter, Output.Graph.XAxis.Data, V
TestParameter, Output.Graph.XAxis.Scale, Linear
TestParameter, Output.Graph.XAxis.Left, -2
TestParameter, Output.Graph.XAxis.Right, 2
TestParameter, Output.Graph.XAxis.RunTimeAutoScale, true
TestParameter, Output.Graph.YAxis.Data, I
TestParameter, Output.Graph.YAxis.Scale, Linear
TestParameter, Output.Graph.YAxis.Bottom, -0.1
TestParameter, Output.Graph.YAxis.Top, 0.1
TestParameter, Output.Graph.YAxis.Group, 
TestParameter, Output.Graph.YAxis.RunTimeAutoScale, true
TestParameter, AutoAnalysis.Interpolation, false
TestParameter, AutoAnalysis.Var2StepCount, 1
TestParameter, AutoAnalysis.Var2StepScript, 
TestParameter, AutoAnalysis.Line1.Enabled, false
TestParameter, AutoAnalysis.Line1.Type, 1
TestParameter, AutoAnalysis.Line1.Fix, True
TestParameter, AutoAnalysis.Line1.YAxis, 0
TestParameter, AutoAnalysis.Line1.Point1.Type, 0
TestParameter, AutoAnalysis.Line1.Point1.XY.X, 
TestParameter, AutoAnalysis.Line1.Point1.XY.Y, 
TestParameter, AutoAnalysis.Line1.Point1.Data.Var, 
TestParameter, AutoAnalysis.Line1.Point1.Data.Condition, 
TestParameter, AutoAnalysis.Line1.Point1.Data.Start, false
TestParameter, AutoAnalysis.Line1.Point1.Data.StartVar, 
TestParameter, AutoAnalysis.Line1.Point1.Data.StartCondition, 
TestParameter, AutoAnalysis.Line1.Point2.Type, 0
TestParameter, AutoAnalysis.Line1.Point2.XY.X, 
TestParameter, AutoAnalysis.Line1.Point2.XY.Y, 
TestParameter, AutoAnalysis.Line1.Point2.Data.Var, 
TestParameter, AutoAnalysis.Line1.Point2.Data.Condition, 
TestParameter, AutoAnalysis.Line1.Point2.Data.Start, false
TestParameter, AutoAnalysis.Line1.Point2.Data.StartVar, 
TestParameter, AutoAnalysis.Line1.Point2.Data.StartCondition, 
TestParameter, AutoAnalysis.Line1.GradientExpr, 0
TestParameter, AutoAnalysis.Line2.Enabled, false
TestParameter, AutoAnalysis.Line2.Type, 1
TestParameter, AutoAnalysis.Line2.Fix, True
TestParameter, AutoAnalysis.Line2.YAxis, 0
TestParameter, AutoAnalysis.Line2.Point1.Type, 0
TestParameter, AutoAnalysis.Line2.Point1.XY.X, 
TestParameter, AutoAnalysis.Line2.Point1.XY.Y, 
TestParameter, AutoAnalysis.Line2.Point1.Data.Var, 
TestParameter, AutoAnalysis.Line2.Point1.Data.Condition, 
TestParameter, AutoAnalysis.Line2.Point1.Data.Start, false
TestParameter, AutoAnalysis.Line2.Point1.Data.StartVar, 
TestParameter, AutoAnalysis.Line2.Point1.Data.StartCondition, 
TestParameter, AutoAnalysis.Line2.Point2.Type, 0
TestParameter, AutoAnalysis.Line2.Point2.XY.X, 
TestParameter, AutoAnalysis.Line2.Point2.XY.Y, 
TestParameter, AutoAnalysis.Line2.Point2.Data.Var, 
TestParameter, AutoAnalysis.Line2.Point2.Data.Condition, 
TestParameter, AutoAnalysis.Line2.Point2.Data.Start, false
TestParameter, AutoAnalysis.Line2.Point2.Data.StartVar, 
TestParameter, AutoAnalysis.Line2.Point2.Data.StartCondition, 
TestParameter, AutoAnalysis.Line2.GradientExpr, 0
TestParameter, AutoAnalysis.Marker.Enabled, false
TestParameter, AutoAnalysis.Marker.Data.Var, 
TestParameter, AutoAnalysis.Marker.Data.Condition, 
TestParameter, AutoAnalysis.Marker.Data.Start, false
TestParameter, AutoAnalysis.Marker.Data.StartVar, 
TestParameter, AutoAnalysis.Marker.Data.StartCondition, 
MetaData, TestRecord.EntryPoint, true
MetaData, TestRecord.RecordTime, 10/19/2022 16:06:32
MetaData, TestRecord.TestTarget, 
MetaData, TestRecord.IterationIndex, 135
MetaData, TestRecord.Preservation, true
MetaData, TestRecord.Flag, 
MetaData, TestRecord.Remarks, 
MetaData, TestRecord.LinkKey, ffbabd8e-9056-40df-bfbc-1e0e8845e790
MetaData, TestRecord.Parameters, 
Dimension1, 101, 101
Dimension2, 1, 1
DataName, V, I
DataValue, -2, -0.034398000000000005
DataValue, -1.9600000000000002, -0.033912000000000005
DataValue, -1.9200000000000002, -0.03341
DataValue, -1.8800000000000001, -0.03296
DataValue, -1.84, -0.032478
DataValue, -1.8, -0.032072
DataValue, -1.76, -0.03189
DataValue, -1.72, -0.031422000000000005
DataValue, -1.6800000000000002, -0.030936
DataValue, -1.6400000000000001, -0.030428000000000004
DataValue, -1.6, -0.029978
DataValue, -1.56, -0.029476000000000002
DataValue, -1.52, -0.028978000000000004
DataValue, -1.48, -0.028478000000000003
DataValue, -1.4400000000000002, -0.028006000000000003
DataValue, -1.4000000000000001, -0.027504
DataValue, -1.36, -0.026956
DataValue, -1.32, -0.026484
DataValue, -1.28, -0.025970000000000003
DataValue, -1.24, -0.025444
DataValue, -1.2, -0.024948
DataValue, -1.1600000000000001, -0.024454000000000004
DataValue, -1.12, -0.023926000000000003
DataValue, -1.08, -0.023376
DataValue, -1.04, -0.022882000000000003
DataValue, -1, -0.02237
DataValue, -0.96000000000000008, -0.021836
DataValue, -0.92, -0.021318
DataValue, -0.88, -0.020804000000000003
DataValue, -0.84000000000000008, -0.020264
DataValue, -0.8, -0.019684
DataValue, -0.76, -0.019190000000000002
DataValue, -0.72000000000000008, -0.018654
DataValue, -0.68, -0.018136000000000003
DataValue, -0.64, -0.017588000000000003
DataValue, -0.6, -0.017074000000000002
DataValue, -0.56, -0.016550000000000002
DataValue, -0.52, -0.015968000000000003
DataValue, -0.48000000000000004, -0.015446000000000001
DataValue, -0.44, -0.014932
DataValue, -0.4, -0.014382
DataValue, -0.36000000000000004, -0.013850000000000001
DataValue, -0.32, -0.013320000000000002
DataValue, -0.28, -0.012812
DataValue, -0.24000000000000002, -0.012276
DataValue, -0.2, -0.01173
DataValue, -0.16, -0.011198000000000001
DataValue, -0.12000000000000001, -0.010668
DataValue, -0.08, -0.010156
DataValue, -0.04, -0.0096470000000000011
DataValue, 0, -0.0091172
DataValue, 0.04, -0.0085858
DataValue, 0.08, -0.0080562
DataValue, 0.12000000000000001, -0.0075604
DataValue, 0.16, -0.0070306000000000006
DataValue, 0.2, -0.0065168000000000005
DataValue, 0.24000000000000002, -0.0059844
DataValue, 0.28, -0.0054482
DataValue, 0.32, -0.0048336
DataValue, 0.36000000000000004, -0.0041768000000000005
DataValue, 0.4, -0.0035108
DataValue, 0.44, -0.00277
DataValue, 0.48000000000000004, -0.002017
DataValue, 0.52, -0.0012608
DataValue, 0.56, -0.00047890000000000004
DataValue, 0.6, 0.0002949
DataValue, 0.64, 0.00104304
DataValue, 0.68, 0.001729
DataValue, 0.72000000000000008, 0.0023516
DataValue, 0.76, 0.0029066
DataValue, 0.8, 0.0035440000000000003
DataValue, 0.84000000000000008, 0.0042532
DataValue, 0.88, 0.0050158
DataValue, 0.92, 0.005802
DataValue, 0.96000000000000008, 0.0065938
DataValue, 1, 0.0074338
DataValue, 1.04, 0.0083376
DataValue, 1.08, 0.0093022
DataValue, 1.12, 0.0103126
DataValue, 1.1600000000000001, 0.0113676
DataValue, 1.2, 0.012438000000000001
DataValue, 1.24, 0.013524000000000001
DataValue, 1.28, 0.014626000000000002
DataValue, 1.32, 0.015712
DataValue, 1.36, 0.016848000000000002
DataValue, 1.4000000000000001, 0.017944
DataValue, 1.4400000000000002, 0.019056
DataValue, 1.48, 0.020146
DataValue, 1.52, 0.021248000000000003
DataValue, 1.56, 0.022320000000000003
DataValue, 1.6, 0.023394
DataValue, 1.6400000000000001, 0.024460000000000003
DataValue, 1.6800000000000002, 0.025504000000000002
DataValue, 1.72, 0.026522000000000004
DataValue, 1.76, 0.02755
DataValue, 1.8, 0.028526000000000003
DataValue, 1.84, 0.029496
DataValue, 1.8800000000000001, 0.030448000000000003
DataValue, 1.9200000000000002, 0.031408000000000005
DataValue, 1.9600000000000002, 0.032666
DataValue, 2, 0.033578000000000004