
SetupTitle, I/V Sweep
PrimitiveTest, I/V Sweep
TestParameter, Context.MainFrame, B1500A
TestParameter, Channel.UnitType, SMU, SMU, SMU, SMU
TestParameter, Channel.Unit, SMU1:HP, SMU2:MP, SMU3:MP, SMU4:MP
TestParameter, Channel.IName, I, IDD1, IDD2, II
TestParameter, Channel.VName, V, VDD1, VDD2, VV
TestParameter, Channel.Mode, V, V, V, V
TestParameter, Channel.Func, VAR1, CONST, CONST, CONST
TestParameter, Channel.Index, 
TestParameter, Channel.Time, 
TestParameter, Measurement.Port.Unit, SMU1:HP, SMU2:MP, SMU3:MP, SMU4:MP
TestParameter, Measurement.Port.SeriesResistor, NONE, NONE, NONE, NONE
TestParameter, Measurement.Port.Filter, ON, ON, ON, ON
TestParameter, Measurement.Port.OutputVoltageComparison, 0, 0, 0, 0
TestParameter, Measurement.Primary.Locus, Single
TestParameter, Measurement.Primary.Scale, LINEAR
TestParameter, Measurement.Primary.Start, -2
TestParameter, Measurement.Primary.Stop, 2
TestParameter, Measurement.Primary.Step, 0.04
TestParameter, Measurement.Primary.Compliance, 0.1
TestParameter, Measurement.Primary.PowerCompliance, 0
TestParameter, Measurement.Aborting.Condition, CONTINUE AT ANY
TestParameter, Measurement.PostOutput.Value, START
TestParameter, Measurement.PostOutput.Retention, OFF
TestParameter, Measurement.Bias.Source, -2, 1.8, 1.1, 0
TestParameter, Measurement.Bias.Compliance, 0.1, 0.1, 0.1, 0.1
TestParameter, Measurement.Monitor.Unit, SMU1:HP, SMU2:MP, SMU3:MP, SMU4:MP
TestParameter, Measurement.Monitor.Adc, HR ADC, HR ADC, HR ADC, HR ADC
TestParameter, Measurement.Monitor.Measurement, Compliance Side, Compliance Side, Compliance Side, Compliance Side
TestParameter, Measurement.Monitor.RangingMode, LIMITED, LIMITED, LIMITED, LIMITED
TestParameter, Measurement.Monitor.RangeBoundary, 1nA, 1nA, 1nA, 1nA
TestParameter, Measurement.Monitor.RangeRating, BY FULL RANGE, BY FULL RANGE, BY FULL RANGE, BY FULL RANGE
TestParameter, Measurement.Monitor.RangeRatingCoeff, 50, 50, 50, 50
TestParameter, Measurement.Timing.Hold, 0
TestParameter, Measurement.Timing.Delay, 0
TestParameter, Measurement.Adc.HighSpeed.Mode, AUTO
TestParameter, Measurement.Adc.HighSpeed.Coeff, 1
TestParameter, Measurement.Adc.HighResolution.AutoZero, OFF
TestParameter, Measurement.Adc.HighResolution.Mode, AUTO
TestParameter, Measurement.Adc.HighResolution.Coeff, 6
TestParameter, Measurement.WaitTime.Source.Coeff, 1
TestParameter, Measurement.WaitTime.Source.Offset, 0
TestParameter, Measurement.WaitTime.Monitor.Coeff, 1
TestParameter, Measurement.WaitTime.Monitor.Offset, 0
TestParameter, Output.Graph.Enabled, true
TestParameter, Output.Graph.AutoScaling, false
TestParameter, Output.Graph.XAxis.Data, V
TestParameter, Output.Graph.XAxis.Scale, Linear
TestParameter, Output.Graph.XAxis.Left, -2
TestParameter, Output.Graph.XAxis.Right, 2
TestParameter, Output.Graph.XAxis.RunTimeAutoScale, true
TestParameter, Output.Graph.YAxis.Data, I
TestParameter, Output.Graph.YAxis.Scale, Linear
TestParameter, Output.Graph.YAxis.Bottom, -0.1
TestParameter, Output.Graph.YAxis.Top, 0.1
TestParameter, Output.Graph.YAxis.Group, 
TestParameter, Output.Graph.YAxis.RunTimeAutoScale, true
TestParameter, AutoAnalysis.Interpolation, false
TestParameter, AutoAnalysis.Var2StepCount, 1
TestParameter, AutoAnalysis.Var2StepScript, 
TestParameter, AutoAnalysis.Line1.Enabled, false
TestParameter, AutoAnalysis.Line1.Type, 1
TestParameter, AutoAnalysis.Line1.Fix, True
TestParameter, AutoAnalysis.Line1.YAxis, 0
TestParameter, AutoAnalysis.Line1.Point1.Type, 0
TestParameter, AutoAnalysis.Line1.Point1.XY.X, 
TestParameter, AutoAnalysis.Line1.Point1.XY.Y, 
TestParameter, AutoAnalysis.Line1.Point1.Data.Var, 
TestParameter, AutoAnalysis.Line1.Point1.Data.Condition, 
TestParameter, AutoAnalysis.Line1.Point1.Data.Start, false
TestParameter, AutoAnalysis.Line1.Point1.Data.StartVar, 
TestParameter, AutoAnalysis.Line1.Point1.Data.StartCondition, 
TestParameter, AutoAnalysis.Line1.Point2.Type, 0
TestParameter, AutoAnalysis.Line1.Point2.XY.X, 
TestParameter, AutoAnalysis.Line1.Point2.XY.Y, 
TestParameter, AutoAnalysis.Line1.Point2.Data.Var, 
TestParameter, AutoAnalysis.Line1.Point2.Data.Condition, 
TestParameter, AutoAnalysis.Line1.Point2.Data.Start, false
TestParameter, AutoAnalysis.Line1.Point2.Data.StartVar, 
TestParameter, AutoAnalysis.Line1.Point2.Data.StartCondition, 
TestParameter, AutoAnalysis.Line1.GradientExpr, 0
TestParameter, AutoAnalysis.Line2.Enabled, false
TestParameter, AutoAnalysis.Line2.Type, 1
TestParameter, AutoAnalysis.Line2.Fix, True
TestParameter, AutoAnalysis.Line2.YAxis, 0
TestParameter, AutoAnalysis.Line2.Point1.Type, 0
TestParameter, AutoAnalysis.Line2.Point1.XY.X, 
TestParameter, AutoAnalysis.Line2.Point1.XY.Y, 
TestParameter, AutoAnalysis.Line2.Point1.Data.Var, 
TestParameter, AutoAnalysis.Line2.Point1.Data.Condition, 
TestParameter, AutoAnalysis.Line2.Point1.Data.Start, false
TestParameter, AutoAnalysis.Line2.Point1.Data.StartVar, 
TestParameter, AutoAnalysis.Line2.Point1.Data.StartCondition, 
TestParameter, AutoAnalysis.Line2.Point2.Type, 0
TestParameter, AutoAnalysis.Line2.Point2.XY.X, 
TestParameter, AutoAnalysis.Line2.Point2.XY.Y, 
TestParameter, AutoAnalysis.Line2.Point2.Data.Var, 
TestParameter, AutoAnalysis.Line2.Point2.Data.Condition, 
TestParameter, AutoAnalysis.Line2.Point2.Data.Start, false
TestParameter, AutoAnalysis.Line2.Point2.Data.StartVar, 
TestParameter, AutoAnalysis.Line2.Point2.Data.StartCondition, 
TestParameter, AutoAnalysis.Line2.GradientExpr, 0
TestParameter, AutoAnalysis.Marker.Enabled, false
TestParameter, AutoAnalysis.Marker.Data.Var, 
TestParameter, AutoAnalysis.Marker.Data.Condition, 
TestParameter, AutoAnalysis.Marker.Data.Start, false
TestParameter, AutoAnalysis.Marker.Data.StartVar, 
TestParameter, AutoAnalysis.Marker.Data.StartCondition, 
MetaData, TestRecord.EntryPoint, true
MetaData, TestRecord.RecordTime, 10/19/2022 16:04:12
MetaData, TestRecord.TestTarget, 
MetaData, TestRecord.IterationIndex, 132
MetaData, TestRecord.Preservation, true
MetaData, TestRecord.Flag, 
MetaData, TestRecord.Remarks, 
MetaData, TestRecord.LinkKey, fb0a569d-732a-43ea-b7ed-73cb8a861f6c
MetaData, TestRecord.Parameters, 
Dimension1, 101, 101
Dimension2, 1, 1
DataName, V, I
DataValue, -2, -0.042800000000000005
DataValue, -1.9600000000000002, -0.042244000000000004
DataValue, -1.9200000000000002, -0.041592000000000004
DataValue, -1.8800000000000001, -0.041134000000000004
DataValue, -1.84, -0.040302000000000004
DataValue, -1.8, -0.039574000000000005
DataValue, -1.76, -0.038544
DataValue, -1.72, -0.037820000000000006
DataValue, -1.6800000000000002, -0.03715
DataValue, -1.6400000000000001, -0.036520000000000004
DataValue, -1.6, -0.035874
DataValue, -1.56, -0.035218000000000006
DataValue, -1.52, -0.034574
DataValue, -1.48, -0.033906000000000006
DataValue, -1.4400000000000002, -0.033272
DataValue, -1.4000000000000001, -0.032604
DataValue, -1.36, -0.031900000000000005
DataValue, -1.32, -0.031204000000000003
DataValue, -1.28, -0.030558000000000002
DataValue, -1.24, -0.029854000000000002
DataValue, -1.2, -0.029138000000000004
DataValue, -1.1600000000000001, -0.028434
DataValue, -1.12, -0.027746000000000003
DataValue, -1.08, -0.027046000000000004
DataValue, -1.04, -0.026326000000000002
DataValue, -1, -0.025626000000000003
DataValue, -0.96000000000000008, -0.024938000000000002
DataValue, -0.92, -0.024246000000000004
DataValue, -0.88, -0.023540000000000002
DataValue, -0.84000000000000008, -0.022832
DataValue, -0.8, -0.022140000000000003
DataValue, -0.76, -0.021448000000000002
DataValue, -0.72000000000000008, -0.020692000000000002
DataValue, -0.68, -0.020020000000000003
DataValue, -0.64, -0.019336000000000002
DataValue, -0.6, -0.018642000000000002
DataValue, -0.56, -0.017944
DataValue, -0.52, -0.017224000000000003
DataValue, -0.48000000000000004, -0.016536000000000002
DataValue, -0.44, -0.015752000000000002
DataValue, -0.4, -0.015078000000000001
DataValue, -0.36000000000000004, -0.014418000000000002
DataValue, -0.32, -0.013752
DataValue, -0.28, -0.013088
DataValue, -0.24000000000000002, -0.012392
DataValue, -0.2, -0.011742
DataValue, -0.16, -0.011096000000000002
DataValue, -0.12000000000000001, -0.010452000000000001
DataValue, -0.08, -0.0098134
DataValue, -0.04, -0.0091586
DataValue, 0, -0.0084106
DataValue, 0.04, -0.0077236
DataValue, 0.08, -0.0070114
DataValue, 0.12000000000000001, -0.0062676
DataValue, 0.16, -0.005455
DataValue, 0.2, -0.0046646000000000005
DataValue, 0.24000000000000002, -0.0038688
DataValue, 0.28, -0.003101
DataValue, 0.32, -0.0023736
DataValue, 0.36000000000000004, -0.0017106
DataValue, 0.4, -0.0011344
DataValue, 0.44, -0.00064542000000000006
DataValue, 0.48000000000000004, -0.00028060000000000004
DataValue, 0.52, -1.723E-05
DataValue, 0.56, 0.00019600000000000002
DataValue, 0.6, 0.00046780000000000004
DataValue, 0.64, 0.00095032
DataValue, 0.68, 0.001632
DataValue, 0.72000000000000008, 0.0024434
DataValue, 0.76, 0.0033092
DataValue, 0.8, 0.0041712
DataValue, 0.84000000000000008, 0.0050726
DataValue, 0.88, 0.0059664
DataValue, 0.92, 0.0068390000000000005
DataValue, 0.96000000000000008, 0.0078204
DataValue, 1, 0.008825
DataValue, 1.04, 0.0098542
DataValue, 1.08, 0.0109204
DataValue, 1.12, 0.012066
DataValue, 1.1600000000000001, 0.013292000000000002
DataValue, 1.2, 0.014600000000000002
DataValue, 1.24, 0.015952
DataValue, 1.28, 0.01735
DataValue, 1.32, 0.018796
DataValue, 1.36, 0.020248000000000002
DataValue, 1.4000000000000001, 0.021714
DataValue, 1.4400000000000002, 0.023198000000000003
DataValue, 1.48, 0.024708
DataValue, 1.52, 0.026206000000000004
DataValue, 1.56, 0.027722000000000004
DataValue, 1.6, 0.029226000000000002
DataValue, 1.6400000000000001, 0.030722000000000003
DataValue, 1.6800000000000002, 0.032220000000000006
DataValue, 1.72, 0.03372
DataValue, 1.76, 0.03522
DataValue, 1.8, 0.036710000000000007
DataValue, 1.84, 0.038178000000000004
DataValue, 1.8800000000000001, 0.03968
DataValue, 1.9200000000000002, 0.04118
DataValue, 1.9600000000000002, 0.042652
DataValue, 2, 0.044204000000000007