
SetupTitle, I/V Sweep
PrimitiveTest, I/V Sweep
TestParameter, Context.MainFrame, B1500A
TestParameter, Channel.UnitType, SMU, SMU, SMU, SMU
TestParameter, Channel.Unit, SMU1:HP, SMU2:MP, SMU3:MP, SMU4:MP
TestParameter, Channel.IName, I, IDD1, IDD2, II
TestParameter, Channel.VName, V, VDD1, VDD2, VV
TestParameter, Channel.Mode, V, V, V, V
TestParameter, Channel.Func, VAR1, CONST, CONST, CONST
TestParameter, Channel.Index, 
TestParameter, Channel.Time, 
TestParameter, Measurement.Port.Unit, SMU1:HP, SMU2:MP, SMU3:MP, SMU4:MP
TestParameter, Measurement.Port.SeriesResistor, NONE, NONE, NONE, NONE
TestParameter, Measurement.Port.Filter, ON, ON, ON, ON
TestParameter, Measurement.Port.OutputVoltageComparison, 0, 0, 0, 0
TestParameter, Measurement.Primary.Locus, Single
TestParameter, Measurement.Primary.Scale, LINEAR
TestParameter, Measurement.Primary.Start, -2
TestParameter, Measurement.Primary.Stop, 2
TestParameter, Measurement.Primary.Step, 0.04
TestParameter, Measurement.Primary.Compliance, 0.1
TestParameter, Measurement.Primary.PowerCompliance, 0
TestParameter, Measurement.Aborting.Condition, CONTINUE AT ANY
TestParameter, Measurement.PostOutput.Value, START
TestParameter, Measurement.PostOutput.Retention, OFF
TestParameter, Measurement.Bias.Source, -2, 1.8, 1.1, 0
TestParameter, Measurement.Bias.Compliance, 0.1, 0.1, 0.1, 0.1
TestParameter, Measurement.Monitor.Unit, SMU1:HP, SMU2:MP, SMU3:MP, SMU4:MP
TestParameter, Measurement.Monitor.Adc, HR ADC, HR ADC, HR ADC, HR ADC
TestParameter, Measurement.Monitor.Measurement, Compliance Side, Compliance Side, Compliance Side, Compliance Side
TestParameter, Measurement.Monitor.RangingMode, LIMITED, LIMITED, LIMITED, LIMITED
TestParameter, Measurement.Monitor.RangeBoundary, 1nA, 1nA, 1nA, 1nA
TestParameter, Measurement.Monitor.RangeRating, BY FULL RANGE, BY FULL RANGE, BY FULL RANGE, BY FULL RANGE
TestParameter, Measurement.Monitor.RangeRatingCoeff, 50, 50, 50, 50
TestParameter, Measurement.Timing.Hold, 0
TestParameter, Measurement.Timing.Delay, 0
TestParameter, Measurement.Adc.HighSpeed.Mode, AUTO
TestParameter, Measurement.Adc.HighSpeed.Coeff, 1
TestParameter, Measurement.Adc.HighResolution.AutoZero, OFF
TestParameter, Measurement.Adc.HighResolution.Mode, AUTO
TestParameter, Measurement.Adc.HighResolution.Coeff, 6
TestParameter, Measurement.WaitTime.Source.Coeff, 1
TestParameter, Measurement.WaitTime.Source.Offset, 0
TestParameter, Measurement.WaitTime.Monitor.Coeff, 1
TestParameter, Measurement.WaitTime.Monitor.Offset, 0
TestParameter, Output.Graph.Enabled, true
TestParameter, Output.Graph.AutoScaling, false
TestParameter, Output.Graph.XAxis.Data, V
TestParameter, Output.Graph.XAxis.Scale, Linear
TestParameter, Output.Graph.XAxis.Left, -2
TestParameter, Output.Graph.XAxis.Right, 2
TestParameter, Output.Graph.XAxis.RunTimeAutoScale, true
TestParameter, Output.Graph.YAxis.Data, I
TestParameter, Output.Graph.YAxis.Scale, Linear
TestParameter, Output.Graph.YAxis.Bottom, -0.1
TestParameter, Output.Graph.YAxis.Top, 0.1
TestParameter, Output.Graph.YAxis.Group, 
TestParameter, Output.Graph.YAxis.RunTimeAutoScale, true
TestParameter, AutoAnalysis.Interpolation, false
TestParameter, AutoAnalysis.Var2StepCount, 1
TestParameter, AutoAnalysis.Var2StepScript, 
TestParameter, AutoAnalysis.Line1.Enabled, false
TestParameter, AutoAnalysis.Line1.Type, 1
TestParameter, AutoAnalysis.Line1.Fix, True
TestParameter, AutoAnalysis.Line1.YAxis, 0
TestParameter, AutoAnalysis.Line1.Point1.Type, 0
TestParameter, AutoAnalysis.Line1.Point1.XY.X, 
TestParameter, AutoAnalysis.Line1.Point1.XY.Y, 
TestParameter, AutoAnalysis.Line1.Point1.Data.Var, 
TestParameter, AutoAnalysis.Line1.Point1.Data.Condition, 
TestParameter, AutoAnalysis.Line1.Point1.Data.Start, false
TestParameter, AutoAnalysis.Line1.Point1.Data.StartVar, 
TestParameter, AutoAnalysis.Line1.Point1.Data.StartCondition, 
TestParameter, AutoAnalysis.Line1.Point2.Type, 0
TestParameter, AutoAnalysis.Line1.Point2.XY.X, 
TestParameter, AutoAnalysis.Line1.Point2.XY.Y, 
TestParameter, AutoAnalysis.Line1.Point2.Data.Var, 
TestParameter, AutoAnalysis.Line1.Point2.Data.Condition, 
TestParameter, AutoAnalysis.Line1.Point2.Data.Start, false
TestParameter, AutoAnalysis.Line1.Point2.Data.StartVar, 
TestParameter, AutoAnalysis.Line1.Point2.Data.StartCondition, 
TestParameter, AutoAnalysis.Line1.GradientExpr, 0
TestParameter, AutoAnalysis.Line2.Enabled, false
TestParameter, AutoAnalysis.Line2.Type, 1
TestParameter, AutoAnalysis.Line2.Fix, True
TestParameter, AutoAnalysis.Line2.YAxis, 0
TestParameter, AutoAnalysis.Line2.Point1.Type, 0
TestParameter, AutoAnalysis.Line2.Point1.XY.X, 
TestParameter, AutoAnalysis.Line2.Point1.XY.Y, 
TestParameter, AutoAnalysis.Line2.Point1.Data.Var, 
TestParameter, AutoAnalysis.Line2.Point1.Data.Condition, 
TestParameter, AutoAnalysis.Line2.Point1.Data.Start, false
TestParameter, AutoAnalysis.Line2.Point1.Data.StartVar, 
TestParameter, AutoAnalysis.Line2.Point1.Data.StartCondition, 
TestParameter, AutoAnalysis.Line2.Point2.Type, 0
TestParameter, AutoAnalysis.Line2.Point2.XY.X, 
TestParameter, AutoAnalysis.Line2.Point2.XY.Y, 
TestParameter, AutoAnalysis.Line2.Point2.Data.Var, 
TestParameter, AutoAnalysis.Line2.Point2.Data.Condition, 
TestParameter, AutoAnalysis.Line2.Point2.Data.Start, false
TestParameter, AutoAnalysis.Line2.Point2.Data.StartVar, 
TestParameter, AutoAnalysis.Line2.Point2.Data.StartCondition, 
TestParameter, AutoAnalysis.Line2.GradientExpr, 0
TestParameter, AutoAnalysis.Marker.Enabled, false
TestParameter, AutoAnalysis.Marker.Data.Var, 
TestParameter, AutoAnalysis.Marker.Data.Condition, 
TestParameter, AutoAnalysis.Marker.Data.Start, false
TestParameter, AutoAnalysis.Marker.Data.StartVar, 
TestParameter, AutoAnalysis.Marker.Data.StartCondition, 
MetaData, TestRecord.EntryPoint, true
MetaData, TestRecord.RecordTime, 10/19/2022 16:15:24
MetaData, TestRecord.TestTarget, 
MetaData, TestRecord.IterationIndex, 161
MetaData, TestRecord.Preservation, true
MetaData, TestRecord.Flag, 
MetaData, TestRecord.Remarks, 
MetaData, TestRecord.LinkKey, 40b5631b-fd72-4e26-9626-44db9a18790f
MetaData, TestRecord.Parameters, 
Dimension1, 101, 101
Dimension2, 1, 1
DataName, V, I
DataValue, -2, -0.060028000000000005
DataValue, -1.9600000000000002, -0.059052000000000007
DataValue, -1.9200000000000002, -0.058022000000000004
DataValue, -1.8800000000000001, -0.057026000000000007
DataValue, -1.84, -0.055984000000000006
DataValue, -1.8, -0.054906
DataValue, -1.76, -0.053840000000000006
DataValue, -1.72, -0.05272
DataValue, -1.6800000000000002, -0.051558000000000007
DataValue, -1.6400000000000001, -0.050426000000000006
DataValue, -1.6, -0.04923
DataValue, -1.56, -0.048018000000000005
DataValue, -1.52, -0.046768000000000004
DataValue, -1.48, -0.045562000000000005
DataValue, -1.4400000000000002, -0.044296
DataValue, -1.4000000000000001, -0.04304
DataValue, -1.36, -0.041762
DataValue, -1.32, -0.040548
DataValue, -1.28, -0.039284000000000006
DataValue, -1.24, -0.038064
DataValue, -1.2, -0.036854000000000005
DataValue, -1.1600000000000001, -0.035658
DataValue, -1.12, -0.034468000000000006
DataValue, -1.08, -0.033150000000000006
DataValue, -1.04, -0.032038000000000004
DataValue, -1, -0.030902000000000002
DataValue, -0.96000000000000008, -0.029810000000000003
DataValue, -0.92, -0.028746000000000004
DataValue, -0.88, -0.027706
DataValue, -0.84000000000000008, -0.026694000000000002
DataValue, -0.8, -0.025674000000000002
DataValue, -0.76, -0.024724000000000003
DataValue, -0.72000000000000008, -0.023802000000000004
DataValue, -0.68, -0.022936
DataValue, -0.64, -0.022094000000000003
DataValue, -0.6, -0.021352000000000003
DataValue, -0.56, -0.020702
DataValue, -0.52, -0.020126
DataValue, -0.48000000000000004, -0.019520000000000003
DataValue, -0.44, -0.018670000000000003
DataValue, -0.4, -0.017536000000000003
DataValue, -0.36000000000000004, -0.016190000000000003
DataValue, -0.32, -0.014754000000000002
DataValue, -0.28, -0.013266000000000002
DataValue, -0.24000000000000002, -0.011766
DataValue, -0.2, -0.010272000000000002
DataValue, -0.16, -0.008808400000000001
DataValue, -0.12000000000000001, -0.0074226000000000006
DataValue, -0.08, -0.0060746
DataValue, -0.04, -0.0047836
DataValue, 0, -0.0035778
DataValue, 0.04, -0.0024658
DataValue, 0.08, -0.0014826
DataValue, 0.12000000000000001, -0.00069284
DataValue, 0.16, -0.00015632000000000002
DataValue, 0.2, 0.00011012000000000001
DataValue, 0.24000000000000002, 0.00020444000000000002
DataValue, 0.28, 0.00023466
DataValue, 0.32, 0.00024742000000000004
DataValue, 0.36000000000000004, 0.00025550000000000003
DataValue, 0.4, 0.00026334000000000004
DataValue, 0.44, 0.00027032
DataValue, 0.48000000000000004, 0.00027488
DataValue, 0.52, 0.00028016
DataValue, 0.56, 0.00028702
DataValue, 0.6, 0.00029446
DataValue, 0.64, 0.00030188000000000003
DataValue, 0.68, 0.00031142
DataValue, 0.72000000000000008, 0.00032554000000000003
DataValue, 0.76, 0.0003578
DataValue, 0.8, 0.00045982000000000005
DataValue, 0.84000000000000008, 0.00074358000000000009
DataValue, 0.88, 0.001291
DataValue, 0.92, 0.0020440000000000002
DataValue, 0.96000000000000008, 0.0029236
DataValue, 1, 0.0038476
DataValue, 1.04, 0.0047924000000000005
DataValue, 1.08, 0.0058232
DataValue, 1.12, 0.006949
DataValue, 1.1600000000000001, 0.0081306
DataValue, 1.2, 0.009362800000000001
DataValue, 1.24, 0.0106852
DataValue, 1.28, 0.012158
DataValue, 1.32, 0.013732000000000001
DataValue, 1.36, 0.015376
DataValue, 1.4000000000000001, 0.01711
DataValue, 1.4400000000000002, 0.018860000000000002
DataValue, 1.48, 0.02067
DataValue, 1.52, 0.022476000000000003
DataValue, 1.56, 0.024296
DataValue, 1.6, 0.026212000000000003
DataValue, 1.6400000000000001, 0.028094
DataValue, 1.6800000000000002, 0.029946000000000004
DataValue, 1.72, 0.03178
DataValue, 1.76, 0.033644
DataValue, 1.8, 0.035462
DataValue, 1.84, 0.037268
DataValue, 1.8800000000000001, 0.039646
DataValue, 1.9200000000000002, 0.041828000000000004
DataValue, 1.9600000000000002, 0.043944000000000004
DataValue, 2, 0.046006000000000005