
SetupTitle, I/V Sweep
PrimitiveTest, I/V Sweep
TestParameter, Context.MainFrame, B1500A
TestParameter, Channel.UnitType, SMU, SMU, SMU, SMU
TestParameter, Channel.Unit, SMU1:HP, SMU2:MP, SMU3:MP, SMU4:MP
TestParameter, Channel.IName, I, IDD1, IDD2, II
TestParameter, Channel.VName, V, VDD1, VDD2, VV
TestParameter, Channel.Mode, V, V, V, V
TestParameter, Channel.Func, VAR1, CONST, CONST, CONST
TestParameter, Channel.Index, 
TestParameter, Channel.Time, 
TestParameter, Measurement.Port.Unit, SMU1:HP, SMU2:MP, SMU3:MP, SMU4:MP
TestParameter, Measurement.Port.SeriesResistor, NONE, NONE, NONE, NONE
TestParameter, Measurement.Port.Filter, ON, ON, ON, ON
TestParameter, Measurement.Port.OutputVoltageComparison, 0, 0, 0, 0
TestParameter, Measurement.Primary.Locus, Single
TestParameter, Measurement.Primary.Scale, LINEAR
TestParameter, Measurement.Primary.Start, -2
TestParameter, Measurement.Primary.Stop, 2
TestParameter, Measurement.Primary.Step, 0.04
TestParameter, Measurement.Primary.Compliance, 0.1
TestParameter, Measurement.Primary.PowerCompliance, 0
TestParameter, Measurement.Aborting.Condition, CONTINUE AT ANY
TestParameter, Measurement.PostOutput.Value, START
TestParameter, Measurement.PostOutput.Retention, OFF
TestParameter, Measurement.Bias.Source, -2, 1.8, 1.1, 0
TestParameter, Measurement.Bias.Compliance, 0.1, 0.1, 0.1, 0.1
TestParameter, Measurement.Monitor.Unit, SMU1:HP, SMU2:MP, SMU3:MP, SMU4:MP
TestParameter, Measurement.Monitor.Adc, HR ADC, HR ADC, HR ADC, HR ADC
TestParameter, Measurement.Monitor.Measurement, Compliance Side, Compliance Side, Compliance Side, Compliance Side
TestParameter, Measurement.Monitor.RangingMode, LIMITED, LIMITED, LIMITED, LIMITED
TestParameter, Measurement.Monitor.RangeBoundary, 1nA, 1nA, 1nA, 1nA
TestParameter, Measurement.Monitor.RangeRating, BY FULL RANGE, BY FULL RANGE, BY FULL RANGE, BY FULL RANGE
TestParameter, Measurement.Monitor.RangeRatingCoeff, 50, 50, 50, 50
TestParameter, Measurement.Timing.Hold, 0
TestParameter, Measurement.Timing.Delay, 0
TestParameter, Measurement.Adc.HighSpeed.Mode, AUTO
TestParameter, Measurement.Adc.HighSpeed.Coeff, 1
TestParameter, Measurement.Adc.HighResolution.AutoZero, OFF
TestParameter, Measurement.Adc.HighResolution.Mode, AUTO
TestParameter, Measurement.Adc.HighResolution.Coeff, 6
TestParameter, Measurement.WaitTime.Source.Coeff, 1
TestParameter, Measurement.WaitTime.Source.Offset, 0
TestParameter, Measurement.WaitTime.Monitor.Coeff, 1
TestParameter, Measurement.WaitTime.Monitor.Offset, 0
TestParameter, Output.Graph.Enabled, true
TestParameter, Output.Graph.AutoScaling, false
TestParameter, Output.Graph.XAxis.Data, V
TestParameter, Output.Graph.XAxis.Scale, Linear
TestParameter, Output.Graph.XAxis.Left, -2
TestParameter, Output.Graph.XAxis.Right, 2
TestParameter, Output.Graph.XAxis.RunTimeAutoScale, true
TestParameter, Output.Graph.YAxis.Data, I
TestParameter, Output.Graph.YAxis.Scale, Linear
TestParameter, Output.Graph.YAxis.Bottom, -0.1
TestParameter, Output.Graph.YAxis.Top, 0.1
TestParameter, Output.Graph.YAxis.Group, 
TestParameter, Output.Graph.YAxis.RunTimeAutoScale, true
TestParameter, AutoAnalysis.Interpolation, false
TestParameter, AutoAnalysis.Var2StepCount, 1
TestParameter, AutoAnalysis.Var2StepScript, 
TestParameter, AutoAnalysis.Line1.Enabled, false
TestParameter, AutoAnalysis.Line1.Type, 1
TestParameter, AutoAnalysis.Line1.Fix, True
TestParameter, AutoAnalysis.Line1.YAxis, 0
TestParameter, AutoAnalysis.Line1.Point1.Type, 0
TestParameter, AutoAnalysis.Line1.Point1.XY.X, 
TestParameter, AutoAnalysis.Line1.Point1.XY.Y, 
TestParameter, AutoAnalysis.Line1.Point1.Data.Var, 
TestParameter, AutoAnalysis.Line1.Point1.Data.Condition, 
TestParameter, AutoAnalysis.Line1.Point1.Data.Start, false
TestParameter, AutoAnalysis.Line1.Point1.Data.StartVar, 
TestParameter, AutoAnalysis.Line1.Point1.Data.StartCondition, 
TestParameter, AutoAnalysis.Line1.Point2.Type, 0
TestParameter, AutoAnalysis.Line1.Point2.XY.X, 
TestParameter, AutoAnalysis.Line1.Point2.XY.Y, 
TestParameter, AutoAnalysis.Line1.Point2.Data.Var, 
TestParameter, AutoAnalysis.Line1.Point2.Data.Condition, 
TestParameter, AutoAnalysis.Line1.Point2.Data.Start, false
TestParameter, AutoAnalysis.Line1.Point2.Data.StartVar, 
TestParameter, AutoAnalysis.Line1.Point2.Data.StartCondition, 
TestParameter, AutoAnalysis.Line1.GradientExpr, 0
TestParameter, AutoAnalysis.Line2.Enabled, false
TestParameter, AutoAnalysis.Line2.Type, 1
TestParameter, AutoAnalysis.Line2.Fix, True
TestParameter, AutoAnalysis.Line2.YAxis, 0
TestParameter, AutoAnalysis.Line2.Point1.Type, 0
TestParameter, AutoAnalysis.Line2.Point1.XY.X, 
TestParameter, AutoAnalysis.Line2.Point1.XY.Y, 
TestParameter, AutoAnalysis.Line2.Point1.Data.Var, 
TestParameter, AutoAnalysis.Line2.Point1.Data.Condition, 
TestParameter, AutoAnalysis.Line2.Point1.Data.Start, false
TestParameter, AutoAnalysis.Line2.Point1.Data.StartVar, 
TestParameter, AutoAnalysis.Line2.Point1.Data.StartCondition, 
TestParameter, AutoAnalysis.Line2.Point2.Type, 0
TestParameter, AutoAnalysis.Line2.Point2.XY.X, 
TestParameter, AutoAnalysis.Line2.Point2.XY.Y, 
TestParameter, AutoAnalysis.Line2.Point2.Data.Var, 
TestParameter, AutoAnalysis.Line2.Point2.Data.Condition, 
TestParameter, AutoAnalysis.Line2.Point2.Data.Start, false
TestParameter, AutoAnalysis.Line2.Point2.Data.StartVar, 
TestParameter, AutoAnalysis.Line2.Point2.Data.StartCondition, 
TestParameter, AutoAnalysis.Line2.GradientExpr, 0
TestParameter, AutoAnalysis.Marker.Enabled, false
TestParameter, AutoAnalysis.Marker.Data.Var, 
TestParameter, AutoAnalysis.Marker.Data.Condition, 
TestParameter, AutoAnalysis.Marker.Data.Start, false
TestParameter, AutoAnalysis.Marker.Data.StartVar, 
TestParameter, AutoAnalysis.Marker.Data.StartCondition, 
MetaData, TestRecord.EntryPoint, true
MetaData, TestRecord.RecordTime, 10/19/2022 16:02:56
MetaData, TestRecord.TestTarget, 
MetaData, TestRecord.IterationIndex, 129
MetaData, TestRecord.Preservation, true
MetaData, TestRecord.Flag, 
MetaData, TestRecord.Remarks, 
MetaData, TestRecord.LinkKey, 958c1d3d-e700-4683-beb0-b566f03038ba
MetaData, TestRecord.Parameters, 
Dimension1, 101, 101
Dimension2, 1, 1
DataName, V, I
DataValue, -2, -0.00045094000000000004
DataValue, -1.9600000000000002, -0.00034912
DataValue, -1.9200000000000002, -0.00026822
DataValue, -1.8800000000000001, -0.00020470000000000002
DataValue, -1.84, -0.00015522000000000002
DataValue, -1.8, -0.00011754
DataValue, -1.76, -8.8856E-05
DataValue, -1.72, -6.7066E-05
DataValue, -1.6800000000000002, -5.1028E-05
DataValue, -1.6400000000000001, -3.8916E-05
DataValue, -1.6, -2.9900000000000002E-05
DataValue, -1.56, -2.2934E-05
DataValue, -1.52, -1.7416E-05
DataValue, -1.48, -1.2996E-05
DataValue, -1.4400000000000002, -9.7191000000000015E-06
DataValue, -1.4000000000000001, -6.9752000000000006E-06
DataValue, -1.36, -4.9977000000000004E-06
DataValue, -1.32, -3.6081000000000002E-06
DataValue, -1.28, -2.5514000000000003E-06
DataValue, -1.24, -1.7277000000000002E-06
DataValue, -1.2, -1.3002E-06
DataValue, -1.1600000000000001, -8.9258E-07
DataValue, -1.12, -6.5156E-07
DataValue, -1.08, -5.7348E-07
DataValue, -1.04, -3.1263999999999997E-07
DataValue, -1, -2.192E-07
DataValue, -0.96000000000000008, -2.9064E-07
DataValue, -0.92, -2.4564E-07
DataValue, -0.88, -1.4462E-07
DataValue, -0.84000000000000008, -3.677E-07
DataValue, -0.8, -1.6524E-07
DataValue, -0.76, -2.5248E-07
DataValue, -0.72000000000000008, -1.3004E-07
DataValue, -0.68, -2.727E-07
DataValue, -0.64, -2.1371999999999998E-07
DataValue, -0.6, -1.394E-07
DataValue, -0.56, -2.5696E-07
DataValue, -0.52, -1.3166E-07
DataValue, -0.48000000000000004, -2.4644E-07
DataValue, -0.44, -1.1858E-07
DataValue, -0.4, -1.892E-07
DataValue, -0.36000000000000004, -1.0618E-07
DataValue, -0.32, -1.3128E-07
DataValue, -0.28, -8.1514E-08
DataValue, -0.24000000000000002, -7.917739999999999E-08
DataValue, -0.2, -4.7008599999999993E-08
DataValue, -0.16, -1.69216E-08
DataValue, -0.12000000000000001, -9.8028E-09
DataValue, -0.08, -3.3706E-09
DataValue, -0.04, -1.0473E-09
DataValue, 0, -7.104300000000001E-10
DataValue, 0.04, -5.5271E-10
DataValue, 0.08, -4.3982000000000004E-10
DataValue, 0.12000000000000001, -4.2199E-10
DataValue, 0.16, -3.1891000000000004E-10
DataValue, 0.2, -2.4789E-10
DataValue, 0.24000000000000002, -2.5500000000000002E-11
DataValue, 0.28, 5.8709000000000009E-10
DataValue, 0.32, 1.3136E-09
DataValue, 0.36000000000000004, 4.3147E-09
DataValue, 0.4, 6.2405E-09
DataValue, 0.44, 1.17672E-08
DataValue, 0.48000000000000004, 2.3284599999999998E-08
DataValue, 0.52, 3.15382E-08
DataValue, 0.56, 5.9393799999999992E-08
DataValue, 0.6, 8.00792E-08
DataValue, 0.64, 1.2838E-07
DataValue, 0.68, 2.1971999999999999E-07
DataValue, 0.72000000000000008, 3.0362E-07
DataValue, 0.76, 4.3614E-07
DataValue, 0.8, 6.3248E-07
DataValue, 0.84000000000000008, 8.6934E-07
DataValue, 0.88, 8.2358E-07
DataValue, 0.92, 1.1401E-06
DataValue, 0.96000000000000008, 2.0313000000000004E-06
DataValue, 1, 3.8107E-06
DataValue, 1.04, 7.7439E-06
DataValue, 1.08, 1.5766E-05
DataValue, 1.12, 3.5012E-05
DataValue, 1.1600000000000001, 9.5634E-05
DataValue, 1.2, 0.001137
DataValue, 1.24, 0.0026012
DataValue, 1.28, 0.0040966
DataValue, 1.32, 0.0056314
DataValue, 1.36, 0.007196
DataValue, 1.4000000000000001, 0.0087728
DataValue, 1.4400000000000002, 0.010367
DataValue, 1.48, 0.011982000000000001
DataValue, 1.52, 0.013598
DataValue, 1.56, 0.015218
DataValue, 1.6, 0.016838000000000002
DataValue, 1.6400000000000001, 0.018452000000000003
DataValue, 1.6800000000000002, 0.020058000000000003
DataValue, 1.72, 0.021654000000000003
DataValue, 1.76, 0.023232000000000003
DataValue, 1.8, 0.024780000000000003
DataValue, 1.84, 0.02629
DataValue, 1.8800000000000001, 0.027756000000000003
DataValue, 1.9200000000000002, 0.029178000000000003
DataValue, 1.9600000000000002, 0.030568
DataValue, 2, 0.031916