
SetupTitle, I/V Sweep
PrimitiveTest, I/V Sweep
TestParameter, Context.MainFrame, B1500A
TestParameter, Channel.UnitType, SMU, SMU, SMU, SMU
TestParameter, Channel.Unit, SMU1:HP, SMU2:MP, SMU3:MP, SMU4:MP
TestParameter, Channel.IName, I, IDD1, IDD2, II
TestParameter, Channel.VName, V, VDD1, VDD2, VV
TestParameter, Channel.Mode, V, V, V, V
TestParameter, Channel.Func, VAR1, CONST, CONST, CONST
TestParameter, Channel.Index, 
TestParameter, Channel.Time, 
TestParameter, Measurement.Port.Unit, SMU1:HP, SMU2:MP, SMU3:MP, SMU4:MP
TestParameter, Measurement.Port.SeriesResistor, NONE, NONE, NONE, NONE
TestParameter, Measurement.Port.Filter, ON, ON, ON, ON
TestParameter, Measurement.Port.OutputVoltageComparison, 0, 0, 0, 0
TestParameter, Measurement.Primary.Locus, Single
TestParameter, Measurement.Primary.Scale, LINEAR
TestParameter, Measurement.Primary.Start, -2
TestParameter, Measurement.Primary.Stop, 2
TestParameter, Measurement.Primary.Step, 0.04
TestParameter, Measurement.Primary.Compliance, 0.1
TestParameter, Measurement.Primary.PowerCompliance, 0
TestParameter, Measurement.Aborting.Condition, CONTINUE AT ANY
TestParameter, Measurement.PostOutput.Value, START
TestParameter, Measurement.PostOutput.Retention, OFF
TestParameter, Measurement.Bias.Source, -2, 1.8, 1.1, 0
TestParameter, Measurement.Bias.Compliance, 0.1, 0.1, 0.1, 0.1
TestParameter, Measurement.Monitor.Unit, SMU1:HP, SMU2:MP, SMU3:MP, SMU4:MP
TestParameter, Measurement.Monitor.Adc, HR ADC, HR ADC, HR ADC, HR ADC
TestParameter, Measurement.Monitor.Measurement, Compliance Side, Compliance Side, Compliance Side, Compliance Side
TestParameter, Measurement.Monitor.RangingMode, LIMITED, LIMITED, LIMITED, LIMITED
TestParameter, Measurement.Monitor.RangeBoundary, 1nA, 1nA, 1nA, 1nA
TestParameter, Measurement.Monitor.RangeRating, BY FULL RANGE, BY FULL RANGE, BY FULL RANGE, BY FULL RANGE
TestParameter, Measurement.Monitor.RangeRatingCoeff, 50, 50, 50, 50
TestParameter, Measurement.Timing.Hold, 0
TestParameter, Measurement.Timing.Delay, 0
TestParameter, Measurement.Adc.HighSpeed.Mode, AUTO
TestParameter, Measurement.Adc.HighSpeed.Coeff, 1
TestParameter, Measurement.Adc.HighResolution.AutoZero, OFF
TestParameter, Measurement.Adc.HighResolution.Mode, AUTO
TestParameter, Measurement.Adc.HighResolution.Coeff, 6
TestParameter, Measurement.WaitTime.Source.Coeff, 1
TestParameter, Measurement.WaitTime.Source.Offset, 0
TestParameter, Measurement.WaitTime.Monitor.Coeff, 1
TestParameter, Measurement.WaitTime.Monitor.Offset, 0
TestParameter, Output.Graph.Enabled, true
TestParameter, Output.Graph.AutoScaling, false
TestParameter, Output.Graph.XAxis.Data, V
TestParameter, Output.Graph.XAxis.Scale, Linear
TestParameter, Output.Graph.XAxis.Left, -2
TestParameter, Output.Graph.XAxis.Right, 2
TestParameter, Output.Graph.XAxis.RunTimeAutoScale, true
TestParameter, Output.Graph.YAxis.Data, I
TestParameter, Output.Graph.YAxis.Scale, Linear
TestParameter, Output.Graph.YAxis.Bottom, -0.1
TestParameter, Output.Graph.YAxis.Top, 0.1
TestParameter, Output.Graph.YAxis.Group, 
TestParameter, Output.Graph.YAxis.RunTimeAutoScale, true
TestParameter, AutoAnalysis.Interpolation, false
TestParameter, AutoAnalysis.Var2StepCount, 1
TestParameter, AutoAnalysis.Var2StepScript, 
TestParameter, AutoAnalysis.Line1.Enabled, false
TestParameter, AutoAnalysis.Line1.Type, 1
TestParameter, AutoAnalysis.Line1.Fix, True
TestParameter, AutoAnalysis.Line1.YAxis, 0
TestParameter, AutoAnalysis.Line1.Point1.Type, 0
TestParameter, AutoAnalysis.Line1.Point1.XY.X, 
TestParameter, AutoAnalysis.Line1.Point1.XY.Y, 
TestParameter, AutoAnalysis.Line1.Point1.Data.Var, 
TestParameter, AutoAnalysis.Line1.Point1.Data.Condition, 
TestParameter, AutoAnalysis.Line1.Point1.Data.Start, false
TestParameter, AutoAnalysis.Line1.Point1.Data.StartVar, 
TestParameter, AutoAnalysis.Line1.Point1.Data.StartCondition, 
TestParameter, AutoAnalysis.Line1.Point2.Type, 0
TestParameter, AutoAnalysis.Line1.Point2.XY.X, 
TestParameter, AutoAnalysis.Line1.Point2.XY.Y, 
TestParameter, AutoAnalysis.Line1.Point2.Data.Var, 
TestParameter, AutoAnalysis.Line1.Point2.Data.Condition, 
TestParameter, AutoAnalysis.Line1.Point2.Data.Start, false
TestParameter, AutoAnalysis.Line1.Point2.Data.StartVar, 
TestParameter, AutoAnalysis.Line1.Point2.Data.StartCondition, 
TestParameter, AutoAnalysis.Line1.GradientExpr, 0
TestParameter, AutoAnalysis.Line2.Enabled, false
TestParameter, AutoAnalysis.Line2.Type, 1
TestParameter, AutoAnalysis.Line2.Fix, True
TestParameter, AutoAnalysis.Line2.YAxis, 0
TestParameter, AutoAnalysis.Line2.Point1.Type, 0
TestParameter, AutoAnalysis.Line2.Point1.XY.X, 
TestParameter, AutoAnalysis.Line2.Point1.XY.Y, 
TestParameter, AutoAnalysis.Line2.Point1.Data.Var, 
TestParameter, AutoAnalysis.Line2.Point1.Data.Condition, 
TestParameter, AutoAnalysis.Line2.Point1.Data.Start, false
TestParameter, AutoAnalysis.Line2.Point1.Data.StartVar, 
TestParameter, AutoAnalysis.Line2.Point1.Data.StartCondition, 
TestParameter, AutoAnalysis.Line2.Point2.Type, 0
TestParameter, AutoAnalysis.Line2.Point2.XY.X, 
TestParameter, AutoAnalysis.Line2.Point2.XY.Y, 
TestParameter, AutoAnalysis.Line2.Point2.Data.Var, 
TestParameter, AutoAnalysis.Line2.Point2.Data.Condition, 
TestParameter, AutoAnalysis.Line2.Point2.Data.Start, false
TestParameter, AutoAnalysis.Line2.Point2.Data.StartVar, 
TestParameter, AutoAnalysis.Line2.Point2.Data.StartCondition, 
TestParameter, AutoAnalysis.Line2.GradientExpr, 0
TestParameter, AutoAnalysis.Marker.Enabled, false
TestParameter, AutoAnalysis.Marker.Data.Var, 
TestParameter, AutoAnalysis.Marker.Data.Condition, 
TestParameter, AutoAnalysis.Marker.Data.Start, false
TestParameter, AutoAnalysis.Marker.Data.StartVar, 
TestParameter, AutoAnalysis.Marker.Data.StartCondition, 
MetaData, TestRecord.EntryPoint, true
MetaData, TestRecord.RecordTime, 10/19/2022 16:05:45
MetaData, TestRecord.TestTarget, 
MetaData, TestRecord.IterationIndex, 134
MetaData, TestRecord.Preservation, true
MetaData, TestRecord.Flag, 
MetaData, TestRecord.Remarks, 
MetaData, TestRecord.LinkKey, f4e4e6b7-3b85-418c-98c1-5bd7ca13a616
MetaData, TestRecord.Parameters, 
Dimension1, 101, 101
Dimension2, 1, 1
DataName, V, I
DataValue, -2, -0.0052944
DataValue, -1.9600000000000002, -0.0049772
DataValue, -1.9200000000000002, -0.004662
DataValue, -1.8800000000000001, -0.0043482
DataValue, -1.84, -0.0040372
DataValue, -1.8, -0.0037302
DataValue, -1.76, -0.0034288
DataValue, -1.72, -0.0031326
DataValue, -1.6800000000000002, -0.0028434000000000003
DataValue, -1.6400000000000001, -0.002562
DataValue, -1.6, -0.0022894
DataValue, -1.56, -0.002027
DataValue, -1.52, -0.0017762000000000001
DataValue, -1.48, -0.0015382
DataValue, -1.4400000000000002, -0.0013136
DataValue, -1.4000000000000001, -0.0011056
DataValue, -1.36, -0.0009143
DataValue, -1.32, -0.00074152000000000007
DataValue, -1.28, -0.00058854
DataValue, -1.24, -0.00045662000000000003
DataValue, -1.2, -0.0003455
DataValue, -1.1600000000000001, -0.00025518000000000003
DataValue, -1.12, -0.00018364000000000002
DataValue, -1.08, -0.00012910000000000002
DataValue, -1.04, -8.9194E-05
DataValue, -1, -5.9766000000000003E-05
DataValue, -0.96000000000000008, -3.9048E-05
DataValue, -0.92, -2.4908E-05
DataValue, -0.88, -1.5548E-05
DataValue, -0.84000000000000008, -9.2345000000000011E-06
DataValue, -0.8, -5.5094E-06
DataValue, -0.76, -3.1311000000000004E-06
DataValue, -0.72000000000000008, -1.6907000000000002E-06
DataValue, -0.68, -1.0678000000000002E-06
DataValue, -0.64, -5.9918E-07
DataValue, -0.6, -3.858E-07
DataValue, -0.56, -3.0448E-07
DataValue, -0.52, -2.4942E-07
DataValue, -0.48000000000000004, -1.5953999999999999E-07
DataValue, -0.44, -1.4016E-07
DataValue, -0.4, -3.9162E-07
DataValue, -0.36000000000000004, -1.4736E-07
DataValue, -0.32, -2.7856E-07
DataValue, -0.28, -3.157E-07
DataValue, -0.24000000000000002, -3.6046E-07
DataValue, -0.2, -2.3652E-07
DataValue, -0.16, -1.841E-07
DataValue, -0.12000000000000001, -1.629E-07
DataValue, -0.08, -2.227E-07
DataValue, -0.04, -1.9386E-07
DataValue, 0, -1.8968E-07
DataValue, 0.04, -2.6584E-07
DataValue, 0.08, -9.418E-08
DataValue, 0.12000000000000001, -1.079E-07
DataValue, 0.16, -2.3036E-07
DataValue, 0.2, -2.2904E-07
DataValue, 0.24000000000000002, 6.26596E-08
DataValue, 0.28, 3.8908E-07
DataValue, 0.32, 1.6585E-06
DataValue, 0.36000000000000004, 7.6104000000000009E-06
DataValue, 0.4, 3.0654E-05
DataValue, 0.44, 0.00011630000000000001
DataValue, 0.48000000000000004, 0.00035046000000000003
DataValue, 0.52, 0.00077136
DataValue, 0.56, 0.0013372
DataValue, 0.6, 0.0020012
DataValue, 0.64, 0.0027372
DataValue, 0.68, 0.0035274
DataValue, 0.72000000000000008, 0.0043642
DataValue, 0.76, 0.00524
DataValue, 0.8, 0.0061486
DataValue, 0.84000000000000008, 0.0070868
DataValue, 0.88, 0.0080474
DataValue, 0.92, 0.0090262
DataValue, 0.96000000000000008, 0.0100238
DataValue, 1, 0.0110274
DataValue, 1.04, 0.012058000000000001
DataValue, 1.08, 0.013078000000000001
DataValue, 1.12, 0.014104000000000002
DataValue, 1.1600000000000001, 0.015138000000000002
DataValue, 1.2, 0.016172000000000002
DataValue, 1.24, 0.017204
DataValue, 1.28, 0.018228
DataValue, 1.32, 0.019252000000000002
DataValue, 1.36, 0.020274
DataValue, 1.4000000000000001, 0.021282000000000002
DataValue, 1.4400000000000002, 0.022286
DataValue, 1.48, 0.023282
DataValue, 1.52, 0.02425
DataValue, 1.56, 0.025230000000000002
DataValue, 1.6, 0.026172
DataValue, 1.6400000000000001, 0.027106
DataValue, 1.6800000000000002, 0.028022000000000002
DataValue, 1.72, 0.028924000000000002
DataValue, 1.76, 0.029802000000000002
DataValue, 1.8, 0.030674000000000003
DataValue, 1.84, 0.031504000000000004
DataValue, 1.8800000000000001, 0.032218000000000004
DataValue, 1.9200000000000002, 0.032982000000000004
DataValue, 1.9600000000000002, 0.033794000000000005
DataValue, 2, 0.034550000000000004