
SetupTitle, I/V Sweep
PrimitiveTest, I/V Sweep
TestParameter, Context.MainFrame, B1500A
TestParameter, Channel.UnitType, SMU, SMU, SMU, SMU
TestParameter, Channel.Unit, SMU1:HP, SMU2:MP, SMU3:MP, SMU4:MP
TestParameter, Channel.IName, I, IDD1, IDD2, II
TestParameter, Channel.VName, V, VDD1, VDD2, VV
TestParameter, Channel.Mode, V, V, V, V
TestParameter, Channel.Func, VAR1, CONST, CONST, CONST
TestParameter, Channel.Index, 
TestParameter, Channel.Time, 
TestParameter, Measurement.Port.Unit, SMU1:HP, SMU2:MP, SMU3:MP, SMU4:MP
TestParameter, Measurement.Port.SeriesResistor, NONE, NONE, NONE, NONE
TestParameter, Measurement.Port.Filter, ON, ON, ON, ON
TestParameter, Measurement.Port.OutputVoltageComparison, 0, 0, 0, 0
TestParameter, Measurement.Primary.Locus, Single
TestParameter, Measurement.Primary.Scale, LINEAR
TestParameter, Measurement.Primary.Start, -2
TestParameter, Measurement.Primary.Stop, 2
TestParameter, Measurement.Primary.Step, 0.04
TestParameter, Measurement.Primary.Compliance, 0.1
TestParameter, Measurement.Primary.PowerCompliance, 0
TestParameter, Measurement.Aborting.Condition, CONTINUE AT ANY
TestParameter, Measurement.PostOutput.Value, START
TestParameter, Measurement.PostOutput.Retention, OFF
TestParameter, Measurement.Bias.Source, -2, 1.8, 1.1, 0
TestParameter, Measurement.Bias.Compliance, 0.1, 0.1, 0.1, 0.1
TestParameter, Measurement.Monitor.Unit, SMU1:HP, SMU2:MP, SMU3:MP, SMU4:MP
TestParameter, Measurement.Monitor.Adc, HR ADC, HR ADC, HR ADC, HR ADC
TestParameter, Measurement.Monitor.Measurement, Compliance Side, Compliance Side, Compliance Side, Compliance Side
TestParameter, Measurement.Monitor.RangingMode, LIMITED, LIMITED, LIMITED, LIMITED
TestParameter, Measurement.Monitor.RangeBoundary, 1nA, 1nA, 1nA, 1nA
TestParameter, Measurement.Monitor.RangeRating, BY FULL RANGE, BY FULL RANGE, BY FULL RANGE, BY FULL RANGE
TestParameter, Measurement.Monitor.RangeRatingCoeff, 50, 50, 50, 50
TestParameter, Measurement.Timing.Hold, 0
TestParameter, Measurement.Timing.Delay, 0
TestParameter, Measurement.Adc.HighSpeed.Mode, AUTO
TestParameter, Measurement.Adc.HighSpeed.Coeff, 1
TestParameter, Measurement.Adc.HighResolution.AutoZero, OFF
TestParameter, Measurement.Adc.HighResolution.Mode, AUTO
TestParameter, Measurement.Adc.HighResolution.Coeff, 6
TestParameter, Measurement.WaitTime.Source.Coeff, 1
TestParameter, Measurement.WaitTime.Source.Offset, 0
TestParameter, Measurement.WaitTime.Monitor.Coeff, 1
TestParameter, Measurement.WaitTime.Monitor.Offset, 0
TestParameter, Output.Graph.Enabled, true
TestParameter, Output.Graph.AutoScaling, false
TestParameter, Output.Graph.XAxis.Data, V
TestParameter, Output.Graph.XAxis.Scale, Linear
TestParameter, Output.Graph.XAxis.Left, -2
TestParameter, Output.Graph.XAxis.Right, 2
TestParameter, Output.Graph.XAxis.RunTimeAutoScale, true
TestParameter, Output.Graph.YAxis.Data, I
TestParameter, Output.Graph.YAxis.Scale, Linear
TestParameter, Output.Graph.YAxis.Bottom, -0.1
TestParameter, Output.Graph.YAxis.Top, 0.1
TestParameter, Output.Graph.YAxis.Group, 
TestParameter, Output.Graph.YAxis.RunTimeAutoScale, true
TestParameter, AutoAnalysis.Interpolation, false
TestParameter, AutoAnalysis.Var2StepCount, 1
TestParameter, AutoAnalysis.Var2StepScript, 
TestParameter, AutoAnalysis.Line1.Enabled, false
TestParameter, AutoAnalysis.Line1.Type, 1
TestParameter, AutoAnalysis.Line1.Fix, True
TestParameter, AutoAnalysis.Line1.YAxis, 0
TestParameter, AutoAnalysis.Line1.Point1.Type, 0
TestParameter, AutoAnalysis.Line1.Point1.XY.X, 
TestParameter, AutoAnalysis.Line1.Point1.XY.Y, 
TestParameter, AutoAnalysis.Line1.Point1.Data.Var, 
TestParameter, AutoAnalysis.Line1.Point1.Data.Condition, 
TestParameter, AutoAnalysis.Line1.Point1.Data.Start, false
TestParameter, AutoAnalysis.Line1.Point1.Data.StartVar, 
TestParameter, AutoAnalysis.Line1.Point1.Data.StartCondition, 
TestParameter, AutoAnalysis.Line1.Point2.Type, 0
TestParameter, AutoAnalysis.Line1.Point2.XY.X, 
TestParameter, AutoAnalysis.Line1.Point2.XY.Y, 
TestParameter, AutoAnalysis.Line1.Point2.Data.Var, 
TestParameter, AutoAnalysis.Line1.Point2.Data.Condition, 
TestParameter, AutoAnalysis.Line1.Point2.Data.Start, false
TestParameter, AutoAnalysis.Line1.Point2.Data.StartVar, 
TestParameter, AutoAnalysis.Line1.Point2.Data.StartCondition, 
TestParameter, AutoAnalysis.Line1.GradientExpr, 0
TestParameter, AutoAnalysis.Line2.Enabled, false
TestParameter, AutoAnalysis.Line2.Type, 1
TestParameter, AutoAnalysis.Line2.Fix, True
TestParameter, AutoAnalysis.Line2.YAxis, 0
TestParameter, AutoAnalysis.Line2.Point1.Type, 0
TestParameter, AutoAnalysis.Line2.Point1.XY.X, 
TestParameter, AutoAnalysis.Line2.Point1.XY.Y, 
TestParameter, AutoAnalysis.Line2.Point1.Data.Var, 
TestParameter, AutoAnalysis.Line2.Point1.Data.Condition, 
TestParameter, AutoAnalysis.Line2.Point1.Data.Start, false
TestParameter, AutoAnalysis.Line2.Point1.Data.StartVar, 
TestParameter, AutoAnalysis.Line2.Point1.Data.StartCondition, 
TestParameter, AutoAnalysis.Line2.Point2.Type, 0
TestParameter, AutoAnalysis.Line2.Point2.XY.X, 
TestParameter, AutoAnalysis.Line2.Point2.XY.Y, 
TestParameter, AutoAnalysis.Line2.Point2.Data.Var, 
TestParameter, AutoAnalysis.Line2.Point2.Data.Condition, 
TestParameter, AutoAnalysis.Line2.Point2.Data.Start, false
TestParameter, AutoAnalysis.Line2.Point2.Data.StartVar, 
TestParameter, AutoAnalysis.Line2.Point2.Data.StartCondition, 
TestParameter, AutoAnalysis.Line2.GradientExpr, 0
TestParameter, AutoAnalysis.Marker.Enabled, false
TestParameter, AutoAnalysis.Marker.Data.Var, 
TestParameter, AutoAnalysis.Marker.Data.Condition, 
TestParameter, AutoAnalysis.Marker.Data.Start, false
TestParameter, AutoAnalysis.Marker.Data.StartVar, 
TestParameter, AutoAnalysis.Marker.Data.StartCondition, 
MetaData, TestRecord.EntryPoint, true
MetaData, TestRecord.RecordTime, 10/19/2022 16:03:38
MetaData, TestRecord.TestTarget, 
MetaData, TestRecord.IterationIndex, 130
MetaData, TestRecord.Preservation, true
MetaData, TestRecord.Flag, 
MetaData, TestRecord.Remarks, 
MetaData, TestRecord.LinkKey, fe034631-bcb9-4db7-999f-28bcc94f6917
MetaData, TestRecord.Parameters, 
Dimension1, 101, 101
Dimension2, 1, 1
DataName, V, I
DataValue, -2, -0.003858
DataValue, -1.9600000000000002, -0.0035708000000000003
DataValue, -1.9200000000000002, -0.0032912
DataValue, -1.8800000000000001, -0.0030148
DataValue, -1.84, -0.0027426
DataValue, -1.8, -0.0024758000000000002
DataValue, -1.76, -0.0022192
DataValue, -1.72, -0.0019724
DataValue, -1.6800000000000002, -0.0017372
DataValue, -1.6400000000000001, -0.0015152
DataValue, -1.6, -0.0013072000000000001
DataValue, -1.56, -0.0011142
DataValue, -1.52, -0.000938
DataValue, -1.48, -0.00077898000000000008
DataValue, -1.4400000000000002, -0.00063848000000000008
DataValue, -1.4000000000000001, -0.00051640000000000008
DataValue, -1.36, -0.00041178000000000005
DataValue, -1.32, -0.00032432
DataValue, -1.28, -0.00025272
DataValue, -1.24, -0.00019482
DataValue, -1.2, -0.00014896
DataValue, -1.1600000000000001, -0.00011316000000000001
DataValue, -1.12, -8.5374E-05
DataValue, -1.08, -6.352E-05
DataValue, -1.04, -4.6954000000000005E-05
DataValue, -1, -3.4108E-05
DataValue, -0.96000000000000008, -2.4198E-05
DataValue, -0.92, -1.6744E-05
DataValue, -0.88, -1.1372E-05
DataValue, -0.84000000000000008, -7.3391000000000006E-06
DataValue, -0.8, -4.6741000000000007E-06
DataValue, -0.76, -2.8760000000000005E-06
DataValue, -0.72000000000000008, -1.6238000000000002E-06
DataValue, -0.68, -1.06236E-06
DataValue, -0.64, -7.4326E-07
DataValue, -0.6, -5.8246E-07
DataValue, -0.56, -4.4382E-07
DataValue, -0.52, -3.0742E-07
DataValue, -0.48000000000000004, -3.7364E-07
DataValue, -0.44, -4.1836E-07
DataValue, -0.4, -2.9086E-07
DataValue, -0.36000000000000004, -2.5104E-07
DataValue, -0.32, -1.8364E-07
DataValue, -0.28, -2.7078E-07
DataValue, -0.24000000000000002, -9.316E-08
DataValue, -0.2, -1.8134E-07
DataValue, -0.16, -2.2104E-07
DataValue, -0.12000000000000001, -2.5732E-07
DataValue, -0.08, -3.063E-07
DataValue, -0.04, -2.5998E-07
DataValue, 0, -2.8842E-07
DataValue, 0.04, -1.924E-07
DataValue, 0.08, -1.5602E-07
DataValue, 0.12000000000000001, -1.4022E-07
DataValue, 0.16, -9.354E-08
DataValue, 0.2, -1.592E-07
DataValue, 0.24000000000000002, -1.41422E-08
DataValue, 0.28, 3.7196E-07
DataValue, 0.32, 1.5776000000000002E-06
DataValue, 0.36000000000000004, 5.3790000000000005E-06
DataValue, 0.4, 1.2822E-05
DataValue, 0.44, 2.7854E-05
DataValue, 0.48000000000000004, 7.6774000000000007E-05
DataValue, 0.52, 0.00023042
DataValue, 0.56, 0.00055478
DataValue, 0.6, 0.0010343400000000001
DataValue, 0.64, 0.0016214
DataValue, 0.68, 0.0022716
DataValue, 0.72000000000000008, 0.0029714
DataValue, 0.76, 0.0037108
DataValue, 0.8, 0.0044816000000000005
DataValue, 0.84000000000000008, 0.0052852
DataValue, 0.88, 0.0061072
DataValue, 0.92, 0.0069516000000000005
DataValue, 0.96000000000000008, 0.007817
DataValue, 1, 0.008682
DataValue, 1.04, 0.0095656
DataValue, 1.08, 0.0105358
DataValue, 1.12, 0.0114368
DataValue, 1.1600000000000001, 0.012414000000000001
DataValue, 1.2, 0.013332000000000002
DataValue, 1.24, 0.014362000000000002
DataValue, 1.28, 0.015392000000000001
DataValue, 1.32, 0.016458
DataValue, 1.36, 0.017662
DataValue, 1.4000000000000001, 0.018718000000000002
DataValue, 1.4400000000000002, 0.020030000000000003
DataValue, 1.48, 0.021480000000000003
DataValue, 1.52, 0.022844000000000003
DataValue, 1.56, 0.024370000000000003
DataValue, 1.6, 0.026994
DataValue, 1.6400000000000001, 0.02875
DataValue, 1.6800000000000002, 0.031402
DataValue, 1.72, 0.033538000000000005
DataValue, 1.76, 0.035
DataValue, 1.8, 0.036668000000000006
DataValue, 1.84, 0.038450000000000005
DataValue, 1.8800000000000001, 0.040096000000000007
DataValue, 1.9200000000000002, 0.041940000000000005
DataValue, 1.9600000000000002, 0.043642000000000007
DataValue, 2, 0.045314000000000007