
SetupTitle, I/V Sweep
PrimitiveTest, I/V Sweep
TestParameter, Context.MainFrame, B1500A
TestParameter, Channel.UnitType, SMU, SMU, SMU, SMU
TestParameter, Channel.Unit, SMU1:HP, SMU2:MP, SMU3:MP, SMU4:MP
TestParameter, Channel.IName, I, IDD1, IDD2, II
TestParameter, Channel.VName, V, VDD1, VDD2, VV
TestParameter, Channel.Mode, V, V, V, V
TestParameter, Channel.Func, VAR1, CONST, CONST, CONST
TestParameter, Channel.Index, 
TestParameter, Channel.Time, 
TestParameter, Measurement.Port.Unit, SMU1:HP, SMU2:MP, SMU3:MP, SMU4:MP
TestParameter, Measurement.Port.SeriesResistor, NONE, NONE, NONE, NONE
TestParameter, Measurement.Port.Filter, ON, ON, ON, ON
TestParameter, Measurement.Port.OutputVoltageComparison, 0, 0, 0, 0
TestParameter, Measurement.Primary.Locus, Single
TestParameter, Measurement.Primary.Scale, LINEAR
TestParameter, Measurement.Primary.Start, -2
TestParameter, Measurement.Primary.Stop, 2
TestParameter, Measurement.Primary.Step, 0.04
TestParameter, Measurement.Primary.Compliance, 0.1
TestParameter, Measurement.Primary.PowerCompliance, 0
TestParameter, Measurement.Aborting.Condition, CONTINUE AT ANY
TestParameter, Measurement.PostOutput.Value, START
TestParameter, Measurement.PostOutput.Retention, OFF
TestParameter, Measurement.Bias.Source, -2, 1.8, 1.1, 0
TestParameter, Measurement.Bias.Compliance, 0.1, 0.1, 0.1, 0.1
TestParameter, Measurement.Monitor.Unit, SMU1:HP, SMU2:MP, SMU3:MP, SMU4:MP
TestParameter, Measurement.Monitor.Adc, HR ADC, HR ADC, HR ADC, HR ADC
TestParameter, Measurement.Monitor.Measurement, Compliance Side, Compliance Side, Compliance Side, Compliance Side
TestParameter, Measurement.Monitor.RangingMode, LIMITED, LIMITED, LIMITED, LIMITED
TestParameter, Measurement.Monitor.RangeBoundary, 1nA, 1nA, 1nA, 1nA
TestParameter, Measurement.Monitor.RangeRating, BY FULL RANGE, BY FULL RANGE, BY FULL RANGE, BY FULL RANGE
TestParameter, Measurement.Monitor.RangeRatingCoeff, 50, 50, 50, 50
TestParameter, Measurement.Timing.Hold, 0
TestParameter, Measurement.Timing.Delay, 0
TestParameter, Measurement.Adc.HighSpeed.Mode, AUTO
TestParameter, Measurement.Adc.HighSpeed.Coeff, 1
TestParameter, Measurement.Adc.HighResolution.AutoZero, OFF
TestParameter, Measurement.Adc.HighResolution.Mode, AUTO
TestParameter, Measurement.Adc.HighResolution.Coeff, 6
TestParameter, Measurement.WaitTime.Source.Coeff, 1
TestParameter, Measurement.WaitTime.Source.Offset, 0
TestParameter, Measurement.WaitTime.Monitor.Coeff, 1
TestParameter, Measurement.WaitTime.Monitor.Offset, 0
TestParameter, Output.Graph.Enabled, true
TestParameter, Output.Graph.AutoScaling, false
TestParameter, Output.Graph.XAxis.Data, V
TestParameter, Output.Graph.XAxis.Scale, Linear
TestParameter, Output.Graph.XAxis.Left, -2
TestParameter, Output.Graph.XAxis.Right, 2
TestParameter, Output.Graph.XAxis.RunTimeAutoScale, true
TestParameter, Output.Graph.YAxis.Data, I
TestParameter, Output.Graph.YAxis.Scale, Linear
TestParameter, Output.Graph.YAxis.Bottom, -0.1
TestParameter, Output.Graph.YAxis.Top, 0.1
TestParameter, Output.Graph.YAxis.Group, 
TestParameter, Output.Graph.YAxis.RunTimeAutoScale, true
TestParameter, AutoAnalysis.Interpolation, false
TestParameter, AutoAnalysis.Var2StepCount, 1
TestParameter, AutoAnalysis.Var2StepScript, 
TestParameter, AutoAnalysis.Line1.Enabled, false
TestParameter, AutoAnalysis.Line1.Type, 1
TestParameter, AutoAnalysis.Line1.Fix, True
TestParameter, AutoAnalysis.Line1.YAxis, 0
TestParameter, AutoAnalysis.Line1.Point1.Type, 0
TestParameter, AutoAnalysis.Line1.Point1.XY.X, 
TestParameter, AutoAnalysis.Line1.Point1.XY.Y, 
TestParameter, AutoAnalysis.Line1.Point1.Data.Var, 
TestParameter, AutoAnalysis.Line1.Point1.Data.Condition, 
TestParameter, AutoAnalysis.Line1.Point1.Data.Start, false
TestParameter, AutoAnalysis.Line1.Point1.Data.StartVar, 
TestParameter, AutoAnalysis.Line1.Point1.Data.StartCondition, 
TestParameter, AutoAnalysis.Line1.Point2.Type, 0
TestParameter, AutoAnalysis.Line1.Point2.XY.X, 
TestParameter, AutoAnalysis.Line1.Point2.XY.Y, 
TestParameter, AutoAnalysis.Line1.Point2.Data.Var, 
TestParameter, AutoAnalysis.Line1.Point2.Data.Condition, 
TestParameter, AutoAnalysis.Line1.Point2.Data.Start, false
TestParameter, AutoAnalysis.Line1.Point2.Data.StartVar, 
TestParameter, AutoAnalysis.Line1.Point2.Data.StartCondition, 
TestParameter, AutoAnalysis.Line1.GradientExpr, 0
TestParameter, AutoAnalysis.Line2.Enabled, false
TestParameter, AutoAnalysis.Line2.Type, 1
TestParameter, AutoAnalysis.Line2.Fix, True
TestParameter, AutoAnalysis.Line2.YAxis, 0
TestParameter, AutoAnalysis.Line2.Point1.Type, 0
TestParameter, AutoAnalysis.Line2.Point1.XY.X, 
TestParameter, AutoAnalysis.Line2.Point1.XY.Y, 
TestParameter, AutoAnalysis.Line2.Point1.Data.Var, 
TestParameter, AutoAnalysis.Line2.Point1.Data.Condition, 
TestParameter, AutoAnalysis.Line2.Point1.Data.Start, false
TestParameter, AutoAnalysis.Line2.Point1.Data.StartVar, 
TestParameter, AutoAnalysis.Line2.Point1.Data.StartCondition, 
TestParameter, AutoAnalysis.Line2.Point2.Type, 0
TestParameter, AutoAnalysis.Line2.Point2.XY.X, 
TestParameter, AutoAnalysis.Line2.Point2.XY.Y, 
TestParameter, AutoAnalysis.Line2.Point2.Data.Var, 
TestParameter, AutoAnalysis.Line2.Point2.Data.Condition, 
TestParameter, AutoAnalysis.Line2.Point2.Data.Start, false
TestParameter, AutoAnalysis.Line2.Point2.Data.StartVar, 
TestParameter, AutoAnalysis.Line2.Point2.Data.StartCondition, 
TestParameter, AutoAnalysis.Line2.GradientExpr, 0
TestParameter, AutoAnalysis.Marker.Enabled, false
TestParameter, AutoAnalysis.Marker.Data.Var, 
TestParameter, AutoAnalysis.Marker.Data.Condition, 
TestParameter, AutoAnalysis.Marker.Data.Start, false
TestParameter, AutoAnalysis.Marker.Data.StartVar, 
TestParameter, AutoAnalysis.Marker.Data.StartCondition, 
MetaData, TestRecord.EntryPoint, true
MetaData, TestRecord.RecordTime, 10/19/2022 16:15:08
MetaData, TestRecord.TestTarget, 
MetaData, TestRecord.IterationIndex, 160
MetaData, TestRecord.Preservation, true
MetaData, TestRecord.Flag, 
MetaData, TestRecord.Remarks, 
MetaData, TestRecord.LinkKey, 7f535007-ccf0-4746-9a0a-3570568fbb0f
MetaData, TestRecord.Parameters, 
Dimension1, 101, 101
Dimension2, 1, 1
DataName, V, I
DataValue, -2, -0.0027376
DataValue, -1.9600000000000002, -0.0023944
DataValue, -1.9200000000000002, -0.0020702
DataValue, -1.8800000000000001, -0.0017678000000000001
DataValue, -1.84, -0.0014886
DataValue, -1.8, -0.001237
DataValue, -1.76, -0.0010132000000000001
DataValue, -1.72, -0.00081732000000000007
DataValue, -1.6800000000000002, -0.00064878000000000006
DataValue, -1.6400000000000001, -0.00050686
DataValue, -1.6, -0.00038984
DataValue, -1.56, -0.00029578000000000004
DataValue, -1.52, -0.0002211
DataValue, -1.48, -0.00016246
DataValue, -1.4400000000000002, -0.00011772
DataValue, -1.4000000000000001, -8.4484E-05
DataValue, -1.36, -5.916E-05
DataValue, -1.32, -4.1314000000000005E-05
DataValue, -1.28, -2.837E-05
DataValue, -1.24, -1.8992E-05
DataValue, -1.2, -1.2536E-05
DataValue, -1.1600000000000001, -8.5178000000000017E-06
DataValue, -1.12, -5.3810000000000007E-06
DataValue, -1.08, -3.6481000000000003E-06
DataValue, -1.04, -2.6053000000000003E-06
DataValue, -1, -1.5703000000000002E-06
DataValue, -0.96000000000000008, -1.3600000000000001E-06
DataValue, -0.92, -8.7088E-07
DataValue, -0.88, -5.7706E-07
DataValue, -0.84000000000000008, -5.7408E-07
DataValue, -0.8, -2.5948E-07
DataValue, -0.76, -1.9778E-07
DataValue, -0.72000000000000008, -2.9174E-07
DataValue, -0.68, -2.2274E-07
DataValue, -0.64, -1.2962E-07
DataValue, -0.6, -1.4754E-07
DataValue, -0.56, -2.466E-07
DataValue, -0.52, -1.3026E-07
DataValue, -0.48000000000000004, -4.5902E-07
DataValue, -0.44, -2.9886E-07
DataValue, -0.4, -1.808E-07
DataValue, -0.36000000000000004, -3.7804E-07
DataValue, -0.32, -2.4736E-07
DataValue, -0.28, -1.5194E-07
DataValue, -0.24000000000000002, -2.9212E-07
DataValue, -0.2, -2.4036E-07
DataValue, -0.16, -1.2268E-07
DataValue, -0.12000000000000001, -2.0668E-07
DataValue, -0.08, -1.461E-07
DataValue, -0.04, -1.4338E-07
DataValue, 0, -7.6725199999999991E-08
DataValue, 0.04, -3.29562E-08
DataValue, 0.08, -2.67584E-08
DataValue, 0.12000000000000001, -9.8893999999999985E-09
DataValue, 0.16, -4.1487999999999996E-09
DataValue, 0.2, 3.59486E-08
DataValue, 0.24000000000000002, 4.8283599999999996E-08
DataValue, 0.28, 1.2958E-07
DataValue, 0.32, 4.1571999999999997E-07
DataValue, 0.36000000000000004, 8.1484E-07
DataValue, 0.4, 8.1593999999999993E-07
DataValue, 0.44, 1.2399000000000002E-06
DataValue, 0.48000000000000004, 2.4446000000000003E-06
DataValue, 0.52, 6.2980000000000005E-06
DataValue, 0.56, 1.9188E-05
DataValue, 0.6, 6.1780000000000008E-05
DataValue, 0.64, 0.00017278
DataValue, 0.68, 0.00041082
DataValue, 0.72000000000000008, 0.0008128
DataValue, 0.76, 0.0013596
DataValue, 0.8, 0.0020184
DataValue, 0.84000000000000008, 0.002755
DataValue, 0.88, 0.0035534
DataValue, 0.92, 0.0043934
DataValue, 0.96000000000000008, 0.0052710000000000005
DataValue, 1, 0.0061778
DataValue, 1.04, 0.0071148
DataValue, 1.08, 0.0080794
DataValue, 1.12, 0.009063
DataValue, 1.1600000000000001, 0.0101452
DataValue, 1.2, 0.0111606
DataValue, 1.24, 0.012238
DataValue, 1.28, 0.013262000000000001
DataValue, 1.32, 0.014570000000000001
DataValue, 1.36, 0.015602000000000001
DataValue, 1.4000000000000001, 0.016686000000000003
DataValue, 1.4400000000000002, 0.017968
DataValue, 1.48, 0.019336000000000002
DataValue, 1.52, 0.021052
DataValue, 1.56, 0.022638000000000002
DataValue, 1.6, 0.024220000000000002
DataValue, 1.6400000000000001, 0.025896000000000002
DataValue, 1.6800000000000002, 0.027534000000000003
DataValue, 1.72, 0.030046000000000003
DataValue, 1.76, 0.033266000000000004
DataValue, 1.8, 0.034718000000000006
DataValue, 1.84, 0.038364
DataValue, 1.8800000000000001, 0.040304000000000006
DataValue, 1.9200000000000002, 0.042422
DataValue, 1.9600000000000002, 0.045378
DataValue, 2, 0.048448000000000005