
SetupTitle, I/V Sweep
PrimitiveTest, I/V Sweep
TestParameter, Context.MainFrame, B1500A
TestParameter, Channel.UnitType, SMU, SMU, SMU, SMU, SMU
TestParameter, Channel.Unit, SMU1:HP, SMU2:MP, SMU3:MP, SMU4:MP, SMU5:MP
TestParameter, Channel.IName, I, IDD1, IDD2, ISS, IPP
TestParameter, Channel.VName, V, VDD1, VDD2, VSS, VPP
TestParameter, Channel.Mode, V, V, V, V, V
TestParameter, Channel.Func, CONST, VAR1, CONST, CONST, CONST
TestParameter, Channel.Index, 
TestParameter, Channel.Time, 
TestParameter, Measurement.Port.Unit, SMU1:HP, SMU2:MP, SMU3:MP, SMU4:MP, SMU5:MP
TestParameter, Measurement.Port.SeriesResistor, NONE, NONE, NONE, NONE, NONE
TestParameter, Measurement.Port.Filter, ON, ON, ON, ON, ON
TestParameter, Measurement.Port.OutputVoltageComparison, 0, 0, 0, 0, 0
TestParameter, Measurement.Primary.Locus, Single
TestParameter, Measurement.Primary.Scale, LINEAR
TestParameter, Measurement.Primary.Start, -2
TestParameter, Measurement.Primary.Stop, 2
TestParameter, Measurement.Primary.Step, 0.04
TestParameter, Measurement.Primary.Compliance, 0.1
TestParameter, Measurement.Primary.PowerCompliance, 0
TestParameter, Measurement.Aborting.Condition, CONTINUE AT ANY
TestParameter, Measurement.PostOutput.Value, START
TestParameter, Measurement.PostOutput.Retention, OFF
TestParameter, Measurement.Bias.Source, -2, -2, 1.1, 0, 0
TestParameter, Measurement.Bias.Compliance, 0.1, 0.1, 0.1, 0.1, 0.1
TestParameter, Measurement.Monitor.Unit, SMU1:HP, SMU2:MP, SMU3:MP, SMU4:MP, SMU5:MP
TestParameter, Measurement.Monitor.Adc, HR ADC, HR ADC, HR ADC, HR ADC, HR ADC
TestParameter, Measurement.Monitor.Measurement, Compliance Side, Compliance Side, Compliance Side, Compliance Side, Compliance Side
TestParameter, Measurement.Monitor.RangingMode, LIMITED, LIMITED, LIMITED, LIMITED, LIMITED
TestParameter, Measurement.Monitor.RangeBoundary, 1nA, 1nA, 1nA, 1nA, 1nA
TestParameter, Measurement.Monitor.RangeRating, BY FULL RANGE, BY FULL RANGE, BY FULL RANGE, BY FULL RANGE, BY FULL RANGE
TestParameter, Measurement.Monitor.RangeRatingCoeff, 50, 50, 50, 50, 50
TestParameter, Measurement.Timing.Hold, 0
TestParameter, Measurement.Timing.Delay, 0
TestParameter, Measurement.Adc.HighSpeed.Mode, AUTO
TestParameter, Measurement.Adc.HighSpeed.Coeff, 1
TestParameter, Measurement.Adc.HighResolution.AutoZero, OFF
TestParameter, Measurement.Adc.HighResolution.Mode, AUTO
TestParameter, Measurement.Adc.HighResolution.Coeff, 6
TestParameter, Measurement.WaitTime.Source.Coeff, 1
TestParameter, Measurement.WaitTime.Source.Offset, 0
TestParameter, Measurement.WaitTime.Monitor.Coeff, 1
TestParameter, Measurement.WaitTime.Monitor.Offset, 0
TestParameter, Output.Graph.Enabled, true
TestParameter, Output.Graph.AutoScaling, false
TestParameter, Output.Graph.XAxis.Data, VDD1
TestParameter, Output.Graph.XAxis.Scale, Linear
TestParameter, Output.Graph.XAxis.Left, -2
TestParameter, Output.Graph.XAxis.Right, 2
TestParameter, Output.Graph.XAxis.RunTimeAutoScale, true
TestParameter, Output.Graph.YAxis.Data, IDD1
TestParameter, Output.Graph.YAxis.Scale, Linear
TestParameter, Output.Graph.YAxis.Bottom, -0.1
TestParameter, Output.Graph.YAxis.Top, 0.1
TestParameter, Output.Graph.YAxis.Group, 
TestParameter, Output.Graph.YAxis.RunTimeAutoScale, true
TestParameter, AutoAnalysis.Interpolation, false
TestParameter, AutoAnalysis.Var2StepCount, 1
TestParameter, AutoAnalysis.Var2StepScript, 
TestParameter, AutoAnalysis.Line1.Enabled, false
TestParameter, AutoAnalysis.Line1.Type, 1
TestParameter, AutoAnalysis.Line1.Fix, True
TestParameter, AutoAnalysis.Line1.YAxis, 0
TestParameter, AutoAnalysis.Line1.Point1.Type, 0
TestParameter, AutoAnalysis.Line1.Point1.XY.X, 
TestParameter, AutoAnalysis.Line1.Point1.XY.Y, 
TestParameter, AutoAnalysis.Line1.Point1.Data.Var, 
TestParameter, AutoAnalysis.Line1.Point1.Data.Condition, 
TestParameter, AutoAnalysis.Line1.Point1.Data.Start, false
TestParameter, AutoAnalysis.Line1.Point1.Data.StartVar, 
TestParameter, AutoAnalysis.Line1.Point1.Data.StartCondition, 
TestParameter, AutoAnalysis.Line1.Point2.Type, 0
TestParameter, AutoAnalysis.Line1.Point2.XY.X, 
TestParameter, AutoAnalysis.Line1.Point2.XY.Y, 
TestParameter, AutoAnalysis.Line1.Point2.Data.Var, 
TestParameter, AutoAnalysis.Line1.Point2.Data.Condition, 
TestParameter, AutoAnalysis.Line1.Point2.Data.Start, false
TestParameter, AutoAnalysis.Line1.Point2.Data.StartVar, 
TestParameter, AutoAnalysis.Line1.Point2.Data.StartCondition, 
TestParameter, AutoAnalysis.Line1.GradientExpr, 0
TestParameter, AutoAnalysis.Line2.Enabled, false
TestParameter, AutoAnalysis.Line2.Type, 1
TestParameter, AutoAnalysis.Line2.Fix, True
TestParameter, AutoAnalysis.Line2.YAxis, 0
TestParameter, AutoAnalysis.Line2.Point1.Type, 0
TestParameter, AutoAnalysis.Line2.Point1.XY.X, 
TestParameter, AutoAnalysis.Line2.Point1.XY.Y, 
TestParameter, AutoAnalysis.Line2.Point1.Data.Var, 
TestParameter, AutoAnalysis.Line2.Point1.Data.Condition, 
TestParameter, AutoAnalysis.Line2.Point1.Data.Start, false
TestParameter, AutoAnalysis.Line2.Point1.Data.StartVar, 
TestParameter, AutoAnalysis.Line2.Point1.Data.StartCondition, 
TestParameter, AutoAnalysis.Line2.Point2.Type, 0
TestParameter, AutoAnalysis.Line2.Point2.XY.X, 
TestParameter, AutoAnalysis.Line2.Point2.XY.Y, 
TestParameter, AutoAnalysis.Line2.Point2.Data.Var, 
TestParameter, AutoAnalysis.Line2.Point2.Data.Condition, 
TestParameter, AutoAnalysis.Line2.Point2.Data.Start, false
TestParameter, AutoAnalysis.Line2.Point2.Data.StartVar, 
TestParameter, AutoAnalysis.Line2.Point2.Data.StartCondition, 
TestParameter, AutoAnalysis.Line2.GradientExpr, 0
TestParameter, AutoAnalysis.Marker.Enabled, false
TestParameter, AutoAnalysis.Marker.Data.Var, 
TestParameter, AutoAnalysis.Marker.Data.Condition, 
TestParameter, AutoAnalysis.Marker.Data.Start, false
TestParameter, AutoAnalysis.Marker.Data.StartVar, 
TestParameter, AutoAnalysis.Marker.Data.StartCondition, 
MetaData, TestRecord.EntryPoint, true
MetaData, TestRecord.RecordTime, 10/19/2022 14:12:18
MetaData, TestRecord.TestTarget, 
MetaData, TestRecord.IterationIndex, 413
MetaData, TestRecord.Preservation, true
MetaData, TestRecord.Flag, 
MetaData, TestRecord.Remarks, 
MetaData, TestRecord.LinkKey, 472a6280-3a61-48f8-b41a-c3ecab10ca20
MetaData, TestRecord.Parameters, 
Dimension1, 101, 101
Dimension2, 1, 1
DataName, VDD1, IDD1
DataValue, -2, -0.0025728
DataValue, -1.9600000000000002, -0.002326
DataValue, -1.9200000000000002, -0.0020878
DataValue, -1.8800000000000001, -0.0018592
DataValue, -1.84, -0.0016394
DataValue, -1.8, -0.0014312
DataValue, -1.76, -0.0012344
DataValue, -1.72, -0.0010504
DataValue, -1.6800000000000002, -0.00088048000000000011
DataValue, -1.6400000000000001, -0.00072494000000000009
DataValue, -1.6, -0.00058566
DataValue, -1.56, -0.0004621
DataValue, -1.52, -0.00035552
DataValue, -1.48, -0.00026606000000000004
DataValue, -1.4400000000000002, -0.00019292000000000002
DataValue, -1.4000000000000001, -0.00013562
DataValue, -1.36, -9.2872E-05
DataValue, -1.32, -6.208E-05
DataValue, -1.28, -4.0770000000000004E-05
DataValue, -1.24, -2.661E-05
DataValue, -1.2, -1.7232E-05
DataValue, -1.1600000000000001, -1.1050000000000001E-05
DataValue, -1.12, -7.2233000000000008E-06
DataValue, -1.08, -4.692E-06
DataValue, -1.04, -3.0207E-06
DataValue, -1, -2.1173E-06
DataValue, -0.96000000000000008, -1.4712000000000002E-06
DataValue, -0.92, -1.0627799999999999E-06
DataValue, -0.88, -7.2824E-07
DataValue, -0.84000000000000008, -4.794E-07
DataValue, -0.8, -2.88E-07
DataValue, -0.76, -2.6484E-07
DataValue, -0.72000000000000008, -2.5182E-07
DataValue, -0.68, -1.5054E-07
DataValue, -0.64, -3.4404E-07
DataValue, -0.6, -1.6518E-07
DataValue, -0.56, -2.6772E-07
DataValue, -0.52, -2.6648E-07
DataValue, -0.48000000000000004, -1.1802E-07
DataValue, -0.44, -2.069E-07
DataValue, -0.4, -1.1492E-07
DataValue, -0.36000000000000004, -1.5813999999999999E-07
DataValue, -0.32, -1.9006E-07
DataValue, -0.28, -1.2676E-07
DataValue, -0.24000000000000002, -6.31866E-08
DataValue, -0.2, -6.0285E-08
DataValue, -0.16, -3.8812799999999994E-08
DataValue, -0.12000000000000001, -3.3442599999999995E-08
DataValue, -0.08, -3.0764199999999994E-08
DataValue, -0.04, 4.5918E-09
DataValue, 0, -1.8894799999999997E-08
DataValue, 0.04, 1.85704E-08
DataValue, 0.08, 3.75794E-08
DataValue, 0.12000000000000001, 4.9800799999999993E-08
DataValue, 0.16, 8.46868E-08
DataValue, 0.2, 1.1945999999999999E-07
DataValue, 0.24000000000000002, 2.131E-07
DataValue, 0.28, 3.2516E-07
DataValue, 0.32, 4.5544E-07
DataValue, 0.36000000000000004, 4.7726E-07
DataValue, 0.4, 5.4322E-07
DataValue, 0.44, 6.0244E-07
DataValue, 0.48000000000000004, 6.0494E-07
DataValue, 0.52, 6.7788E-07
DataValue, 0.56, 9.2926E-07
DataValue, 0.6, 3.4176000000000005E-06
DataValue, 0.64, 1.497E-05
DataValue, 0.68, 3.671E-05
DataValue, 0.72000000000000008, 8.5230000000000009E-05
DataValue, 0.76, 0.00020356
DataValue, 0.8, 0.00040726
DataValue, 0.84000000000000008, 0.00067998000000000006
DataValue, 0.88, 0.000998
DataValue, 0.92, 0.0013438
DataValue, 0.96000000000000008, 0.0017098
DataValue, 1, 0.0020872
DataValue, 1.04, 0.0024752
DataValue, 1.08, 0.00287
DataValue, 1.12, 0.00327
DataValue, 1.1600000000000001, 0.003676
DataValue, 1.2, 0.004084
DataValue, 1.24, 0.004496
DataValue, 1.28, 0.0049096
DataValue, 1.32, 0.005326
DataValue, 1.36, 0.0057464000000000005
DataValue, 1.4000000000000001, 0.0061664
DataValue, 1.4400000000000002, 0.0065904
DataValue, 1.48, 0.0070154
DataValue, 1.52, 0.0074426
DataValue, 1.56, 0.0078734000000000009
DataValue, 1.6, 0.0083038
DataValue, 1.6400000000000001, 0.0087318
DataValue, 1.6800000000000002, 0.0091642
DataValue, 1.72, 0.0095978
DataValue, 1.76, 0.010035
DataValue, 1.8, 0.010476000000000001
DataValue, 1.84, 0.010922
DataValue, 1.8800000000000001, 0.0113664
DataValue, 1.9200000000000002, 0.011840000000000002
DataValue, 1.9600000000000002, 0.012286000000000002
DataValue, 2, 0.012732