
SetupTitle, I/V Sweep
PrimitiveTest, I/V Sweep
TestParameter, Context.MainFrame, B1500A
TestParameter, Channel.UnitType, SMU, SMU, SMU, SMU, SMU
TestParameter, Channel.Unit, SMU1:HP, SMU2:MP, SMU3:MP, SMU4:MP, SMU5:MP
TestParameter, Channel.IName, I, IDD1, IDD2, ISS, IPP
TestParameter, Channel.VName, V, VDD1, VDD2, VSS, VPP
TestParameter, Channel.Mode, V, V, V, V, V
TestParameter, Channel.Func, VAR1, CONST, CONST, CONST, CONST
TestParameter, Channel.Index, 
TestParameter, Channel.Time, 
TestParameter, Measurement.Port.Unit, SMU1:HP, SMU2:MP, SMU3:MP, SMU4:MP, SMU5:MP
TestParameter, Measurement.Port.SeriesResistor, NONE, NONE, NONE, NONE, NONE
TestParameter, Measurement.Port.Filter, ON, ON, ON, ON, ON
TestParameter, Measurement.Port.OutputVoltageComparison, 0, 0, 0, 0, 0
TestParameter, Measurement.Primary.Locus, Single
TestParameter, Measurement.Primary.Scale, LINEAR
TestParameter, Measurement.Primary.Start, -2
TestParameter, Measurement.Primary.Stop, 2
TestParameter, Measurement.Primary.Step, 0.04
TestParameter, Measurement.Primary.Compliance, 0.1
TestParameter, Measurement.Primary.PowerCompliance, 0
TestParameter, Measurement.Aborting.Condition, CONTINUE AT ANY
TestParameter, Measurement.PostOutput.Value, START
TestParameter, Measurement.PostOutput.Retention, OFF
TestParameter, Measurement.Bias.Source, -2, 1.8, 1.1, 0, 0
TestParameter, Measurement.Bias.Compliance, 0.1, 0.1, 0.1, 0.1, 0.1
TestParameter, Measurement.Monitor.Unit, SMU1:HP, SMU2:MP, SMU3:MP, SMU4:MP, SMU5:MP
TestParameter, Measurement.Monitor.Adc, HR ADC, HR ADC, HR ADC, HR ADC, HR ADC
TestParameter, Measurement.Monitor.Measurement, Compliance Side, Compliance Side, Compliance Side, Compliance Side, Compliance Side
TestParameter, Measurement.Monitor.RangingMode, LIMITED, LIMITED, LIMITED, LIMITED, LIMITED
TestParameter, Measurement.Monitor.RangeBoundary, 1nA, 1nA, 1nA, 1nA, 1nA
TestParameter, Measurement.Monitor.RangeRating, BY FULL RANGE, BY FULL RANGE, BY FULL RANGE, BY FULL RANGE, BY FULL RANGE
TestParameter, Measurement.Monitor.RangeRatingCoeff, 50, 50, 50, 50, 50
TestParameter, Measurement.Timing.Hold, 0
TestParameter, Measurement.Timing.Delay, 0
TestParameter, Measurement.Adc.HighSpeed.Mode, AUTO
TestParameter, Measurement.Adc.HighSpeed.Coeff, 1
TestParameter, Measurement.Adc.HighResolution.AutoZero, OFF
TestParameter, Measurement.Adc.HighResolution.Mode, AUTO
TestParameter, Measurement.Adc.HighResolution.Coeff, 6
TestParameter, Measurement.WaitTime.Source.Coeff, 1
TestParameter, Measurement.WaitTime.Source.Offset, 0
TestParameter, Measurement.WaitTime.Monitor.Coeff, 1
TestParameter, Measurement.WaitTime.Monitor.Offset, 0
TestParameter, Output.Graph.Enabled, true
TestParameter, Output.Graph.AutoScaling, false
TestParameter, Output.Graph.XAxis.Data, V
TestParameter, Output.Graph.XAxis.Scale, Linear
TestParameter, Output.Graph.XAxis.Left, -2
TestParameter, Output.Graph.XAxis.Right, 2
TestParameter, Output.Graph.XAxis.RunTimeAutoScale, true
TestParameter, Output.Graph.YAxis.Data, I
TestParameter, Output.Graph.YAxis.Scale, Linear
TestParameter, Output.Graph.YAxis.Bottom, -0.1
TestParameter, Output.Graph.YAxis.Top, 0.1
TestParameter, Output.Graph.YAxis.Group, 
TestParameter, Output.Graph.YAxis.RunTimeAutoScale, true
TestParameter, AutoAnalysis.Interpolation, false
TestParameter, AutoAnalysis.Var2StepCount, 1
TestParameter, AutoAnalysis.Var2StepScript, 
TestParameter, AutoAnalysis.Line1.Enabled, false
TestParameter, AutoAnalysis.Line1.Type, 1
TestParameter, AutoAnalysis.Line1.Fix, True
TestParameter, AutoAnalysis.Line1.YAxis, 0
TestParameter, AutoAnalysis.Line1.Point1.Type, 0
TestParameter, AutoAnalysis.Line1.Point1.XY.X, 
TestParameter, AutoAnalysis.Line1.Point1.XY.Y, 
TestParameter, AutoAnalysis.Line1.Point1.Data.Var, 
TestParameter, AutoAnalysis.Line1.Point1.Data.Condition, 
TestParameter, AutoAnalysis.Line1.Point1.Data.Start, false
TestParameter, AutoAnalysis.Line1.Point1.Data.StartVar, 
TestParameter, AutoAnalysis.Line1.Point1.Data.StartCondition, 
TestParameter, AutoAnalysis.Line1.Point2.Type, 0
TestParameter, AutoAnalysis.Line1.Point2.XY.X, 
TestParameter, AutoAnalysis.Line1.Point2.XY.Y, 
TestParameter, AutoAnalysis.Line1.Point2.Data.Var, 
TestParameter, AutoAnalysis.Line1.Point2.Data.Condition, 
TestParameter, AutoAnalysis.Line1.Point2.Data.Start, false
TestParameter, AutoAnalysis.Line1.Point2.Data.StartVar, 
TestParameter, AutoAnalysis.Line1.Point2.Data.StartCondition, 
TestParameter, AutoAnalysis.Line1.GradientExpr, 0
TestParameter, AutoAnalysis.Line2.Enabled, false
TestParameter, AutoAnalysis.Line2.Type, 1
TestParameter, AutoAnalysis.Line2.Fix, True
TestParameter, AutoAnalysis.Line2.YAxis, 0
TestParameter, AutoAnalysis.Line2.Point1.Type, 0
TestParameter, AutoAnalysis.Line2.Point1.XY.X, 
TestParameter, AutoAnalysis.Line2.Point1.XY.Y, 
TestParameter, AutoAnalysis.Line2.Point1.Data.Var, 
TestParameter, AutoAnalysis.Line2.Point1.Data.Condition, 
TestParameter, AutoAnalysis.Line2.Point1.Data.Start, false
TestParameter, AutoAnalysis.Line2.Point1.Data.StartVar, 
TestParameter, AutoAnalysis.Line2.Point1.Data.StartCondition, 
TestParameter, AutoAnalysis.Line2.Point2.Type, 0
TestParameter, AutoAnalysis.Line2.Point2.XY.X, 
TestParameter, AutoAnalysis.Line2.Point2.XY.Y, 
TestParameter, AutoAnalysis.Line2.Point2.Data.Var, 
TestParameter, AutoAnalysis.Line2.Point2.Data.Condition, 
TestParameter, AutoAnalysis.Line2.Point2.Data.Start, false
TestParameter, AutoAnalysis.Line2.Point2.Data.StartVar, 
TestParameter, AutoAnalysis.Line2.Point2.Data.StartCondition, 
TestParameter, AutoAnalysis.Line2.GradientExpr, 0
TestParameter, AutoAnalysis.Marker.Enabled, false
TestParameter, AutoAnalysis.Marker.Data.Var, 
TestParameter, AutoAnalysis.Marker.Data.Condition, 
TestParameter, AutoAnalysis.Marker.Data.Start, false
TestParameter, AutoAnalysis.Marker.Data.StartVar, 
TestParameter, AutoAnalysis.Marker.Data.StartCondition, 
MetaData, TestRecord.EntryPoint, true
MetaData, TestRecord.RecordTime, 10/19/2022 14:24:05
MetaData, TestRecord.TestTarget, 
MetaData, TestRecord.IterationIndex, 437
MetaData, TestRecord.Preservation, true
MetaData, TestRecord.Flag, 
MetaData, TestRecord.Remarks, 
MetaData, TestRecord.LinkKey, 05c9907d-3291-414f-9640-e0e167178791
MetaData, TestRecord.Parameters, 
Dimension1, 101, 101
Dimension2, 1, 1
DataName, V, I
DataValue, -2, 5.148E-08
DataValue, -1.9600000000000002, -9.692E-08
DataValue, -1.9200000000000002, 6.028E-08
DataValue, -1.8800000000000001, 1.0459599999999999E-08
DataValue, -1.84, 1.2124E-07
DataValue, -1.8, 1.75694E-08
DataValue, -1.76, 7.738E-08
DataValue, -1.72, 2.3837199999999998E-08
DataValue, -1.6800000000000002, 8.192E-08
DataValue, -1.6400000000000001, -4.724E-09
DataValue, -1.6, -5.0936399999999995E-08
DataValue, -1.56, 5.354E-08
DataValue, -1.52, -3.17504E-08
DataValue, -1.48, -2.66E-09
DataValue, -1.4400000000000002, -5.094E-08
DataValue, -1.4000000000000001, 9.686E-08
DataValue, -1.36, 3.32964E-08
DataValue, -1.32, 9.8759999999999992E-08
DataValue, -1.28, 3.13512E-08
DataValue, -1.24, -8.2559999999999993E-08
DataValue, -1.2, 4.4559999999999997E-08
DataValue, -1.1600000000000001, 2.0692599999999997E-08
DataValue, -1.12, 1.3974E-07
DataValue, -1.08, 4.65784E-08
DataValue, -1.04, 9.864E-08
DataValue, -1, 3.2743E-08
DataValue, -0.96000000000000008, 8.812E-08
DataValue, -0.92, 4.9013E-08
DataValue, -0.88, 5.2578799999999993E-08
DataValue, -0.84000000000000008, 3.40756E-08
DataValue, -0.8, 8.616E-08
DataValue, -0.76, 1.7655399999999997E-08
DataValue, -0.72000000000000008, 1.2496E-07
DataValue, -0.68, -4.43E-08
DataValue, -0.64, -5.5142E-09
DataValue, -0.6, 2.2279599999999997E-08
DataValue, -0.56, 1.4158E-07
DataValue, -0.52, 4.3949399999999994E-08
DataValue, -0.48000000000000004, 7.688E-08
DataValue, -0.44, -6.442E-08
DataValue, -0.4, -1.8651999999999997E-08
DataValue, -0.36000000000000004, 1.5277E-08
DataValue, -0.32, 4.8539999999999997E-08
DataValue, -0.28, 8.890399999999999E-09
DataValue, -0.24000000000000002, 8.532E-08
DataValue, -0.2, 2.8125199999999996E-08
DataValue, -0.16, 1.1674E-07
DataValue, -0.12000000000000001, 4.8918999999999996E-08
DataValue, -0.08, 1.136E-07
DataValue, -0.04, 3.5036199999999994E-08
DataValue, 0, 1.1922E-07
DataValue, 0.04, 4.8088999999999995E-08
DataValue, 0.08, 9.812E-08
DataValue, 0.12000000000000001, 3.00414E-08
DataValue, 0.16, 9.522E-08
DataValue, 0.2, -4.728E-08
DataValue, 0.24000000000000002, 7.36E-11
DataValue, 0.28, 1.7842599999999998E-08
DataValue, 0.32, 1.282E-07
DataValue, 0.36000000000000004, 3.6133599999999996E-08
DataValue, 0.4, 8.884E-08
DataValue, 0.44, -4.492E-08
DataValue, 0.48000000000000004, -1.1276E-08
DataValue, 0.52, 6.7408E-09
DataValue, 0.56, 5.18E-08
DataValue, 0.6, -3.1339999999999997E-09
DataValue, 0.64, 4.304E-08
DataValue, 0.68, 3.1907999999999998E-09
DataValue, 0.72000000000000008, 4.714E-08
DataValue, 0.76, 7.328999999999999E-09
DataValue, 0.8, 7.8439999999999993E-08
DataValue, 0.84000000000000008, 2.4513199999999997E-08
DataValue, 0.88, 1.3032E-07
DataValue, 0.92, 4.8040399999999994E-08
DataValue, 0.96000000000000008, 1.0584E-07
DataValue, 1, 3.26526E-08
DataValue, 1.04, 9.578E-08
DataValue, 1.08, 3.25356E-08
DataValue, 1.12, 9.542E-08
DataValue, 1.1600000000000001, 3.2738399999999994E-08
DataValue, 1.2, 8.93E-08
DataValue, 1.24, 2.2726799999999998E-08
DataValue, 1.28, 9.346E-08
DataValue, 1.32, 4.1687999999999996E-08
DataValue, 1.36, 7.414E-08
DataValue, 1.4000000000000001, -8.07E-08
DataValue, 1.4400000000000002, 8.9E-08
DataValue, 1.48, 3.874E-08
DataValue, 1.52, -5.7438799999999992E-08
DataValue, 1.56, -2.04898E-08
DataValue, 1.6, -1.3928E-07
DataValue, 1.6400000000000001, 4.964E-08
DataValue, 1.6800000000000002, 8.783E-09
DataValue, 1.72, 8.65E-08
DataValue, 1.76, 2.9792199999999997E-08
DataValue, 1.8, 8.24E-08
DataValue, 1.84, -8.194E-08
DataValue, 1.8800000000000001, -2.1671999999999997E-08
DataValue, 1.9200000000000002, -1.367E-07
DataValue, 1.9600000000000002, 4.342E-08
DataValue, 2, 2.9066E-09