
SetupTitle, I/V Sweep
PrimitiveTest, I/V Sweep
TestParameter, Context.MainFrame, B1500A
TestParameter, Channel.UnitType, SMU, SMU, SMU, SMU, SMU
TestParameter, Channel.Unit, SMU1:HP, SMU2:MP, SMU3:MP, SMU4:MP, SMU5:MP
TestParameter, Channel.IName, I, IDD1, IDD2, ISS, IPP
TestParameter, Channel.VName, V, VDD1, VDD2, VSS, VPP
TestParameter, Channel.Mode, V, V, V, V, V
TestParameter, Channel.Func, VAR1, CONST, CONST, CONST, CONST
TestParameter, Channel.Index, 
TestParameter, Channel.Time, 
TestParameter, Measurement.Port.Unit, SMU1:HP, SMU2:MP, SMU3:MP, SMU4:MP, SMU5:MP
TestParameter, Measurement.Port.SeriesResistor, NONE, NONE, NONE, NONE, NONE
TestParameter, Measurement.Port.Filter, ON, ON, ON, ON, ON
TestParameter, Measurement.Port.OutputVoltageComparison, 0, 0, 0, 0, 0
TestParameter, Measurement.Primary.Locus, Single
TestParameter, Measurement.Primary.Scale, LINEAR
TestParameter, Measurement.Primary.Start, -2
TestParameter, Measurement.Primary.Stop, 2
TestParameter, Measurement.Primary.Step, 0.04
TestParameter, Measurement.Primary.Compliance, 0.1
TestParameter, Measurement.Primary.PowerCompliance, 0
TestParameter, Measurement.Aborting.Condition, CONTINUE AT ANY
TestParameter, Measurement.PostOutput.Value, START
TestParameter, Measurement.PostOutput.Retention, OFF
TestParameter, Measurement.Bias.Source, -2, 1.8, 1.1, 0, 0
TestParameter, Measurement.Bias.Compliance, 0.1, 0.1, 0.1, 0.1, 0.1
TestParameter, Measurement.Monitor.Unit, SMU1:HP, SMU2:MP, SMU3:MP, SMU4:MP, SMU5:MP
TestParameter, Measurement.Monitor.Adc, HR ADC, HR ADC, HR ADC, HR ADC, HR ADC
TestParameter, Measurement.Monitor.Measurement, Compliance Side, Compliance Side, Compliance Side, Compliance Side, Compliance Side
TestParameter, Measurement.Monitor.RangingMode, LIMITED, LIMITED, LIMITED, LIMITED, LIMITED
TestParameter, Measurement.Monitor.RangeBoundary, 1nA, 1nA, 1nA, 1nA, 1nA
TestParameter, Measurement.Monitor.RangeRating, BY FULL RANGE, BY FULL RANGE, BY FULL RANGE, BY FULL RANGE, BY FULL RANGE
TestParameter, Measurement.Monitor.RangeRatingCoeff, 50, 50, 50, 50, 50
TestParameter, Measurement.Timing.Hold, 0
TestParameter, Measurement.Timing.Delay, 0
TestParameter, Measurement.Adc.HighSpeed.Mode, AUTO
TestParameter, Measurement.Adc.HighSpeed.Coeff, 1
TestParameter, Measurement.Adc.HighResolution.AutoZero, OFF
TestParameter, Measurement.Adc.HighResolution.Mode, AUTO
TestParameter, Measurement.Adc.HighResolution.Coeff, 6
TestParameter, Measurement.WaitTime.Source.Coeff, 1
TestParameter, Measurement.WaitTime.Source.Offset, 0
TestParameter, Measurement.WaitTime.Monitor.Coeff, 1
TestParameter, Measurement.WaitTime.Monitor.Offset, 0
TestParameter, Output.Graph.Enabled, true
TestParameter, Output.Graph.AutoScaling, false
TestParameter, Output.Graph.XAxis.Data, V
TestParameter, Output.Graph.XAxis.Scale, Linear
TestParameter, Output.Graph.XAxis.Left, -2
TestParameter, Output.Graph.XAxis.Right, 2
TestParameter, Output.Graph.XAxis.RunTimeAutoScale, true
TestParameter, Output.Graph.YAxis.Data, I
TestParameter, Output.Graph.YAxis.Scale, Linear
TestParameter, Output.Graph.YAxis.Bottom, -0.1
TestParameter, Output.Graph.YAxis.Top, 0.1
TestParameter, Output.Graph.YAxis.Group, 
TestParameter, Output.Graph.YAxis.RunTimeAutoScale, true
TestParameter, AutoAnalysis.Interpolation, false
TestParameter, AutoAnalysis.Var2StepCount, 1
TestParameter, AutoAnalysis.Var2StepScript, 
TestParameter, AutoAnalysis.Line1.Enabled, false
TestParameter, AutoAnalysis.Line1.Type, 1
TestParameter, AutoAnalysis.Line1.Fix, True
TestParameter, AutoAnalysis.Line1.YAxis, 0
TestParameter, AutoAnalysis.Line1.Point1.Type, 0
TestParameter, AutoAnalysis.Line1.Point1.XY.X, 
TestParameter, AutoAnalysis.Line1.Point1.XY.Y, 
TestParameter, AutoAnalysis.Line1.Point1.Data.Var, 
TestParameter, AutoAnalysis.Line1.Point1.Data.Condition, 
TestParameter, AutoAnalysis.Line1.Point1.Data.Start, false
TestParameter, AutoAnalysis.Line1.Point1.Data.StartVar, 
TestParameter, AutoAnalysis.Line1.Point1.Data.StartCondition, 
TestParameter, AutoAnalysis.Line1.Point2.Type, 0
TestParameter, AutoAnalysis.Line1.Point2.XY.X, 
TestParameter, AutoAnalysis.Line1.Point2.XY.Y, 
TestParameter, AutoAnalysis.Line1.Point2.Data.Var, 
TestParameter, AutoAnalysis.Line1.Point2.Data.Condition, 
TestParameter, AutoAnalysis.Line1.Point2.Data.Start, false
TestParameter, AutoAnalysis.Line1.Point2.Data.StartVar, 
TestParameter, AutoAnalysis.Line1.Point2.Data.StartCondition, 
TestParameter, AutoAnalysis.Line1.GradientExpr, 0
TestParameter, AutoAnalysis.Line2.Enabled, false
TestParameter, AutoAnalysis.Line2.Type, 1
TestParameter, AutoAnalysis.Line2.Fix, True
TestParameter, AutoAnalysis.Line2.YAxis, 0
TestParameter, AutoAnalysis.Line2.Point1.Type, 0
TestParameter, AutoAnalysis.Line2.Point1.XY.X, 
TestParameter, AutoAnalysis.Line2.Point1.XY.Y, 
TestParameter, AutoAnalysis.Line2.Point1.Data.Var, 
TestParameter, AutoAnalysis.Line2.Point1.Data.Condition, 
TestParameter, AutoAnalysis.Line2.Point1.Data.Start, false
TestParameter, AutoAnalysis.Line2.Point1.Data.StartVar, 
TestParameter, AutoAnalysis.Line2.Point1.Data.StartCondition, 
TestParameter, AutoAnalysis.Line2.Point2.Type, 0
TestParameter, AutoAnalysis.Line2.Point2.XY.X, 
TestParameter, AutoAnalysis.Line2.Point2.XY.Y, 
TestParameter, AutoAnalysis.Line2.Point2.Data.Var, 
TestParameter, AutoAnalysis.Line2.Point2.Data.Condition, 
TestParameter, AutoAnalysis.Line2.Point2.Data.Start, false
TestParameter, AutoAnalysis.Line2.Point2.Data.StartVar, 
TestParameter, AutoAnalysis.Line2.Point2.Data.StartCondition, 
TestParameter, AutoAnalysis.Line2.GradientExpr, 0
TestParameter, AutoAnalysis.Marker.Enabled, false
TestParameter, AutoAnalysis.Marker.Data.Var, 
TestParameter, AutoAnalysis.Marker.Data.Condition, 
TestParameter, AutoAnalysis.Marker.Data.Start, false
TestParameter, AutoAnalysis.Marker.Data.StartVar, 
TestParameter, AutoAnalysis.Marker.Data.StartCondition, 
MetaData, TestRecord.EntryPoint, true
MetaData, TestRecord.RecordTime, 10/19/2022 14:28:43
MetaData, TestRecord.TestTarget, 
MetaData, TestRecord.IterationIndex, 450
MetaData, TestRecord.Preservation, true
MetaData, TestRecord.Flag, 
MetaData, TestRecord.Remarks, 
MetaData, TestRecord.LinkKey, ec5fcf31-ba7f-46d6-bdbe-cf80d2ef5385
MetaData, TestRecord.Parameters, 
Dimension1, 101, 101
Dimension2, 1, 1
DataName, V, I
DataValue, -2, 5.572E-08
DataValue, -1.9600000000000002, -1.1814E-07
DataValue, -1.9200000000000002, -4.4077399999999993E-08
DataValue, -1.8800000000000001, -9.318E-08
DataValue, -1.84, -3.17822E-08
DataValue, -1.8, 8.004E-08
DataValue, -1.76, -1.308E-07
DataValue, -1.72, -3.8803399999999995E-08
DataValue, -1.6800000000000002, -8.316E-08
DataValue, -1.6400000000000001, -2.1354999999999998E-08
DataValue, -1.6, -8.5979999999999993E-08
DataValue, -1.56, -2.758E-08
DataValue, -1.52, -4.3199999999999996E-08
DataValue, -1.48, 1.2664E-07
DataValue, -1.4400000000000002, 3.6935999999999994E-08
DataValue, -1.4000000000000001, 7.986E-08
DataValue, -1.36, 2.1248799999999996E-08
DataValue, -1.32, 1.3936E-07
DataValue, -1.28, 3.7579999999999996E-08
DataValue, -1.24, -5.6286799999999996E-08
DataValue, -1.2, -2.1981999999999998E-08
DataValue, -1.1600000000000001, -1.3728E-07
DataValue, -1.12, -4.5133799999999995E-08
DataValue, -1.08, -9.058E-08
DataValue, -1.04, -3.1642E-08
DataValue, -1, -9.474E-08
DataValue, -0.96000000000000008, 6.8179999999999992E-08
DataValue, -0.92, 2.7065599999999997E-08
DataValue, -0.88, 1.0852E-07
DataValue, -0.84000000000000008, 9.92E-09
DataValue, -0.8, 5.34E-08
DataValue, -0.76, -1.0873999999999999E-07
DataValue, -0.72000000000000008, -3.3202599999999995E-08
DataValue, -0.68, -9.466E-08
DataValue, -0.64, 9.158E-08
DataValue, -0.6, 3.778E-08
DataValue, -0.56, -5.5894799999999994E-08
DataValue, -0.52, -2.1340799999999998E-08
DataValue, -0.48000000000000004, -8.538E-08
DataValue, -0.44, 5.456E-08
DataValue, -0.4, 1.0783E-08
DataValue, -0.36000000000000004, 8.616E-08
DataValue, -0.32, 2.77302E-08
DataValue, -0.28, 9.212E-08
DataValue, -0.24000000000000002, 3.7978799999999995E-08
DataValue, -0.2, 8.058E-08
DataValue, -0.16, 2.2255999999999998E-08
DataValue, -0.12000000000000001, 1.3704E-07
DataValue, -0.08, 4.4542199999999994E-08
DataValue, -0.04, 8.856E-08
DataValue, 0, 3.788E-08
DataValue, 0.04, -5.6346399999999996E-08
DataValue, 0.08, -2.05956E-08
DataValue, 0.12000000000000001, -1.373E-07
DataValue, 0.16, 9.062E-08
DataValue, 0.2, -7.922E-08
DataValue, 0.24000000000000002, -1.5577599999999997E-08
DataValue, 0.28, -1.2258E-07
DataValue, 0.32, -3.5400999999999994E-08
DataValue, 0.36000000000000004, -1.0082E-07
DataValue, 0.4, -1.092E-08
DataValue, 0.44, -4.706E-08
DataValue, 0.48000000000000004, 1.0706E-07
DataValue, 0.52, 1.942E-08
DataValue, 0.56, -1.918E-08
DataValue, 0.6, -4.4039999999999996E-08
DataValue, 0.64, 1.2454E-07
DataValue, 0.68, 3.7830599999999995E-08
DataValue, 0.72000000000000008, 7.826E-08
DataValue, 0.76, 2.8719399999999996E-08
DataValue, 0.8, 1.0845999999999999E-07
DataValue, 0.84000000000000008, -2.62E-09
DataValue, 0.88, 5.64E-08
DataValue, 0.92, -8.8779999999999992E-08
DataValue, 0.96000000000000008, -3.06546E-08
DataValue, 1, 8.352E-08
DataValue, 1.04, -4.366E-08
DataValue, 1.08, -3.1734E-09
DataValue, 1.12, 1.8992999999999997E-08
DataValue, 1.1600000000000001, 1.0924E-07
DataValue, 1.2, 2.38926E-08
DataValue, 1.24, 7.2719999999999992E-08
DataValue, 1.28, -9.672E-08
DataValue, 1.32, 5.05E-08
DataValue, 1.36, 8.6374E-09
DataValue, 1.4000000000000001, 8.372E-08
DataValue, 1.4400000000000002, 2.8108999999999997E-08
DataValue, 1.48, 7.862E-08
DataValue, 1.52, -8.648E-08
DataValue, 1.56, -1.8445799999999998E-08
DataValue, 1.6, -9.734E-08
DataValue, 1.6400000000000001, 6.15E-08
DataValue, 1.6800000000000002, 1.1777399999999999E-08
DataValue, 1.72, 8.9959999999999993E-08
DataValue, 1.76, 2.8901999999999996E-08
DataValue, 1.8, 9.272E-08
DataValue, 1.84, 4.85744E-08
DataValue, 1.8800000000000001, 1.0974E-07
DataValue, 1.9200000000000002, 3.38876E-08
DataValue, 1.9600000000000002, 8.834E-08
DataValue, 2, 2.2978E-08