
SetupTitle, I/V Sweep
PrimitiveTest, I/V Sweep
TestParameter, Context.MainFrame, B1500A
TestParameter, Channel.UnitType, SMU, SMU, SMU, SMU, SMU
TestParameter, Channel.Unit, SMU1:HP, SMU2:MP, SMU3:MP, SMU4:MP, SMU5:MP
TestParameter, Channel.IName, I, IDD1, IDD2, ISS, IPP
TestParameter, Channel.VName, V, VDD1, VDD2, VSS, VPP
TestParameter, Channel.Mode, V, V, V, V, V
TestParameter, Channel.Func, VAR1, CONST, CONST, CONST, CONST
TestParameter, Channel.Index, 
TestParameter, Channel.Time, 
TestParameter, Measurement.Port.Unit, SMU1:HP, SMU2:MP, SMU3:MP, SMU4:MP, SMU5:MP
TestParameter, Measurement.Port.SeriesResistor, NONE, NONE, NONE, NONE, NONE
TestParameter, Measurement.Port.Filter, ON, ON, ON, ON, ON
TestParameter, Measurement.Port.OutputVoltageComparison, 0, 0, 0, 0, 0
TestParameter, Measurement.Primary.Locus, Single
TestParameter, Measurement.Primary.Scale, LINEAR
TestParameter, Measurement.Primary.Start, -2
TestParameter, Measurement.Primary.Stop, 2
TestParameter, Measurement.Primary.Step, 0.04
TestParameter, Measurement.Primary.Compliance, 0.1
TestParameter, Measurement.Primary.PowerCompliance, 0
TestParameter, Measurement.Aborting.Condition, CONTINUE AT ANY
TestParameter, Measurement.PostOutput.Value, START
TestParameter, Measurement.PostOutput.Retention, OFF
TestParameter, Measurement.Bias.Source, -2, 1.8, 1.1, 0, 0
TestParameter, Measurement.Bias.Compliance, 0.1, 0.1, 0.1, 0.1, 0.1
TestParameter, Measurement.Monitor.Unit, SMU1:HP, SMU2:MP, SMU3:MP, SMU4:MP, SMU5:MP
TestParameter, Measurement.Monitor.Adc, HR ADC, HR ADC, HR ADC, HR ADC, HR ADC
TestParameter, Measurement.Monitor.Measurement, Compliance Side, Compliance Side, Compliance Side, Compliance Side, Compliance Side
TestParameter, Measurement.Monitor.RangingMode, LIMITED, LIMITED, LIMITED, LIMITED, LIMITED
TestParameter, Measurement.Monitor.RangeBoundary, 1nA, 1nA, 1nA, 1nA, 1nA
TestParameter, Measurement.Monitor.RangeRating, BY FULL RANGE, BY FULL RANGE, BY FULL RANGE, BY FULL RANGE, BY FULL RANGE
TestParameter, Measurement.Monitor.RangeRatingCoeff, 50, 50, 50, 50, 50
TestParameter, Measurement.Timing.Hold, 0
TestParameter, Measurement.Timing.Delay, 0
TestParameter, Measurement.Adc.HighSpeed.Mode, AUTO
TestParameter, Measurement.Adc.HighSpeed.Coeff, 1
TestParameter, Measurement.Adc.HighResolution.AutoZero, OFF
TestParameter, Measurement.Adc.HighResolution.Mode, AUTO
TestParameter, Measurement.Adc.HighResolution.Coeff, 6
TestParameter, Measurement.WaitTime.Source.Coeff, 1
TestParameter, Measurement.WaitTime.Source.Offset, 0
TestParameter, Measurement.WaitTime.Monitor.Coeff, 1
TestParameter, Measurement.WaitTime.Monitor.Offset, 0
TestParameter, Output.Graph.Enabled, true
TestParameter, Output.Graph.AutoScaling, false
TestParameter, Output.Graph.XAxis.Data, V
TestParameter, Output.Graph.XAxis.Scale, Linear
TestParameter, Output.Graph.XAxis.Left, -2
TestParameter, Output.Graph.XAxis.Right, 2
TestParameter, Output.Graph.XAxis.RunTimeAutoScale, true
TestParameter, Output.Graph.YAxis.Data, I
TestParameter, Output.Graph.YAxis.Scale, Linear
TestParameter, Output.Graph.YAxis.Bottom, -0.1
TestParameter, Output.Graph.YAxis.Top, 0.1
TestParameter, Output.Graph.YAxis.Group, 
TestParameter, Output.Graph.YAxis.RunTimeAutoScale, true
TestParameter, AutoAnalysis.Interpolation, false
TestParameter, AutoAnalysis.Var2StepCount, 1
TestParameter, AutoAnalysis.Var2StepScript, 
TestParameter, AutoAnalysis.Line1.Enabled, false
TestParameter, AutoAnalysis.Line1.Type, 1
TestParameter, AutoAnalysis.Line1.Fix, True
TestParameter, AutoAnalysis.Line1.YAxis, 0
TestParameter, AutoAnalysis.Line1.Point1.Type, 0
TestParameter, AutoAnalysis.Line1.Point1.XY.X, 
TestParameter, AutoAnalysis.Line1.Point1.XY.Y, 
TestParameter, AutoAnalysis.Line1.Point1.Data.Var, 
TestParameter, AutoAnalysis.Line1.Point1.Data.Condition, 
TestParameter, AutoAnalysis.Line1.Point1.Data.Start, false
TestParameter, AutoAnalysis.Line1.Point1.Data.StartVar, 
TestParameter, AutoAnalysis.Line1.Point1.Data.StartCondition, 
TestParameter, AutoAnalysis.Line1.Point2.Type, 0
TestParameter, AutoAnalysis.Line1.Point2.XY.X, 
TestParameter, AutoAnalysis.Line1.Point2.XY.Y, 
TestParameter, AutoAnalysis.Line1.Point2.Data.Var, 
TestParameter, AutoAnalysis.Line1.Point2.Data.Condition, 
TestParameter, AutoAnalysis.Line1.Point2.Data.Start, false
TestParameter, AutoAnalysis.Line1.Point2.Data.StartVar, 
TestParameter, AutoAnalysis.Line1.Point2.Data.StartCondition, 
TestParameter, AutoAnalysis.Line1.GradientExpr, 0
TestParameter, AutoAnalysis.Line2.Enabled, false
TestParameter, AutoAnalysis.Line2.Type, 1
TestParameter, AutoAnalysis.Line2.Fix, True
TestParameter, AutoAnalysis.Line2.YAxis, 0
TestParameter, AutoAnalysis.Line2.Point1.Type, 0
TestParameter, AutoAnalysis.Line2.Point1.XY.X, 
TestParameter, AutoAnalysis.Line2.Point1.XY.Y, 
TestParameter, AutoAnalysis.Line2.Point1.Data.Var, 
TestParameter, AutoAnalysis.Line2.Point1.Data.Condition, 
TestParameter, AutoAnalysis.Line2.Point1.Data.Start, false
TestParameter, AutoAnalysis.Line2.Point1.Data.StartVar, 
TestParameter, AutoAnalysis.Line2.Point1.Data.StartCondition, 
TestParameter, AutoAnalysis.Line2.Point2.Type, 0
TestParameter, AutoAnalysis.Line2.Point2.XY.X, 
TestParameter, AutoAnalysis.Line2.Point2.XY.Y, 
TestParameter, AutoAnalysis.Line2.Point2.Data.Var, 
TestParameter, AutoAnalysis.Line2.Point2.Data.Condition, 
TestParameter, AutoAnalysis.Line2.Point2.Data.Start, false
TestParameter, AutoAnalysis.Line2.Point2.Data.StartVar, 
TestParameter, AutoAnalysis.Line2.Point2.Data.StartCondition, 
TestParameter, AutoAnalysis.Line2.GradientExpr, 0
TestParameter, AutoAnalysis.Marker.Enabled, false
TestParameter, AutoAnalysis.Marker.Data.Var, 
TestParameter, AutoAnalysis.Marker.Data.Condition, 
TestParameter, AutoAnalysis.Marker.Data.Start, false
TestParameter, AutoAnalysis.Marker.Data.StartVar, 
TestParameter, AutoAnalysis.Marker.Data.StartCondition, 
MetaData, TestRecord.EntryPoint, true
MetaData, TestRecord.RecordTime, 10/19/2022 14:11:52
MetaData, TestRecord.TestTarget, 
MetaData, TestRecord.IterationIndex, 412
MetaData, TestRecord.Preservation, true
MetaData, TestRecord.Flag, 
MetaData, TestRecord.Remarks, 
MetaData, TestRecord.LinkKey, 46e6a3dc-3db4-4058-ac3f-7af0d78d5d55
MetaData, TestRecord.Parameters, 
Dimension1, 101, 101
Dimension2, 1, 1
DataName, V, I
DataValue, -2, -0.10000200000000001
DataValue, -1.9600000000000002, -0.10000200000000001
DataValue, -1.9200000000000002, -0.10000200000000001
DataValue, -1.8800000000000001, -0.10000200000000001
DataValue, -1.84, -0.1
DataValue, -1.8, -0.1
DataValue, -1.76, -0.10000200000000001
DataValue, -1.72, -0.10000200000000001
DataValue, -1.6800000000000002, -0.10000200000000001
DataValue, -1.6400000000000001, -0.1
DataValue, -1.6, -0.10000200000000001
DataValue, -1.56, -0.10000200000000001
DataValue, -1.52, -0.1
DataValue, -1.48, -0.10000200000000001
DataValue, -1.4400000000000002, -0.098746000000000014
DataValue, -1.4000000000000001, -0.096088
DataValue, -1.36, -0.093402000000000013
DataValue, -1.32, -0.090682000000000013
DataValue, -1.28, -0.087938
DataValue, -1.24, -0.08518
DataValue, -1.2, -0.082402
DataValue, -1.1600000000000001, -0.079602
DataValue, -1.12, -0.076794
DataValue, -1.08, -0.073970000000000008
DataValue, -1.04, -0.071152
DataValue, -1, -0.06832400000000001
DataValue, -0.96000000000000008, -0.065496000000000013
DataValue, -0.92, -0.062658
DataValue, -0.88, -0.059832
DataValue, -0.84000000000000008, -0.057018000000000006
DataValue, -0.8, -0.054174000000000007
DataValue, -0.76, -0.051382000000000004
DataValue, -0.72000000000000008, -0.048614000000000004
DataValue, -0.68, -0.045866000000000004
DataValue, -0.64, -0.043140000000000005
DataValue, -0.6, -0.040438
DataValue, -0.56, -0.037752
DataValue, -0.52, -0.035082
DataValue, -0.48000000000000004, -0.032436
DataValue, -0.44, -0.029832
DataValue, -0.4, -0.027270000000000003
DataValue, -0.36000000000000004, -0.024768000000000002
DataValue, -0.32, -0.022326000000000002
DataValue, -0.28, -0.019958
DataValue, -0.24000000000000002, -0.017676
DataValue, -0.2, -0.015490000000000002
DataValue, -0.16, -0.013392000000000001
DataValue, -0.12000000000000001, -0.011392000000000001
DataValue, -0.08, -0.0094888
DataValue, -0.04, -0.0076942
DataValue, 0, -0.0060236000000000005
DataValue, 0.04, -0.0045512
DataValue, 0.08, -0.0033514
DataValue, 0.12000000000000001, -0.0024988000000000002
DataValue, 0.16, -0.0019412000000000001
DataValue, 0.2, -0.0015866
DataValue, 0.24000000000000002, -0.0013398
DataValue, 0.28, -0.0011436
DataValue, 0.32, -0.0009701200000000001
DataValue, 0.36000000000000004, -0.00080894000000000007
DataValue, 0.4, -0.00065606000000000008
DataValue, 0.44, -0.00050926
DataValue, 0.48000000000000004, -0.00038196000000000004
DataValue, 0.52, -0.00022998000000000002
DataValue, 0.56, -0.0001149
DataValue, 0.6, -5.318E-05
DataValue, 0.64, -2.5596E-05
DataValue, 0.68, -1.5182000000000001E-05
DataValue, 0.72000000000000008, -1.0062E-05
DataValue, 0.76, -5.3887000000000006E-06
DataValue, 0.8, -3.0147999999999997E-07
DataValue, 0.84000000000000008, 2.1832E-06
DataValue, 0.88, 3.1336000000000004E-06
DataValue, 0.92, 3.7012000000000002E-06
DataValue, 0.96000000000000008, 4.3237000000000006E-06
DataValue, 1, 5.3295E-06
DataValue, 1.04, 7.4189000000000011E-06
DataValue, 1.08, 1.13E-05
DataValue, 1.12, 1.5692E-05
DataValue, 1.1600000000000001, 1.9356000000000002E-05
DataValue, 1.2, 2.2532E-05
DataValue, 1.24, 2.5512000000000002E-05
DataValue, 1.28, 2.8506E-05
DataValue, 1.32, 3.1676E-05
DataValue, 1.36, 3.528E-05
DataValue, 1.4000000000000001, 3.9794E-05
DataValue, 1.4400000000000002, 4.5486000000000005E-05
DataValue, 1.48, 5.2114E-05
DataValue, 1.52, 5.9076E-05
DataValue, 1.56, 6.6096E-05
DataValue, 1.6, 7.7528000000000007E-05
DataValue, 1.6400000000000001, 9.3386E-05
DataValue, 1.6800000000000002, 0.00011345200000000001
DataValue, 1.72, 0.00013868000000000002
DataValue, 1.76, 0.00017048
DataValue, 1.8, 0.00021276000000000002
DataValue, 1.84, 0.00027696000000000003
DataValue, 1.8800000000000001, 0.00038744
DataValue, 1.9200000000000002, 0.00057086000000000007
DataValue, 1.9600000000000002, 0.00083052000000000006
DataValue, 2, 0.0011536