
SetupTitle, I/V Sweep
PrimitiveTest, I/V Sweep
TestParameter, Context.MainFrame, B1500A
TestParameter, Channel.UnitType, SMU, SMU, SMU, SMU, SMU
TestParameter, Channel.Unit, SMU1:HP, SMU2:MP, SMU3:MP, SMU4:MP, SMU5:MP
TestParameter, Channel.IName, I, IDD1, IDD2, ISS, IPP
TestParameter, Channel.VName, V, VDD1, VDD2, VSS, VPP
TestParameter, Channel.Mode, V, V, V, V, V
TestParameter, Channel.Func, VAR1, CONST, CONST, CONST, CONST
TestParameter, Channel.Index, 
TestParameter, Channel.Time, 
TestParameter, Measurement.Port.Unit, SMU1:HP, SMU2:MP, SMU3:MP, SMU4:MP, SMU5:MP
TestParameter, Measurement.Port.SeriesResistor, NONE, NONE, NONE, NONE, NONE
TestParameter, Measurement.Port.Filter, ON, ON, ON, ON, ON
TestParameter, Measurement.Port.OutputVoltageComparison, 0, 0, 0, 0, 0
TestParameter, Measurement.Primary.Locus, Single
TestParameter, Measurement.Primary.Scale, LINEAR
TestParameter, Measurement.Primary.Start, -2
TestParameter, Measurement.Primary.Stop, 2
TestParameter, Measurement.Primary.Step, 0.04
TestParameter, Measurement.Primary.Compliance, 0.1
TestParameter, Measurement.Primary.PowerCompliance, 0
TestParameter, Measurement.Aborting.Condition, CONTINUE AT ANY
TestParameter, Measurement.PostOutput.Value, START
TestParameter, Measurement.PostOutput.Retention, OFF
TestParameter, Measurement.Bias.Source, -2, 1.8, 1.1, 0, 0
TestParameter, Measurement.Bias.Compliance, 0.1, 0.1, 0.1, 0.1, 0.1
TestParameter, Measurement.Monitor.Unit, SMU1:HP, SMU2:MP, SMU3:MP, SMU4:MP, SMU5:MP
TestParameter, Measurement.Monitor.Adc, HR ADC, HR ADC, HR ADC, HR ADC, HR ADC
TestParameter, Measurement.Monitor.Measurement, Compliance Side, Compliance Side, Compliance Side, Compliance Side, Compliance Side
TestParameter, Measurement.Monitor.RangingMode, LIMITED, LIMITED, LIMITED, LIMITED, LIMITED
TestParameter, Measurement.Monitor.RangeBoundary, 1nA, 1nA, 1nA, 1nA, 1nA
TestParameter, Measurement.Monitor.RangeRating, BY FULL RANGE, BY FULL RANGE, BY FULL RANGE, BY FULL RANGE, BY FULL RANGE
TestParameter, Measurement.Monitor.RangeRatingCoeff, 50, 50, 50, 50, 50
TestParameter, Measurement.Timing.Hold, 0
TestParameter, Measurement.Timing.Delay, 0
TestParameter, Measurement.Adc.HighSpeed.Mode, AUTO
TestParameter, Measurement.Adc.HighSpeed.Coeff, 1
TestParameter, Measurement.Adc.HighResolution.AutoZero, OFF
TestParameter, Measurement.Adc.HighResolution.Mode, AUTO
TestParameter, Measurement.Adc.HighResolution.Coeff, 6
TestParameter, Measurement.WaitTime.Source.Coeff, 1
TestParameter, Measurement.WaitTime.Source.Offset, 0
TestParameter, Measurement.WaitTime.Monitor.Coeff, 1
TestParameter, Measurement.WaitTime.Monitor.Offset, 0
TestParameter, Output.Graph.Enabled, true
TestParameter, Output.Graph.AutoScaling, false
TestParameter, Output.Graph.XAxis.Data, V
TestParameter, Output.Graph.XAxis.Scale, Linear
TestParameter, Output.Graph.XAxis.Left, -2
TestParameter, Output.Graph.XAxis.Right, 2
TestParameter, Output.Graph.XAxis.RunTimeAutoScale, true
TestParameter, Output.Graph.YAxis.Data, I
TestParameter, Output.Graph.YAxis.Scale, Linear
TestParameter, Output.Graph.YAxis.Bottom, -0.1
TestParameter, Output.Graph.YAxis.Top, 0.1
TestParameter, Output.Graph.YAxis.Group, 
TestParameter, Output.Graph.YAxis.RunTimeAutoScale, true
TestParameter, AutoAnalysis.Interpolation, false
TestParameter, AutoAnalysis.Var2StepCount, 1
TestParameter, AutoAnalysis.Var2StepScript, 
TestParameter, AutoAnalysis.Line1.Enabled, false
TestParameter, AutoAnalysis.Line1.Type, 1
TestParameter, AutoAnalysis.Line1.Fix, True
TestParameter, AutoAnalysis.Line1.YAxis, 0
TestParameter, AutoAnalysis.Line1.Point1.Type, 0
TestParameter, AutoAnalysis.Line1.Point1.XY.X, 
TestParameter, AutoAnalysis.Line1.Point1.XY.Y, 
TestParameter, AutoAnalysis.Line1.Point1.Data.Var, 
TestParameter, AutoAnalysis.Line1.Point1.Data.Condition, 
TestParameter, AutoAnalysis.Line1.Point1.Data.Start, false
TestParameter, AutoAnalysis.Line1.Point1.Data.StartVar, 
TestParameter, AutoAnalysis.Line1.Point1.Data.StartCondition, 
TestParameter, AutoAnalysis.Line1.Point2.Type, 0
TestParameter, AutoAnalysis.Line1.Point2.XY.X, 
TestParameter, AutoAnalysis.Line1.Point2.XY.Y, 
TestParameter, AutoAnalysis.Line1.Point2.Data.Var, 
TestParameter, AutoAnalysis.Line1.Point2.Data.Condition, 
TestParameter, AutoAnalysis.Line1.Point2.Data.Start, false
TestParameter, AutoAnalysis.Line1.Point2.Data.StartVar, 
TestParameter, AutoAnalysis.Line1.Point2.Data.StartCondition, 
TestParameter, AutoAnalysis.Line1.GradientExpr, 0
TestParameter, AutoAnalysis.Line2.Enabled, false
TestParameter, AutoAnalysis.Line2.Type, 1
TestParameter, AutoAnalysis.Line2.Fix, True
TestParameter, AutoAnalysis.Line2.YAxis, 0
TestParameter, AutoAnalysis.Line2.Point1.Type, 0
TestParameter, AutoAnalysis.Line2.Point1.XY.X, 
TestParameter, AutoAnalysis.Line2.Point1.XY.Y, 
TestParameter, AutoAnalysis.Line2.Point1.Data.Var, 
TestParameter, AutoAnalysis.Line2.Point1.Data.Condition, 
TestParameter, AutoAnalysis.Line2.Point1.Data.Start, false
TestParameter, AutoAnalysis.Line2.Point1.Data.StartVar, 
TestParameter, AutoAnalysis.Line2.Point1.Data.StartCondition, 
TestParameter, AutoAnalysis.Line2.Point2.Type, 0
TestParameter, AutoAnalysis.Line2.Point2.XY.X, 
TestParameter, AutoAnalysis.Line2.Point2.XY.Y, 
TestParameter, AutoAnalysis.Line2.Point2.Data.Var, 
TestParameter, AutoAnalysis.Line2.Point2.Data.Condition, 
TestParameter, AutoAnalysis.Line2.Point2.Data.Start, false
TestParameter, AutoAnalysis.Line2.Point2.Data.StartVar, 
TestParameter, AutoAnalysis.Line2.Point2.Data.StartCondition, 
TestParameter, AutoAnalysis.Line2.GradientExpr, 0
TestParameter, AutoAnalysis.Marker.Enabled, false
TestParameter, AutoAnalysis.Marker.Data.Var, 
TestParameter, AutoAnalysis.Marker.Data.Condition, 
TestParameter, AutoAnalysis.Marker.Data.Start, false
TestParameter, AutoAnalysis.Marker.Data.StartVar, 
TestParameter, AutoAnalysis.Marker.Data.StartCondition, 
MetaData, TestRecord.EntryPoint, true
MetaData, TestRecord.RecordTime, 10/19/2022 14:20:17
MetaData, TestRecord.TestTarget, 
MetaData, TestRecord.IterationIndex, 431
MetaData, TestRecord.Preservation, true
MetaData, TestRecord.Flag, 
MetaData, TestRecord.Remarks, 
MetaData, TestRecord.LinkKey, c5a064bf-4156-4a07-8427-c574d83f36a9
MetaData, TestRecord.Parameters, 
Dimension1, 101, 101
Dimension2, 1, 1
DataName, V, I
DataValue, -2, -0.081748
DataValue, -1.9600000000000002, -0.080124
DataValue, -1.9200000000000002, -0.078932
DataValue, -1.8800000000000001, -0.077472000000000013
DataValue, -1.84, -0.076066000000000009
DataValue, -1.8, -0.075458000000000011
DataValue, -1.76, -0.074394
DataValue, -1.72, -0.072802
DataValue, -1.6800000000000002, -0.071582
DataValue, -1.6400000000000001, -0.070436000000000012
DataValue, -1.6, -0.069262
DataValue, -1.56, -0.06807
DataValue, -1.52, -0.06687
DataValue, -1.48, -0.06566000000000001
DataValue, -1.4400000000000002, -0.064448
DataValue, -1.4000000000000001, -0.063238
DataValue, -1.36, -0.062026000000000005
DataValue, -1.32, -0.06081
DataValue, -1.28, -0.059592000000000006
DataValue, -1.24, -0.058372000000000007
DataValue, -1.2, -0.057154
DataValue, -1.1600000000000001, -0.055938
DataValue, -1.12, -0.054716000000000008
DataValue, -1.08, -0.053498000000000004
DataValue, -1.04, -0.052276
DataValue, -1, -0.051054
DataValue, -0.96000000000000008, -0.049832
DataValue, -0.92, -0.048608000000000005
DataValue, -0.88, -0.047388000000000007
DataValue, -0.84000000000000008, -0.046166000000000006
DataValue, -0.8, -0.044944000000000005
DataValue, -0.76, -0.043724000000000006
DataValue, -0.72000000000000008, -0.042506
DataValue, -0.68, -0.041286
DataValue, -0.64, -0.040066000000000004
DataValue, -0.6, -0.038848
DataValue, -0.56, -0.037634
DataValue, -0.52, -0.036416000000000004
DataValue, -0.48000000000000004, -0.035204000000000006
DataValue, -0.44, -0.033994
DataValue, -0.4, -0.032786
DataValue, -0.36000000000000004, -0.031580000000000004
DataValue, -0.32, -0.030374
DataValue, -0.28, -0.029172000000000003
DataValue, -0.24000000000000002, -0.027976
DataValue, -0.2, -0.026782000000000004
DataValue, -0.16, -0.025592000000000004
DataValue, -0.12000000000000001, -0.024408000000000003
DataValue, -0.08, -0.023224
DataValue, -0.04, -0.022048
DataValue, 0, -0.020878
DataValue, 0.04, -0.019712
DataValue, 0.08, -0.01855
DataValue, 0.12000000000000001, -0.017400000000000002
DataValue, 0.16, -0.016254
DataValue, 0.2, -0.015116000000000001
DataValue, 0.24000000000000002, -0.01399
DataValue, 0.28, -0.012868000000000001
DataValue, 0.32, -0.011760000000000001
DataValue, 0.36000000000000004, -0.010660000000000001
DataValue, 0.4, -0.00958
DataValue, 0.44, -0.0085088
DataValue, 0.48000000000000004, -0.0074542
DataValue, 0.52, -0.0064202
DataValue, 0.56, -0.0054138
DataValue, 0.6, -0.0044396
DataValue, 0.64, -0.0035098
DataValue, 0.68, -0.0026418
DataValue, 0.72000000000000008, -0.0018596
DataValue, 0.76, -0.0011974
DataValue, 0.8, -0.00069306
DataValue, 0.84000000000000008, -0.00034478000000000004
DataValue, 0.88, -0.00019572
DataValue, 0.92, -0.0001149
DataValue, 0.96000000000000008, -6.5876E-05
DataValue, 1, -4.1768000000000004E-05
DataValue, 1.04, -2.395E-05
DataValue, 1.08, -9.5796E-06
DataValue, 1.12, 4.5965000000000008E-06
DataValue, 1.1600000000000001, 2.96E-05
DataValue, 1.2, 7.6834E-05
DataValue, 1.24, 0.00016616000000000002
DataValue, 1.28, 0.00034378
DataValue, 1.32, 0.00065736000000000006
DataValue, 1.36, 0.0011270800000000001
DataValue, 1.4000000000000001, 0.0017432
DataValue, 1.4400000000000002, 0.0024752
DataValue, 1.48, 0.0033012000000000002
DataValue, 1.52, 0.0041994
DataValue, 1.56, 0.0051528
DataValue, 1.6, 0.0061508000000000005
DataValue, 1.6400000000000001, 0.0071872
DataValue, 1.6800000000000002, 0.008249
DataValue, 1.72, 0.0093382
DataValue, 1.76, 0.0104438
DataValue, 1.8, 0.011578000000000002
DataValue, 1.84, 0.012718000000000002
DataValue, 1.8800000000000001, 0.013872
DataValue, 1.9200000000000002, 0.015038000000000001
DataValue, 1.9600000000000002, 0.016216
DataValue, 2, 0.017406