
SetupTitle, I/V Sweep
PrimitiveTest, I/V Sweep
TestParameter, Context.MainFrame, B1500A
TestParameter, Channel.UnitType, SMU, SMU, SMU, SMU, SMU
TestParameter, Channel.Unit, SMU1:HP, SMU2:MP, SMU3:MP, SMU4:MP, SMU5:MP
TestParameter, Channel.IName, I, IDD1, IDD2, ISS, IPP
TestParameter, Channel.VName, V, VDD1, VDD2, VSS, VPP
TestParameter, Channel.Mode, V, V, V, V, V
TestParameter, Channel.Func, VAR1, CONST, CONST, CONST, CONST
TestParameter, Channel.Index, 
TestParameter, Channel.Time, 
TestParameter, Measurement.Port.Unit, SMU1:HP, SMU2:MP, SMU3:MP, SMU4:MP, SMU5:MP
TestParameter, Measurement.Port.SeriesResistor, NONE, NONE, NONE, NONE, NONE
TestParameter, Measurement.Port.Filter, ON, ON, ON, ON, ON
TestParameter, Measurement.Port.OutputVoltageComparison, 0, 0, 0, 0, 0
TestParameter, Measurement.Primary.Locus, Single
TestParameter, Measurement.Primary.Scale, LINEAR
TestParameter, Measurement.Primary.Start, -2
TestParameter, Measurement.Primary.Stop, 2
TestParameter, Measurement.Primary.Step, 0.04
TestParameter, Measurement.Primary.Compliance, 0.1
TestParameter, Measurement.Primary.PowerCompliance, 0
TestParameter, Measurement.Aborting.Condition, CONTINUE AT ANY
TestParameter, Measurement.PostOutput.Value, START
TestParameter, Measurement.PostOutput.Retention, OFF
TestParameter, Measurement.Bias.Source, -2, 1.8, 1.1, 0, 0
TestParameter, Measurement.Bias.Compliance, 0.1, 0.1, 0.1, 0.1, 0.1
TestParameter, Measurement.Monitor.Unit, SMU1:HP, SMU2:MP, SMU3:MP, SMU4:MP, SMU5:MP
TestParameter, Measurement.Monitor.Adc, HR ADC, HR ADC, HR ADC, HR ADC, HR ADC
TestParameter, Measurement.Monitor.Measurement, Compliance Side, Compliance Side, Compliance Side, Compliance Side, Compliance Side
TestParameter, Measurement.Monitor.RangingMode, LIMITED, LIMITED, LIMITED, LIMITED, LIMITED
TestParameter, Measurement.Monitor.RangeBoundary, 1nA, 1nA, 1nA, 1nA, 1nA
TestParameter, Measurement.Monitor.RangeRating, BY FULL RANGE, BY FULL RANGE, BY FULL RANGE, BY FULL RANGE, BY FULL RANGE
TestParameter, Measurement.Monitor.RangeRatingCoeff, 50, 50, 50, 50, 50
TestParameter, Measurement.Timing.Hold, 0
TestParameter, Measurement.Timing.Delay, 0
TestParameter, Measurement.Adc.HighSpeed.Mode, AUTO
TestParameter, Measurement.Adc.HighSpeed.Coeff, 1
TestParameter, Measurement.Adc.HighResolution.AutoZero, OFF
TestParameter, Measurement.Adc.HighResolution.Mode, AUTO
TestParameter, Measurement.Adc.HighResolution.Coeff, 6
TestParameter, Measurement.WaitTime.Source.Coeff, 1
TestParameter, Measurement.WaitTime.Source.Offset, 0
TestParameter, Measurement.WaitTime.Monitor.Coeff, 1
TestParameter, Measurement.WaitTime.Monitor.Offset, 0
TestParameter, Output.Graph.Enabled, true
TestParameter, Output.Graph.AutoScaling, false
TestParameter, Output.Graph.XAxis.Data, V
TestParameter, Output.Graph.XAxis.Scale, Linear
TestParameter, Output.Graph.XAxis.Left, -2
TestParameter, Output.Graph.XAxis.Right, 2
TestParameter, Output.Graph.XAxis.RunTimeAutoScale, true
TestParameter, Output.Graph.YAxis.Data, I
TestParameter, Output.Graph.YAxis.Scale, Linear
TestParameter, Output.Graph.YAxis.Bottom, -0.1
TestParameter, Output.Graph.YAxis.Top, 0.1
TestParameter, Output.Graph.YAxis.Group, 
TestParameter, Output.Graph.YAxis.RunTimeAutoScale, true
TestParameter, AutoAnalysis.Interpolation, false
TestParameter, AutoAnalysis.Var2StepCount, 1
TestParameter, AutoAnalysis.Var2StepScript, 
TestParameter, AutoAnalysis.Line1.Enabled, false
TestParameter, AutoAnalysis.Line1.Type, 1
TestParameter, AutoAnalysis.Line1.Fix, True
TestParameter, AutoAnalysis.Line1.YAxis, 0
TestParameter, AutoAnalysis.Line1.Point1.Type, 0
TestParameter, AutoAnalysis.Line1.Point1.XY.X, 
TestParameter, AutoAnalysis.Line1.Point1.XY.Y, 
TestParameter, AutoAnalysis.Line1.Point1.Data.Var, 
TestParameter, AutoAnalysis.Line1.Point1.Data.Condition, 
TestParameter, AutoAnalysis.Line1.Point1.Data.Start, false
TestParameter, AutoAnalysis.Line1.Point1.Data.StartVar, 
TestParameter, AutoAnalysis.Line1.Point1.Data.StartCondition, 
TestParameter, AutoAnalysis.Line1.Point2.Type, 0
TestParameter, AutoAnalysis.Line1.Point2.XY.X, 
TestParameter, AutoAnalysis.Line1.Point2.XY.Y, 
TestParameter, AutoAnalysis.Line1.Point2.Data.Var, 
TestParameter, AutoAnalysis.Line1.Point2.Data.Condition, 
TestParameter, AutoAnalysis.Line1.Point2.Data.Start, false
TestParameter, AutoAnalysis.Line1.Point2.Data.StartVar, 
TestParameter, AutoAnalysis.Line1.Point2.Data.StartCondition, 
TestParameter, AutoAnalysis.Line1.GradientExpr, 0
TestParameter, AutoAnalysis.Line2.Enabled, false
TestParameter, AutoAnalysis.Line2.Type, 1
TestParameter, AutoAnalysis.Line2.Fix, True
TestParameter, AutoAnalysis.Line2.YAxis, 0
TestParameter, AutoAnalysis.Line2.Point1.Type, 0
TestParameter, AutoAnalysis.Line2.Point1.XY.X, 
TestParameter, AutoAnalysis.Line2.Point1.XY.Y, 
TestParameter, AutoAnalysis.Line2.Point1.Data.Var, 
TestParameter, AutoAnalysis.Line2.Point1.Data.Condition, 
TestParameter, AutoAnalysis.Line2.Point1.Data.Start, false
TestParameter, AutoAnalysis.Line2.Point1.Data.StartVar, 
TestParameter, AutoAnalysis.Line2.Point1.Data.StartCondition, 
TestParameter, AutoAnalysis.Line2.Point2.Type, 0
TestParameter, AutoAnalysis.Line2.Point2.XY.X, 
TestParameter, AutoAnalysis.Line2.Point2.XY.Y, 
TestParameter, AutoAnalysis.Line2.Point2.Data.Var, 
TestParameter, AutoAnalysis.Line2.Point2.Data.Condition, 
TestParameter, AutoAnalysis.Line2.Point2.Data.Start, false
TestParameter, AutoAnalysis.Line2.Point2.Data.StartVar, 
TestParameter, AutoAnalysis.Line2.Point2.Data.StartCondition, 
TestParameter, AutoAnalysis.Line2.GradientExpr, 0
TestParameter, AutoAnalysis.Marker.Enabled, false
TestParameter, AutoAnalysis.Marker.Data.Var, 
TestParameter, AutoAnalysis.Marker.Data.Condition, 
TestParameter, AutoAnalysis.Marker.Data.Start, false
TestParameter, AutoAnalysis.Marker.Data.StartVar, 
TestParameter, AutoAnalysis.Marker.Data.StartCondition, 
MetaData, TestRecord.EntryPoint, true
MetaData, TestRecord.RecordTime, 10/19/2022 14:29:41
MetaData, TestRecord.TestTarget, 
MetaData, TestRecord.IterationIndex, 452
MetaData, TestRecord.Preservation, true
MetaData, TestRecord.Flag, 
MetaData, TestRecord.Remarks, 
MetaData, TestRecord.LinkKey, 50cf759f-dbcb-4e82-934c-40d3ad2ce0fe
MetaData, TestRecord.Parameters, 
Dimension1, 101, 101
Dimension2, 1, 1
DataName, V, I
DataValue, -2, -0.089876000000000011
DataValue, -1.9600000000000002, -0.08819600000000001
DataValue, -1.9200000000000002, -0.086432000000000009
DataValue, -1.8800000000000001, -0.08468
DataValue, -1.84, -0.08295000000000001
DataValue, -1.8, -0.08118800000000001
DataValue, -1.76, -0.07945
DataValue, -1.72, -0.07771
DataValue, -1.6800000000000002, -0.075964
DataValue, -1.6400000000000001, -0.07420800000000001
DataValue, -1.6, -0.072464
DataValue, -1.56, -0.070710000000000009
DataValue, -1.52, -0.068944
DataValue, -1.48, -0.067192
DataValue, -1.4400000000000002, -0.065440000000000012
DataValue, -1.4000000000000001, -0.063650000000000012
DataValue, -1.36, -0.061902000000000006
DataValue, -1.32, -0.060148000000000007
DataValue, -1.28, -0.058404000000000005
DataValue, -1.24, -0.056614000000000005
DataValue, -1.2, -0.054890000000000008
DataValue, -1.1600000000000001, -0.053142
DataValue, -1.12, -0.051422
DataValue, -1.08, -0.049682000000000004
DataValue, -1.04, -0.04796
DataValue, -1, -0.046236000000000006
DataValue, -0.96000000000000008, -0.044368000000000005
DataValue, -0.92, -0.042684000000000007
DataValue, -0.88, -0.041016000000000004
DataValue, -0.84000000000000008, -0.039362
DataValue, -0.8, -0.037698
DataValue, -0.76, -0.036082
DataValue, -0.72000000000000008, -0.034478
DataValue, -0.68, -0.032904
DataValue, -0.64, -0.031352000000000005
DataValue, -0.6, -0.029834000000000003
DataValue, -0.56, -0.028344
DataValue, -0.52, -0.026902000000000002
DataValue, -0.48000000000000004, -0.025514000000000002
DataValue, -0.44, -0.024174
DataValue, -0.4, -0.022882000000000003
DataValue, -0.36000000000000004, -0.021562
DataValue, -0.32, -0.020336000000000003
DataValue, -0.28, -0.019190000000000002
DataValue, -0.24000000000000002, -0.018002
DataValue, -0.2, -0.016698
DataValue, -0.16, -0.015390000000000001
DataValue, -0.12000000000000001, -0.013884
DataValue, -0.08, -0.012408
DataValue, -0.04, -0.011142
DataValue, 0, -0.009912
DataValue, 0.04, -0.008845
DataValue, 0.08, -0.0077156
DataValue, 0.12000000000000001, -0.0061844000000000005
DataValue, 0.16, -0.0038728
DataValue, 0.2, -0.0028148
DataValue, 0.24000000000000002, -0.0020096
DataValue, 0.28, -0.0013376
DataValue, 0.32, -0.00093052000000000011
DataValue, 0.36000000000000004, -0.00059932000000000008
DataValue, 0.4, -0.00030856000000000004
DataValue, 0.44, -0.00022018000000000002
DataValue, 0.48000000000000004, -0.00014852000000000002
DataValue, 0.52, -0.000101886
DataValue, 0.56, -5.1384E-05
DataValue, 0.6, -6.0906E-05
DataValue, 0.64, -2.0996E-05
DataValue, 0.68, -1.1726000000000001E-05
DataValue, 0.72000000000000008, -4.8144000000000009E-06
DataValue, 0.76, -1.4603000000000002E-06
DataValue, 0.8, -3.2718E-07
DataValue, 0.84000000000000008, -9.482E-08
DataValue, 0.88, -3.376E-08
DataValue, 0.92, -3.2129599999999995E-08
DataValue, 0.96000000000000008, -1.6064799999999998E-08
DataValue, 1, -8.1182E-09
DataValue, 1.04, -2.1546E-09
DataValue, 1.08, 3.9463999999999995E-09
DataValue, 1.12, 1.3803799999999998E-08
DataValue, 1.1600000000000001, 4.2962799999999995E-08
DataValue, 1.2, 9.996E-08
DataValue, 1.24, 2.8972E-07
DataValue, 1.28, 5.7494E-07
DataValue, 1.32, 5.5694E-07
DataValue, 1.36, 1.0309000000000002E-06
DataValue, 1.4000000000000001, 1.7024000000000002E-06
DataValue, 1.4400000000000002, 2.1392E-06
DataValue, 1.48, 2.8264E-06
DataValue, 1.52, 3.9114E-06
DataValue, 1.56, 5.5727000000000009E-06
DataValue, 1.6, 7.9186E-06
DataValue, 1.6400000000000001, 1.1114E-05
DataValue, 1.6800000000000002, 1.5288E-05
DataValue, 1.72, 2.0518000000000002E-05
DataValue, 1.76, 2.6830000000000002E-05
DataValue, 1.8, 3.4344E-05
DataValue, 1.84, 0.00010982
DataValue, 1.8800000000000001, 0.00014696000000000002
DataValue, 1.9200000000000002, 0.00019160000000000002
DataValue, 1.9600000000000002, 0.00024456
DataValue, 2, 0.00030628000000000003