
SetupTitle, I/V Sweep
PrimitiveTest, I/V Sweep
TestParameter, Context.MainFrame, B1500A
TestParameter, Channel.UnitType, SMU, SMU, SMU, SMU, SMU
TestParameter, Channel.Unit, SMU1:HP, SMU2:MP, SMU3:MP, SMU4:MP, SMU5:MP
TestParameter, Channel.IName, I, IDD1, IDD2, ISS, IPP
TestParameter, Channel.VName, V, VDD1, VDD2, VSS, VPP
TestParameter, Channel.Mode, V, V, V, V, V
TestParameter, Channel.Func, VAR1, CONST, CONST, CONST, CONST
TestParameter, Channel.Index, 
TestParameter, Channel.Time, 
TestParameter, Measurement.Port.Unit, SMU1:HP, SMU2:MP, SMU3:MP, SMU4:MP, SMU5:MP
TestParameter, Measurement.Port.SeriesResistor, NONE, NONE, NONE, NONE, NONE
TestParameter, Measurement.Port.Filter, ON, ON, ON, ON, ON
TestParameter, Measurement.Port.OutputVoltageComparison, 0, 0, 0, 0, 0
TestParameter, Measurement.Primary.Locus, Single
TestParameter, Measurement.Primary.Scale, LINEAR
TestParameter, Measurement.Primary.Start, -2
TestParameter, Measurement.Primary.Stop, 2
TestParameter, Measurement.Primary.Step, 0.04
TestParameter, Measurement.Primary.Compliance, 0.1
TestParameter, Measurement.Primary.PowerCompliance, 0
TestParameter, Measurement.Aborting.Condition, CONTINUE AT ANY
TestParameter, Measurement.PostOutput.Value, START
TestParameter, Measurement.PostOutput.Retention, OFF
TestParameter, Measurement.Bias.Source, -2, 1.8, 1.1, 0, 0
TestParameter, Measurement.Bias.Compliance, 0.1, 0.1, 0.1, 0.1, 0.1
TestParameter, Measurement.Monitor.Unit, SMU1:HP, SMU2:MP, SMU3:MP, SMU4:MP, SMU5:MP
TestParameter, Measurement.Monitor.Adc, HR ADC, HR ADC, HR ADC, HR ADC, HR ADC
TestParameter, Measurement.Monitor.Measurement, Compliance Side, Compliance Side, Compliance Side, Compliance Side, Compliance Side
TestParameter, Measurement.Monitor.RangingMode, LIMITED, LIMITED, LIMITED, LIMITED, LIMITED
TestParameter, Measurement.Monitor.RangeBoundary, 1nA, 1nA, 1nA, 1nA, 1nA
TestParameter, Measurement.Monitor.RangeRating, BY FULL RANGE, BY FULL RANGE, BY FULL RANGE, BY FULL RANGE, BY FULL RANGE
TestParameter, Measurement.Monitor.RangeRatingCoeff, 50, 50, 50, 50, 50
TestParameter, Measurement.Timing.Hold, 0
TestParameter, Measurement.Timing.Delay, 0
TestParameter, Measurement.Adc.HighSpeed.Mode, AUTO
TestParameter, Measurement.Adc.HighSpeed.Coeff, 1
TestParameter, Measurement.Adc.HighResolution.AutoZero, OFF
TestParameter, Measurement.Adc.HighResolution.Mode, AUTO
TestParameter, Measurement.Adc.HighResolution.Coeff, 6
TestParameter, Measurement.WaitTime.Source.Coeff, 1
TestParameter, Measurement.WaitTime.Source.Offset, 0
TestParameter, Measurement.WaitTime.Monitor.Coeff, 1
TestParameter, Measurement.WaitTime.Monitor.Offset, 0
TestParameter, Output.Graph.Enabled, true
TestParameter, Output.Graph.AutoScaling, false
TestParameter, Output.Graph.XAxis.Data, V
TestParameter, Output.Graph.XAxis.Scale, Linear
TestParameter, Output.Graph.XAxis.Left, -2
TestParameter, Output.Graph.XAxis.Right, 2
TestParameter, Output.Graph.XAxis.RunTimeAutoScale, true
TestParameter, Output.Graph.YAxis.Data, I
TestParameter, Output.Graph.YAxis.Scale, Linear
TestParameter, Output.Graph.YAxis.Bottom, -0.1
TestParameter, Output.Graph.YAxis.Top, 0.1
TestParameter, Output.Graph.YAxis.Group, 
TestParameter, Output.Graph.YAxis.RunTimeAutoScale, true
TestParameter, AutoAnalysis.Interpolation, false
TestParameter, AutoAnalysis.Var2StepCount, 1
TestParameter, AutoAnalysis.Var2StepScript, 
TestParameter, AutoAnalysis.Line1.Enabled, false
TestParameter, AutoAnalysis.Line1.Type, 1
TestParameter, AutoAnalysis.Line1.Fix, True
TestParameter, AutoAnalysis.Line1.YAxis, 0
TestParameter, AutoAnalysis.Line1.Point1.Type, 0
TestParameter, AutoAnalysis.Line1.Point1.XY.X, 
TestParameter, AutoAnalysis.Line1.Point1.XY.Y, 
TestParameter, AutoAnalysis.Line1.Point1.Data.Var, 
TestParameter, AutoAnalysis.Line1.Point1.Data.Condition, 
TestParameter, AutoAnalysis.Line1.Point1.Data.Start, false
TestParameter, AutoAnalysis.Line1.Point1.Data.StartVar, 
TestParameter, AutoAnalysis.Line1.Point1.Data.StartCondition, 
TestParameter, AutoAnalysis.Line1.Point2.Type, 0
TestParameter, AutoAnalysis.Line1.Point2.XY.X, 
TestParameter, AutoAnalysis.Line1.Point2.XY.Y, 
TestParameter, AutoAnalysis.Line1.Point2.Data.Var, 
TestParameter, AutoAnalysis.Line1.Point2.Data.Condition, 
TestParameter, AutoAnalysis.Line1.Point2.Data.Start, false
TestParameter, AutoAnalysis.Line1.Point2.Data.StartVar, 
TestParameter, AutoAnalysis.Line1.Point2.Data.StartCondition, 
TestParameter, AutoAnalysis.Line1.GradientExpr, 0
TestParameter, AutoAnalysis.Line2.Enabled, false
TestParameter, AutoAnalysis.Line2.Type, 1
TestParameter, AutoAnalysis.Line2.Fix, True
TestParameter, AutoAnalysis.Line2.YAxis, 0
TestParameter, AutoAnalysis.Line2.Point1.Type, 0
TestParameter, AutoAnalysis.Line2.Point1.XY.X, 
TestParameter, AutoAnalysis.Line2.Point1.XY.Y, 
TestParameter, AutoAnalysis.Line2.Point1.Data.Var, 
TestParameter, AutoAnalysis.Line2.Point1.Data.Condition, 
TestParameter, AutoAnalysis.Line2.Point1.Data.Start, false
TestParameter, AutoAnalysis.Line2.Point1.Data.StartVar, 
TestParameter, AutoAnalysis.Line2.Point1.Data.StartCondition, 
TestParameter, AutoAnalysis.Line2.Point2.Type, 0
TestParameter, AutoAnalysis.Line2.Point2.XY.X, 
TestParameter, AutoAnalysis.Line2.Point2.XY.Y, 
TestParameter, AutoAnalysis.Line2.Point2.Data.Var, 
TestParameter, AutoAnalysis.Line2.Point2.Data.Condition, 
TestParameter, AutoAnalysis.Line2.Point2.Data.Start, false
TestParameter, AutoAnalysis.Line2.Point2.Data.StartVar, 
TestParameter, AutoAnalysis.Line2.Point2.Data.StartCondition, 
TestParameter, AutoAnalysis.Line2.GradientExpr, 0
TestParameter, AutoAnalysis.Marker.Enabled, false
TestParameter, AutoAnalysis.Marker.Data.Var, 
TestParameter, AutoAnalysis.Marker.Data.Condition, 
TestParameter, AutoAnalysis.Marker.Data.Start, false
TestParameter, AutoAnalysis.Marker.Data.StartVar, 
TestParameter, AutoAnalysis.Marker.Data.StartCondition, 
MetaData, TestRecord.EntryPoint, true
MetaData, TestRecord.RecordTime, 10/19/2022 14:25:07
MetaData, TestRecord.TestTarget, 
MetaData, TestRecord.IterationIndex, 440
MetaData, TestRecord.Preservation, true
MetaData, TestRecord.Flag, 
MetaData, TestRecord.Remarks, 
MetaData, TestRecord.LinkKey, 28247ac8-ff6d-4bb1-98f1-5b7d5098568d
MetaData, TestRecord.Parameters, 
Dimension1, 101, 101
Dimension2, 1, 1
DataName, V, I
DataValue, -2, -0.084406000000000009
DataValue, -1.9600000000000002, -0.083120000000000013
DataValue, -1.9200000000000002, -0.081580000000000014
DataValue, -1.8800000000000001, -0.080648000000000011
DataValue, -1.84, -0.0791
DataValue, -1.8, -0.077368
DataValue, -1.76, -0.07595600000000001
DataValue, -1.72, -0.074546
DataValue, -1.6800000000000002, -0.073106
DataValue, -1.6400000000000001, -0.071522
DataValue, -1.6, -0.070062
DataValue, -1.56, -0.068598
DataValue, -1.52, -0.06696
DataValue, -1.48, -0.065270000000000009
DataValue, -1.4400000000000002, -0.063838
DataValue, -1.4000000000000001, -0.061938000000000007
DataValue, -1.36, -0.060438000000000006
DataValue, -1.32, -0.058932000000000005
DataValue, -1.28, -0.057554000000000008
DataValue, -1.24, -0.056038000000000004
DataValue, -1.2, -0.054568000000000005
DataValue, -1.1600000000000001, -0.053086
DataValue, -1.12, -0.051666000000000004
DataValue, -1.08, -0.050262
DataValue, -1.04, -0.048858000000000006
DataValue, -1, -0.047470000000000005
DataValue, -0.96000000000000008, -0.04608
DataValue, -0.92, -0.044694000000000005
DataValue, -0.88, -0.043252000000000006
DataValue, -0.84000000000000008, -0.041886000000000007
DataValue, -0.8, -0.040554000000000007
DataValue, -0.76, -0.039226000000000004
DataValue, -0.72000000000000008, -0.037896000000000006
DataValue, -0.68, -0.036584000000000005
DataValue, -0.64, -0.035252000000000006
DataValue, -0.6, -0.033948000000000006
DataValue, -0.56, -0.032636000000000005
DataValue, -0.52, -0.031308
DataValue, -0.48000000000000004, -0.029976000000000003
DataValue, -0.44, -0.028638000000000004
DataValue, -0.4, -0.027286
DataValue, -0.36000000000000004, -0.025926
DataValue, -0.32, -0.024578000000000003
DataValue, -0.28, -0.023206
DataValue, -0.24000000000000002, -0.021890000000000003
DataValue, -0.2, -0.020582000000000003
DataValue, -0.16, -0.019294000000000002
DataValue, -0.12000000000000001, -0.018002
DataValue, -0.08, -0.016752000000000003
DataValue, -0.04, -0.01552
DataValue, 0, -0.014318
DataValue, 0.04, -0.013168000000000001
DataValue, 0.08, -0.012042
DataValue, 0.12000000000000001, -0.010954
DataValue, 0.16, -0.0099098
DataValue, 0.2, -0.0088942
DataValue, 0.24000000000000002, -0.0079158
DataValue, 0.28, -0.0069830000000000005
DataValue, 0.32, -0.006097
DataValue, 0.36000000000000004, -0.0052594
DataValue, 0.4, -0.0044784000000000004
DataValue, 0.44, -0.0037624
DataValue, 0.48000000000000004, -0.0031204
DataValue, 0.52, -0.0025588
DataValue, 0.56, -0.0020848
DataValue, 0.6, -0.0016218
DataValue, 0.64, -0.0012642
DataValue, 0.68, -0.00092904
DataValue, 0.72000000000000008, -0.0006218
DataValue, 0.76, -0.00036588
DataValue, 0.8, -0.00017408000000000001
DataValue, 0.84000000000000008, -5.5292000000000005E-05
DataValue, 0.88, -2.1257799999999997E-08
DataValue, 0.92, 1.8452000000000002E-05
DataValue, 0.96000000000000008, 2.3782E-05
DataValue, 1, 2.5706E-05
DataValue, 1.04, 2.6864000000000002E-05
DataValue, 1.08, 2.7858E-05
DataValue, 1.12, 2.8834000000000002E-05
DataValue, 1.1600000000000001, 2.9912E-05
DataValue, 1.2, 3.133E-05
DataValue, 1.24, 3.4024E-05
DataValue, 1.28, 4.0692E-05
DataValue, 1.32, 5.8014000000000004E-05
DataValue, 1.36, 9.4172E-05
DataValue, 1.4000000000000001, 0.00016112
DataValue, 1.4400000000000002, 0.00025052
DataValue, 1.48, 0.00037066000000000003
DataValue, 1.52, 0.00050042
DataValue, 1.56, 0.0006868
DataValue, 1.6, 0.00089992
DataValue, 1.6400000000000001, 0.00111438
DataValue, 1.6800000000000002, 0.0013324
DataValue, 1.72, 0.0015580000000000001
DataValue, 1.76, 0.0017882
DataValue, 1.8, 0.0020254
DataValue, 1.84, 0.002267
DataValue, 1.8800000000000001, 0.002511
DataValue, 1.9200000000000002, 0.0027644
DataValue, 1.9600000000000002, 0.0030196
DataValue, 2, 0.0032890000000000003