
SetupTitle, I/V Sweep
PrimitiveTest, I/V Sweep
TestParameter, Context.MainFrame, B1500A
TestParameter, Channel.UnitType, SMU, SMU, SMU, SMU, SMU
TestParameter, Channel.Unit, SMU1:HP, SMU2:MP, SMU3:MP, SMU4:MP, SMU5:MP
TestParameter, Channel.IName, I, IDD1, IDD2, ISS, IPP
TestParameter, Channel.VName, V, VDD1, VDD2, VSS, VPP
TestParameter, Channel.Mode, V, V, V, V, V
TestParameter, Channel.Func, VAR1, CONST, CONST, CONST, CONST
TestParameter, Channel.Index, 
TestParameter, Channel.Time, 
TestParameter, Measurement.Port.Unit, SMU1:HP, SMU2:MP, SMU3:MP, SMU4:MP, SMU5:MP
TestParameter, Measurement.Port.SeriesResistor, NONE, NONE, NONE, NONE, NONE
TestParameter, Measurement.Port.Filter, ON, ON, ON, ON, ON
TestParameter, Measurement.Port.OutputVoltageComparison, 0, 0, 0, 0, 0
TestParameter, Measurement.Primary.Locus, Single
TestParameter, Measurement.Primary.Scale, LINEAR
TestParameter, Measurement.Primary.Start, -2
TestParameter, Measurement.Primary.Stop, 2
TestParameter, Measurement.Primary.Step, 0.04
TestParameter, Measurement.Primary.Compliance, 0.1
TestParameter, Measurement.Primary.PowerCompliance, 0
TestParameter, Measurement.Aborting.Condition, CONTINUE AT ANY
TestParameter, Measurement.PostOutput.Value, START
TestParameter, Measurement.PostOutput.Retention, OFF
TestParameter, Measurement.Bias.Source, -2, 1.8, 1.1, 0, 0
TestParameter, Measurement.Bias.Compliance, 0.1, 0.1, 0.1, 0.1, 0.1
TestParameter, Measurement.Monitor.Unit, SMU1:HP, SMU2:MP, SMU3:MP, SMU4:MP, SMU5:MP
TestParameter, Measurement.Monitor.Adc, HR ADC, HR ADC, HR ADC, HR ADC, HR ADC
TestParameter, Measurement.Monitor.Measurement, Compliance Side, Compliance Side, Compliance Side, Compliance Side, Compliance Side
TestParameter, Measurement.Monitor.RangingMode, LIMITED, LIMITED, LIMITED, LIMITED, LIMITED
TestParameter, Measurement.Monitor.RangeBoundary, 1nA, 1nA, 1nA, 1nA, 1nA
TestParameter, Measurement.Monitor.RangeRating, BY FULL RANGE, BY FULL RANGE, BY FULL RANGE, BY FULL RANGE, BY FULL RANGE
TestParameter, Measurement.Monitor.RangeRatingCoeff, 50, 50, 50, 50, 50
TestParameter, Measurement.Timing.Hold, 0
TestParameter, Measurement.Timing.Delay, 0
TestParameter, Measurement.Adc.HighSpeed.Mode, AUTO
TestParameter, Measurement.Adc.HighSpeed.Coeff, 1
TestParameter, Measurement.Adc.HighResolution.AutoZero, OFF
TestParameter, Measurement.Adc.HighResolution.Mode, AUTO
TestParameter, Measurement.Adc.HighResolution.Coeff, 6
TestParameter, Measurement.WaitTime.Source.Coeff, 1
TestParameter, Measurement.WaitTime.Source.Offset, 0
TestParameter, Measurement.WaitTime.Monitor.Coeff, 1
TestParameter, Measurement.WaitTime.Monitor.Offset, 0
TestParameter, Output.Graph.Enabled, true
TestParameter, Output.Graph.AutoScaling, false
TestParameter, Output.Graph.XAxis.Data, V
TestParameter, Output.Graph.XAxis.Scale, Linear
TestParameter, Output.Graph.XAxis.Left, -2
TestParameter, Output.Graph.XAxis.Right, 2
TestParameter, Output.Graph.XAxis.RunTimeAutoScale, true
TestParameter, Output.Graph.YAxis.Data, I
TestParameter, Output.Graph.YAxis.Scale, Linear
TestParameter, Output.Graph.YAxis.Bottom, -0.1
TestParameter, Output.Graph.YAxis.Top, 0.1
TestParameter, Output.Graph.YAxis.Group, 
TestParameter, Output.Graph.YAxis.RunTimeAutoScale, true
TestParameter, AutoAnalysis.Interpolation, false
TestParameter, AutoAnalysis.Var2StepCount, 1
TestParameter, AutoAnalysis.Var2StepScript, 
TestParameter, AutoAnalysis.Line1.Enabled, false
TestParameter, AutoAnalysis.Line1.Type, 1
TestParameter, AutoAnalysis.Line1.Fix, True
TestParameter, AutoAnalysis.Line1.YAxis, 0
TestParameter, AutoAnalysis.Line1.Point1.Type, 0
TestParameter, AutoAnalysis.Line1.Point1.XY.X, 
TestParameter, AutoAnalysis.Line1.Point1.XY.Y, 
TestParameter, AutoAnalysis.Line1.Point1.Data.Var, 
TestParameter, AutoAnalysis.Line1.Point1.Data.Condition, 
TestParameter, AutoAnalysis.Line1.Point1.Data.Start, false
TestParameter, AutoAnalysis.Line1.Point1.Data.StartVar, 
TestParameter, AutoAnalysis.Line1.Point1.Data.StartCondition, 
TestParameter, AutoAnalysis.Line1.Point2.Type, 0
TestParameter, AutoAnalysis.Line1.Point2.XY.X, 
TestParameter, AutoAnalysis.Line1.Point2.XY.Y, 
TestParameter, AutoAnalysis.Line1.Point2.Data.Var, 
TestParameter, AutoAnalysis.Line1.Point2.Data.Condition, 
TestParameter, AutoAnalysis.Line1.Point2.Data.Start, false
TestParameter, AutoAnalysis.Line1.Point2.Data.StartVar, 
TestParameter, AutoAnalysis.Line1.Point2.Data.StartCondition, 
TestParameter, AutoAnalysis.Line1.GradientExpr, 0
TestParameter, AutoAnalysis.Line2.Enabled, false
TestParameter, AutoAnalysis.Line2.Type, 1
TestParameter, AutoAnalysis.Line2.Fix, True
TestParameter, AutoAnalysis.Line2.YAxis, 0
TestParameter, AutoAnalysis.Line2.Point1.Type, 0
TestParameter, AutoAnalysis.Line2.Point1.XY.X, 
TestParameter, AutoAnalysis.Line2.Point1.XY.Y, 
TestParameter, AutoAnalysis.Line2.Point1.Data.Var, 
TestParameter, AutoAnalysis.Line2.Point1.Data.Condition, 
TestParameter, AutoAnalysis.Line2.Point1.Data.Start, false
TestParameter, AutoAnalysis.Line2.Point1.Data.StartVar, 
TestParameter, AutoAnalysis.Line2.Point1.Data.StartCondition, 
TestParameter, AutoAnalysis.Line2.Point2.Type, 0
TestParameter, AutoAnalysis.Line2.Point2.XY.X, 
TestParameter, AutoAnalysis.Line2.Point2.XY.Y, 
TestParameter, AutoAnalysis.Line2.Point2.Data.Var, 
TestParameter, AutoAnalysis.Line2.Point2.Data.Condition, 
TestParameter, AutoAnalysis.Line2.Point2.Data.Start, false
TestParameter, AutoAnalysis.Line2.Point2.Data.StartVar, 
TestParameter, AutoAnalysis.Line2.Point2.Data.StartCondition, 
TestParameter, AutoAnalysis.Line2.GradientExpr, 0
TestParameter, AutoAnalysis.Marker.Enabled, false
TestParameter, AutoAnalysis.Marker.Data.Var, 
TestParameter, AutoAnalysis.Marker.Data.Condition, 
TestParameter, AutoAnalysis.Marker.Data.Start, false
TestParameter, AutoAnalysis.Marker.Data.StartVar, 
TestParameter, AutoAnalysis.Marker.Data.StartCondition, 
MetaData, TestRecord.EntryPoint, true
MetaData, TestRecord.RecordTime, 10/19/2022 14:28:22
MetaData, TestRecord.TestTarget, 
MetaData, TestRecord.IterationIndex, 449
MetaData, TestRecord.Preservation, true
MetaData, TestRecord.Flag, 
MetaData, TestRecord.Remarks, 
MetaData, TestRecord.LinkKey, 1db33d79-0cbd-4e98-9f26-35e35550ca98
MetaData, TestRecord.Parameters, 
Dimension1, 101, 101
Dimension2, 1, 1
DataName, V, I
DataValue, -2, -0.031760000000000004
DataValue, -1.9600000000000002, -0.031086000000000003
DataValue, -1.9200000000000002, -0.030440000000000002
DataValue, -1.8800000000000001, -0.029966000000000003
DataValue, -1.84, -0.029152
DataValue, -1.8, -0.028542
DataValue, -1.76, -0.027898000000000003
DataValue, -1.72, -0.027358000000000004
DataValue, -1.6800000000000002, -0.026634
DataValue, -1.6400000000000001, -0.026186
DataValue, -1.6, -0.025092000000000003
DataValue, -1.56, -0.0245
DataValue, -1.52, -0.023802000000000004
DataValue, -1.48, -0.023110000000000002
DataValue, -1.4400000000000002, -0.022424000000000003
DataValue, -1.4000000000000001, -0.021734000000000003
DataValue, -1.36, -0.021054000000000003
DataValue, -1.32, -0.020372
DataValue, -1.28, -0.019678
DataValue, -1.24, -0.018988
DataValue, -1.2, -0.018298000000000002
DataValue, -1.1600000000000001, -0.017616000000000003
DataValue, -1.12, -0.016926
DataValue, -1.08, -0.01626
DataValue, -1.04, -0.015584
DataValue, -1, -0.014914000000000002
DataValue, -0.96000000000000008, -0.014248000000000002
DataValue, -0.92, -0.013574000000000001
DataValue, -0.88, -0.012874000000000002
DataValue, -0.84000000000000008, -0.012278
DataValue, -0.8, -0.011652000000000001
DataValue, -0.76, -0.011006
DataValue, -0.72000000000000008, -0.010364000000000002
DataValue, -0.68, -0.0097494
DataValue, -0.64, -0.00911
DataValue, -0.6, -0.0084832
DataValue, -0.56, -0.0078774
DataValue, -0.52, -0.0072752
DataValue, -0.48000000000000004, -0.0066898
DataValue, -0.44, -0.0061212
DataValue, -0.4, -0.0055702
DataValue, -0.36000000000000004, -0.005039
DataValue, -0.32, -0.0045296
DataValue, -0.28, -0.0040452
DataValue, -0.24000000000000002, -0.0035874
DataValue, -0.2, -0.0031586
DataValue, -0.16, -0.0027584000000000003
DataValue, -0.12000000000000001, -0.0023894
DataValue, -0.08, -0.002056
DataValue, -0.04, -0.0017626
DataValue, 0, -0.001508
DataValue, 0.04, -0.0012854000000000001
DataValue, 0.08, -0.0010934
DataValue, 0.12000000000000001, -0.00092810000000000006
DataValue, 0.16, -0.00078834
DataValue, 0.2, -0.0006709
DataValue, 0.24000000000000002, -0.00057064000000000008
DataValue, 0.28, -0.00048244000000000005
DataValue, 0.32, -0.00040290000000000004
DataValue, 0.36000000000000004, -0.00032460000000000003
DataValue, 0.4, -0.00025800000000000004
DataValue, 0.44, -0.00019472
DataValue, 0.48000000000000004, -0.00015674000000000002
DataValue, 0.52, -0.00011630000000000001
DataValue, 0.56, -8.7442000000000007E-05
DataValue, 0.6, -7.0872000000000009E-05
DataValue, 0.64, -4.7928E-05
DataValue, 0.68, -3.419E-05
DataValue, 0.72000000000000008, -2.4254000000000002E-05
DataValue, 0.76, -1.5324E-05
DataValue, 0.8, -8.1068E-06
DataValue, 0.84000000000000008, -9.0035999999999994E-07
DataValue, 0.88, 6.5418000000000006E-06
DataValue, 0.92, 1.2478E-05
DataValue, 0.96000000000000008, 1.6442E-05
DataValue, 1, 1.8010000000000002E-05
DataValue, 1.04, 1.8478E-05
DataValue, 1.08, 1.8612E-05
DataValue, 1.12, 1.863E-05
DataValue, 1.1600000000000001, 1.866E-05
DataValue, 1.2, 1.8656000000000002E-05
DataValue, 1.24, 1.8712E-05
DataValue, 1.28, 1.872E-05
DataValue, 1.32, 1.8592E-05
DataValue, 1.36, 1.8654E-05
DataValue, 1.4000000000000001, 1.8746E-05
DataValue, 1.4400000000000002, 1.8648000000000002E-05
DataValue, 1.48, 1.872E-05
DataValue, 1.52, 1.8732E-05
DataValue, 1.56, 1.83E-05
DataValue, 1.6, 1.8792000000000002E-05
DataValue, 1.6400000000000001, 1.8804E-05
DataValue, 1.6800000000000002, 1.883E-05
DataValue, 1.72, 1.8880000000000002E-05
DataValue, 1.76, 1.9142E-05
DataValue, 1.8, 1.9792E-05
DataValue, 1.84, 2.2044E-05
DataValue, 1.8800000000000001, 2.9058000000000002E-05
DataValue, 1.9200000000000002, 4.9288E-05
DataValue, 1.9600000000000002, 9.4296E-05
DataValue, 2, 0.00017544000000000001