
SetupTitle, I/V Sweep
PrimitiveTest, I/V Sweep
TestParameter, Context.MainFrame, B1500A
TestParameter, Channel.UnitType, SMU, SMU, SMU, SMU, SMU
TestParameter, Channel.Unit, SMU1:HP, SMU2:MP, SMU3:MP, SMU4:MP, SMU5:MP
TestParameter, Channel.IName, I, IDD1, IDD2, ISS, IPP
TestParameter, Channel.VName, V, VDD1, VDD2, VSS, VPP
TestParameter, Channel.Mode, V, V, V, V, V
TestParameter, Channel.Func, VAR1, CONST, CONST, CONST, CONST
TestParameter, Channel.Index, 
TestParameter, Channel.Time, 
TestParameter, Measurement.Port.Unit, SMU1:HP, SMU2:MP, SMU3:MP, SMU4:MP, SMU5:MP
TestParameter, Measurement.Port.SeriesResistor, NONE, NONE, NONE, NONE, NONE
TestParameter, Measurement.Port.Filter, ON, ON, ON, ON, ON
TestParameter, Measurement.Port.OutputVoltageComparison, 0, 0, 0, 0, 0
TestParameter, Measurement.Primary.Locus, Single
TestParameter, Measurement.Primary.Scale, LINEAR
TestParameter, Measurement.Primary.Start, -2
TestParameter, Measurement.Primary.Stop, 2
TestParameter, Measurement.Primary.Step, 0.04
TestParameter, Measurement.Primary.Compliance, 0.1
TestParameter, Measurement.Primary.PowerCompliance, 0
TestParameter, Measurement.Aborting.Condition, CONTINUE AT ANY
TestParameter, Measurement.PostOutput.Value, START
TestParameter, Measurement.PostOutput.Retention, OFF
TestParameter, Measurement.Bias.Source, -2, 1.8, 1.1, 0, 0
TestParameter, Measurement.Bias.Compliance, 0.1, 0.1, 0.1, 0.1, 0.1
TestParameter, Measurement.Monitor.Unit, SMU1:HP, SMU2:MP, SMU3:MP, SMU4:MP, SMU5:MP
TestParameter, Measurement.Monitor.Adc, HR ADC, HR ADC, HR ADC, HR ADC, HR ADC
TestParameter, Measurement.Monitor.Measurement, Compliance Side, Compliance Side, Compliance Side, Compliance Side, Compliance Side
TestParameter, Measurement.Monitor.RangingMode, LIMITED, LIMITED, LIMITED, LIMITED, LIMITED
TestParameter, Measurement.Monitor.RangeBoundary, 1nA, 1nA, 1nA, 1nA, 1nA
TestParameter, Measurement.Monitor.RangeRating, BY FULL RANGE, BY FULL RANGE, BY FULL RANGE, BY FULL RANGE, BY FULL RANGE
TestParameter, Measurement.Monitor.RangeRatingCoeff, 50, 50, 50, 50, 50
TestParameter, Measurement.Timing.Hold, 0
TestParameter, Measurement.Timing.Delay, 0
TestParameter, Measurement.Adc.HighSpeed.Mode, AUTO
TestParameter, Measurement.Adc.HighSpeed.Coeff, 1
TestParameter, Measurement.Adc.HighResolution.AutoZero, OFF
TestParameter, Measurement.Adc.HighResolution.Mode, AUTO
TestParameter, Measurement.Adc.HighResolution.Coeff, 6
TestParameter, Measurement.WaitTime.Source.Coeff, 1
TestParameter, Measurement.WaitTime.Source.Offset, 0
TestParameter, Measurement.WaitTime.Monitor.Coeff, 1
TestParameter, Measurement.WaitTime.Monitor.Offset, 0
TestParameter, Output.Graph.Enabled, true
TestParameter, Output.Graph.AutoScaling, false
TestParameter, Output.Graph.XAxis.Data, V
TestParameter, Output.Graph.XAxis.Scale, Linear
TestParameter, Output.Graph.XAxis.Left, -2
TestParameter, Output.Graph.XAxis.Right, 2
TestParameter, Output.Graph.XAxis.RunTimeAutoScale, true
TestParameter, Output.Graph.YAxis.Data, I
TestParameter, Output.Graph.YAxis.Scale, Linear
TestParameter, Output.Graph.YAxis.Bottom, -0.1
TestParameter, Output.Graph.YAxis.Top, 0.1
TestParameter, Output.Graph.YAxis.Group, 
TestParameter, Output.Graph.YAxis.RunTimeAutoScale, true
TestParameter, AutoAnalysis.Interpolation, false
TestParameter, AutoAnalysis.Var2StepCount, 1
TestParameter, AutoAnalysis.Var2StepScript, 
TestParameter, AutoAnalysis.Line1.Enabled, false
TestParameter, AutoAnalysis.Line1.Type, 1
TestParameter, AutoAnalysis.Line1.Fix, True
TestParameter, AutoAnalysis.Line1.YAxis, 0
TestParameter, AutoAnalysis.Line1.Point1.Type, 0
TestParameter, AutoAnalysis.Line1.Point1.XY.X, 
TestParameter, AutoAnalysis.Line1.Point1.XY.Y, 
TestParameter, AutoAnalysis.Line1.Point1.Data.Var, 
TestParameter, AutoAnalysis.Line1.Point1.Data.Condition, 
TestParameter, AutoAnalysis.Line1.Point1.Data.Start, false
TestParameter, AutoAnalysis.Line1.Point1.Data.StartVar, 
TestParameter, AutoAnalysis.Line1.Point1.Data.StartCondition, 
TestParameter, AutoAnalysis.Line1.Point2.Type, 0
TestParameter, AutoAnalysis.Line1.Point2.XY.X, 
TestParameter, AutoAnalysis.Line1.Point2.XY.Y, 
TestParameter, AutoAnalysis.Line1.Point2.Data.Var, 
TestParameter, AutoAnalysis.Line1.Point2.Data.Condition, 
TestParameter, AutoAnalysis.Line1.Point2.Data.Start, false
TestParameter, AutoAnalysis.Line1.Point2.Data.StartVar, 
TestParameter, AutoAnalysis.Line1.Point2.Data.StartCondition, 
TestParameter, AutoAnalysis.Line1.GradientExpr, 0
TestParameter, AutoAnalysis.Line2.Enabled, false
TestParameter, AutoAnalysis.Line2.Type, 1
TestParameter, AutoAnalysis.Line2.Fix, True
TestParameter, AutoAnalysis.Line2.YAxis, 0
TestParameter, AutoAnalysis.Line2.Point1.Type, 0
TestParameter, AutoAnalysis.Line2.Point1.XY.X, 
TestParameter, AutoAnalysis.Line2.Point1.XY.Y, 
TestParameter, AutoAnalysis.Line2.Point1.Data.Var, 
TestParameter, AutoAnalysis.Line2.Point1.Data.Condition, 
TestParameter, AutoAnalysis.Line2.Point1.Data.Start, false
TestParameter, AutoAnalysis.Line2.Point1.Data.StartVar, 
TestParameter, AutoAnalysis.Line2.Point1.Data.StartCondition, 
TestParameter, AutoAnalysis.Line2.Point2.Type, 0
TestParameter, AutoAnalysis.Line2.Point2.XY.X, 
TestParameter, AutoAnalysis.Line2.Point2.XY.Y, 
TestParameter, AutoAnalysis.Line2.Point2.Data.Var, 
TestParameter, AutoAnalysis.Line2.Point2.Data.Condition, 
TestParameter, AutoAnalysis.Line2.Point2.Data.Start, false
TestParameter, AutoAnalysis.Line2.Point2.Data.StartVar, 
TestParameter, AutoAnalysis.Line2.Point2.Data.StartCondition, 
TestParameter, AutoAnalysis.Line2.GradientExpr, 0
TestParameter, AutoAnalysis.Marker.Enabled, false
TestParameter, AutoAnalysis.Marker.Data.Var, 
TestParameter, AutoAnalysis.Marker.Data.Condition, 
TestParameter, AutoAnalysis.Marker.Data.Start, false
TestParameter, AutoAnalysis.Marker.Data.StartVar, 
TestParameter, AutoAnalysis.Marker.Data.StartCondition, 
MetaData, TestRecord.EntryPoint, true
MetaData, TestRecord.RecordTime, 10/19/2022 14:11:19
MetaData, TestRecord.TestTarget, 
MetaData, TestRecord.IterationIndex, 411
MetaData, TestRecord.Preservation, true
MetaData, TestRecord.Flag, 
MetaData, TestRecord.Remarks, 
MetaData, TestRecord.LinkKey, 6a0b1c3c-5319-4444-8a71-91adad2e00b2
MetaData, TestRecord.Parameters, 
Dimension1, 101, 101
Dimension2, 1, 1
DataName, V, I
DataValue, -2, -0.0020064
DataValue, -1.9600000000000002, -0.0017896000000000001
DataValue, -1.9200000000000002, -0.001601
DataValue, -1.8800000000000001, -0.0014378
DataValue, -1.84, -0.0012942000000000001
DataValue, -1.8, -0.0011682
DataValue, -1.76, -0.0010544
DataValue, -1.72, -0.00095034
DataValue, -1.6800000000000002, -0.00085100000000000009
DataValue, -1.6400000000000001, -0.00075784000000000008
DataValue, -1.6, -0.00067004
DataValue, -1.56, -0.00058762000000000007
DataValue, -1.52, -0.0005105
DataValue, -1.48, -0.00043910000000000005
DataValue, -1.4400000000000002, -0.00037282
DataValue, -1.4000000000000001, -0.00031232000000000005
DataValue, -1.36, -0.00025780000000000003
DataValue, -1.32, -0.00020968
DataValue, -1.28, -0.00016798
DataValue, -1.24, -0.00013248
DataValue, -1.2, -0.00010298
DataValue, -1.1600000000000001, -7.883E-05
DataValue, -1.12, -5.9454000000000004E-05
DataValue, -1.08, -4.4200000000000004E-05
DataValue, -1.04, -3.2312E-05
DataValue, -1, -2.3256000000000002E-05
DataValue, -0.96000000000000008, -1.6594E-05
DataValue, -0.92, -1.1622E-05
DataValue, -0.88, -7.9781E-06
DataValue, -0.84000000000000008, -5.5093000000000008E-06
DataValue, -0.8, -3.6269000000000004E-06
DataValue, -0.76, -2.4026E-06
DataValue, -0.72000000000000008, -1.6856000000000002E-06
DataValue, -0.68, -1.0371000000000002E-06
DataValue, -0.64, -8.3947999999999994E-07
DataValue, -0.6, -3.1916E-07
DataValue, -0.56, -3.6542E-07
DataValue, -0.52, -1.3668E-07
DataValue, -0.48000000000000004, -1.1397999999999999E-07
DataValue, -0.44, -3.4086E-07
DataValue, -0.4, -9.756E-08
DataValue, -0.36000000000000004, -3.1402E-07
DataValue, -0.32, -1.66E-07
DataValue, -0.28, -3.2617999999999997E-07
DataValue, -0.24000000000000002, -2.7812E-07
DataValue, -0.2, -1.7508E-07
DataValue, -0.16, -2.5698E-07
DataValue, -0.12000000000000001, -2.5632E-07
DataValue, -0.08, -1.0076E-07
DataValue, -0.04, -2.3994E-07
DataValue, 0, -1.8354E-07
DataValue, 0.04, -5.8826199999999991E-08
DataValue, 0.08, -5.7199999999999996E-08
DataValue, 0.12000000000000001, -1.4754E-07
DataValue, 0.16, -1.643E-07
DataValue, 0.2, 2.4924199999999996E-08
DataValue, 0.24000000000000002, 1.4818E-07
DataValue, 0.28, 3.9326E-07
DataValue, 0.32, 8.075E-07
DataValue, 0.36000000000000004, 1.2264E-06
DataValue, 0.4, 1.7651000000000003E-06
DataValue, 0.44, 2.34E-06
DataValue, 0.48000000000000004, 2.8136000000000005E-06
DataValue, 0.52, 3.4168000000000005E-06
DataValue, 0.56, 4.3041000000000009E-06
DataValue, 0.6, 5.824600000000001E-06
DataValue, 0.64, 8.529E-06
DataValue, 0.68, 1.2726E-05
DataValue, 0.72000000000000008, 1.9134E-05
DataValue, 0.76, 2.5146E-05
DataValue, 0.8, 2.9282000000000002E-05
DataValue, 0.84000000000000008, 3.3028E-05
DataValue, 0.88, 3.7058E-05
DataValue, 0.92, 4.2148000000000004E-05
DataValue, 0.96000000000000008, 4.8958E-05
DataValue, 1, 5.8124E-05
DataValue, 1.04, 7.008E-05
DataValue, 1.08, 8.4908000000000008E-05
DataValue, 1.12, 0.00010222600000000001
DataValue, 1.1600000000000001, 0.00012132000000000001
DataValue, 1.2, 0.00014372
DataValue, 1.24, 0.00016820000000000002
DataValue, 1.28, 0.00019854
DataValue, 1.32, 0.00023724000000000003
DataValue, 1.36, 0.00030022
DataValue, 1.4000000000000001, 0.00039618000000000005
DataValue, 1.4400000000000002, 0.00050948
DataValue, 1.48, 0.00064928
DataValue, 1.52, 0.00081058000000000009
DataValue, 1.56, 0.00100686
DataValue, 1.6, 0.0012436
DataValue, 1.6400000000000001, 0.0014902000000000001
DataValue, 1.6800000000000002, 0.0017696
DataValue, 1.72, 0.0020758
DataValue, 1.76, 0.0024036
DataValue, 1.8, 0.0027638
DataValue, 1.84, 0.0031604000000000003
DataValue, 1.8800000000000001, 0.0035884000000000003
DataValue, 1.9200000000000002, 0.0040246
DataValue, 1.9600000000000002, 0.0045608
DataValue, 2, 0.0051248000000000005