
SetupTitle, I/V Sweep
PrimitiveTest, I/V Sweep
TestParameter, Context.MainFrame, B1500A
TestParameter, Channel.UnitType, SMU, SMU, SMU, SMU, SMU
TestParameter, Channel.Unit, SMU1:HP, SMU2:MP, SMU3:MP, SMU4:MP, SMU5:MP
TestParameter, Channel.IName, I, IDD1, IDD2, ISS, IPP
TestParameter, Channel.VName, V, VDD1, VDD2, VSS, VPP
TestParameter, Channel.Mode, V, V, V, V, V
TestParameter, Channel.Func, VAR1, CONST, CONST, CONST, CONST
TestParameter, Channel.Index, 
TestParameter, Channel.Time, 
TestParameter, Measurement.Port.Unit, SMU1:HP, SMU2:MP, SMU3:MP, SMU4:MP, SMU5:MP
TestParameter, Measurement.Port.SeriesResistor, NONE, NONE, NONE, NONE, NONE
TestParameter, Measurement.Port.Filter, ON, ON, ON, ON, ON
TestParameter, Measurement.Port.OutputVoltageComparison, 0, 0, 0, 0, 0
TestParameter, Measurement.Primary.Locus, Single
TestParameter, Measurement.Primary.Scale, LINEAR
TestParameter, Measurement.Primary.Start, -2
TestParameter, Measurement.Primary.Stop, 2
TestParameter, Measurement.Primary.Step, 0.04
TestParameter, Measurement.Primary.Compliance, 0.1
TestParameter, Measurement.Primary.PowerCompliance, 0
TestParameter, Measurement.Aborting.Condition, CONTINUE AT ANY
TestParameter, Measurement.PostOutput.Value, START
TestParameter, Measurement.PostOutput.Retention, OFF
TestParameter, Measurement.Bias.Source, -2, 1.8, 1.1, 0, 0
TestParameter, Measurement.Bias.Compliance, 0.1, 0.1, 0.1, 0.1, 0.1
TestParameter, Measurement.Monitor.Unit, SMU1:HP, SMU2:MP, SMU3:MP, SMU4:MP, SMU5:MP
TestParameter, Measurement.Monitor.Adc, HR ADC, HR ADC, HR ADC, HR ADC, HR ADC
TestParameter, Measurement.Monitor.Measurement, Compliance Side, Compliance Side, Compliance Side, Compliance Side, Compliance Side
TestParameter, Measurement.Monitor.RangingMode, LIMITED, LIMITED, LIMITED, LIMITED, LIMITED
TestParameter, Measurement.Monitor.RangeBoundary, 1nA, 1nA, 1nA, 1nA, 1nA
TestParameter, Measurement.Monitor.RangeRating, BY FULL RANGE, BY FULL RANGE, BY FULL RANGE, BY FULL RANGE, BY FULL RANGE
TestParameter, Measurement.Monitor.RangeRatingCoeff, 50, 50, 50, 50, 50
TestParameter, Measurement.Timing.Hold, 0
TestParameter, Measurement.Timing.Delay, 0
TestParameter, Measurement.Adc.HighSpeed.Mode, AUTO
TestParameter, Measurement.Adc.HighSpeed.Coeff, 1
TestParameter, Measurement.Adc.HighResolution.AutoZero, OFF
TestParameter, Measurement.Adc.HighResolution.Mode, AUTO
TestParameter, Measurement.Adc.HighResolution.Coeff, 6
TestParameter, Measurement.WaitTime.Source.Coeff, 1
TestParameter, Measurement.WaitTime.Source.Offset, 0
TestParameter, Measurement.WaitTime.Monitor.Coeff, 1
TestParameter, Measurement.WaitTime.Monitor.Offset, 0
TestParameter, Output.Graph.Enabled, true
TestParameter, Output.Graph.AutoScaling, false
TestParameter, Output.Graph.XAxis.Data, V
TestParameter, Output.Graph.XAxis.Scale, Linear
TestParameter, Output.Graph.XAxis.Left, -2
TestParameter, Output.Graph.XAxis.Right, 2
TestParameter, Output.Graph.XAxis.RunTimeAutoScale, true
TestParameter, Output.Graph.YAxis.Data, I
TestParameter, Output.Graph.YAxis.Scale, Linear
TestParameter, Output.Graph.YAxis.Bottom, -0.1
TestParameter, Output.Graph.YAxis.Top, 0.1
TestParameter, Output.Graph.YAxis.Group, 
TestParameter, Output.Graph.YAxis.RunTimeAutoScale, true
TestParameter, AutoAnalysis.Interpolation, false
TestParameter, AutoAnalysis.Var2StepCount, 1
TestParameter, AutoAnalysis.Var2StepScript, 
TestParameter, AutoAnalysis.Line1.Enabled, false
TestParameter, AutoAnalysis.Line1.Type, 1
TestParameter, AutoAnalysis.Line1.Fix, True
TestParameter, AutoAnalysis.Line1.YAxis, 0
TestParameter, AutoAnalysis.Line1.Point1.Type, 0
TestParameter, AutoAnalysis.Line1.Point1.XY.X, 
TestParameter, AutoAnalysis.Line1.Point1.XY.Y, 
TestParameter, AutoAnalysis.Line1.Point1.Data.Var, 
TestParameter, AutoAnalysis.Line1.Point1.Data.Condition, 
TestParameter, AutoAnalysis.Line1.Point1.Data.Start, false
TestParameter, AutoAnalysis.Line1.Point1.Data.StartVar, 
TestParameter, AutoAnalysis.Line1.Point1.Data.StartCondition, 
TestParameter, AutoAnalysis.Line1.Point2.Type, 0
TestParameter, AutoAnalysis.Line1.Point2.XY.X, 
TestParameter, AutoAnalysis.Line1.Point2.XY.Y, 
TestParameter, AutoAnalysis.Line1.Point2.Data.Var, 
TestParameter, AutoAnalysis.Line1.Point2.Data.Condition, 
TestParameter, AutoAnalysis.Line1.Point2.Data.Start, false
TestParameter, AutoAnalysis.Line1.Point2.Data.StartVar, 
TestParameter, AutoAnalysis.Line1.Point2.Data.StartCondition, 
TestParameter, AutoAnalysis.Line1.GradientExpr, 0
TestParameter, AutoAnalysis.Line2.Enabled, false
TestParameter, AutoAnalysis.Line2.Type, 1
TestParameter, AutoAnalysis.Line2.Fix, True
TestParameter, AutoAnalysis.Line2.YAxis, 0
TestParameter, AutoAnalysis.Line2.Point1.Type, 0
TestParameter, AutoAnalysis.Line2.Point1.XY.X, 
TestParameter, AutoAnalysis.Line2.Point1.XY.Y, 
TestParameter, AutoAnalysis.Line2.Point1.Data.Var, 
TestParameter, AutoAnalysis.Line2.Point1.Data.Condition, 
TestParameter, AutoAnalysis.Line2.Point1.Data.Start, false
TestParameter, AutoAnalysis.Line2.Point1.Data.StartVar, 
TestParameter, AutoAnalysis.Line2.Point1.Data.StartCondition, 
TestParameter, AutoAnalysis.Line2.Point2.Type, 0
TestParameter, AutoAnalysis.Line2.Point2.XY.X, 
TestParameter, AutoAnalysis.Line2.Point2.XY.Y, 
TestParameter, AutoAnalysis.Line2.Point2.Data.Var, 
TestParameter, AutoAnalysis.Line2.Point2.Data.Condition, 
TestParameter, AutoAnalysis.Line2.Point2.Data.Start, false
TestParameter, AutoAnalysis.Line2.Point2.Data.StartVar, 
TestParameter, AutoAnalysis.Line2.Point2.Data.StartCondition, 
TestParameter, AutoAnalysis.Line2.GradientExpr, 0
TestParameter, AutoAnalysis.Marker.Enabled, false
TestParameter, AutoAnalysis.Marker.Data.Var, 
TestParameter, AutoAnalysis.Marker.Data.Condition, 
TestParameter, AutoAnalysis.Marker.Data.Start, false
TestParameter, AutoAnalysis.Marker.Data.StartVar, 
TestParameter, AutoAnalysis.Marker.Data.StartCondition, 
MetaData, TestRecord.EntryPoint, true
MetaData, TestRecord.RecordTime, 10/19/2022 14:18:54
MetaData, TestRecord.TestTarget, 
MetaData, TestRecord.IterationIndex, 427
MetaData, TestRecord.Preservation, true
MetaData, TestRecord.Flag, 
MetaData, TestRecord.Remarks, 
MetaData, TestRecord.LinkKey, c24a7348-a660-4484-84e1-2bb705d2807b
MetaData, TestRecord.Parameters, 
Dimension1, 101, 101
Dimension2, 1, 1
DataName, V, I
DataValue, -2, -0.00052036
DataValue, -1.9600000000000002, -0.00039964000000000004
DataValue, -1.9200000000000002, -0.00030534000000000003
DataValue, -1.8800000000000001, -0.00023260000000000002
DataValue, -1.84, -0.00017636
DataValue, -1.8, -0.00013346
DataValue, -1.76, -0.00010054000000000001
DataValue, -1.72, -7.5918E-05
DataValue, -1.6800000000000002, -5.7228E-05
DataValue, -1.6400000000000001, -4.3464E-05
DataValue, -1.6, -3.3088E-05
DataValue, -1.56, -2.5220000000000002E-05
DataValue, -1.52, -1.9266E-05
DataValue, -1.48, -1.4412E-05
DataValue, -1.4400000000000002, -1.0708E-05
DataValue, -1.4000000000000001, -7.9327000000000011E-06
DataValue, -1.36, -5.6939000000000007E-06
DataValue, -1.32, -4.1629E-06
DataValue, -1.28, -2.9756000000000004E-06
DataValue, -1.24, -2.0344000000000004E-06
DataValue, -1.2, -1.5563000000000002E-06
DataValue, -1.1600000000000001, -1.1394E-06
DataValue, -1.12, -9.1547999999999994E-07
DataValue, -1.08, -5.9854E-07
DataValue, -1.04, -3.5626E-07
DataValue, -1, -3.2158E-07
DataValue, -0.96000000000000008, -3.1434E-07
DataValue, -0.92, -1.9484E-07
DataValue, -0.88, -1.409E-07
DataValue, -0.84000000000000008, -1.7092E-07
DataValue, -0.8, -1.166E-07
DataValue, -0.76, -2.433E-07
DataValue, -0.72000000000000008, -1.2951999999999999E-07
DataValue, -0.68, -2.0138E-07
DataValue, -0.64, -1.1062E-07
DataValue, -0.6, -1.5296E-07
DataValue, -0.56, -8.6205399999999992E-08
DataValue, -0.52, -1.5246E-07
DataValue, -0.48000000000000004, -7.64546E-08
DataValue, -0.44, -5.3874199999999994E-08
DataValue, -0.4, -4.7372199999999993E-08
DataValue, -0.36000000000000004, -1.4723199999999998E-08
DataValue, -0.32, -1.5629799999999997E-08
DataValue, -0.28, -2.8753199999999997E-08
DataValue, -0.24000000000000002, -2.3034399999999998E-08
DataValue, -0.2, -1.4436E-08
DataValue, -0.16, -1.09009E-08
DataValue, -0.12000000000000001, -5.779E-09
DataValue, -0.08, -1.6239E-09
DataValue, -0.04, -1.1037E-09
DataValue, 0, -5.9828E-10
DataValue, 0.04, -5.8528000000000007E-10
DataValue, 0.08, -4.1357000000000005E-10
DataValue, 0.12000000000000001, -4.3804E-10
DataValue, 0.16, -2.5248000000000004E-10
DataValue, 0.2, -2.0980000000000002E-10
DataValue, 0.24000000000000002, 4.6784E-10
DataValue, 0.28, 1.3711E-09
DataValue, 0.32, 2.7972E-09
DataValue, 0.36000000000000004, 6.3085E-09
DataValue, 0.4, 1.1657199999999999E-08
DataValue, 0.44, 1.7485599999999997E-08
DataValue, 0.48000000000000004, 3.27346E-08
DataValue, 0.52, 4.2746799999999995E-08
DataValue, 0.56, 7.922439999999999E-08
DataValue, 0.6, 9.5203E-08
DataValue, 0.64, 1.4594E-07
DataValue, 0.68, 2.6174E-07
DataValue, 0.72000000000000008, 3.3191999999999997E-07
DataValue, 0.76, 4.622E-07
DataValue, 0.8, 6.8546E-07
DataValue, 0.84000000000000008, 9.0422E-07
DataValue, 0.88, 8.7634E-07
DataValue, 0.92, 1.1976000000000002E-06
DataValue, 0.96000000000000008, 2.1318E-06
DataValue, 1, 3.9385000000000005E-06
DataValue, 1.04, 7.733300000000001E-06
DataValue, 1.08, 1.5198000000000001E-05
DataValue, 1.12, 3.13E-05
DataValue, 1.1600000000000001, 6.5764E-05
DataValue, 1.2, 0.00017734
DataValue, 1.24, 0.0018996
DataValue, 1.28, 0.003465
DataValue, 1.32, 0.0050012
DataValue, 1.36, 0.0065454
DataValue, 1.4000000000000001, 0.0080968
DataValue, 1.4400000000000002, 0.0096558
DataValue, 1.48, 0.0112224
DataValue, 1.52, 0.012802000000000001
DataValue, 1.56, 0.014368
DataValue, 1.6, 0.015932
DataValue, 1.6400000000000001, 0.017486
DataValue, 1.6800000000000002, 0.019026
DataValue, 1.72, 0.020544000000000003
DataValue, 1.76, 0.022052000000000002
DataValue, 1.8, 0.02356
DataValue, 1.84, 0.025052
DataValue, 1.8800000000000001, 0.026522000000000004
DataValue, 1.9200000000000002, 0.027962
DataValue, 1.9600000000000002, 0.029328000000000003
DataValue, 2, 0.03053