
SetupTitle, I/V Sweep
PrimitiveTest, I/V Sweep
TestParameter, Context.MainFrame, B1500A
TestParameter, Channel.UnitType, SMU, SMU, SMU, SMU, SMU
TestParameter, Channel.Unit, SMU1:HP, SMU2:MP, SMU3:MP, SMU4:MP, SMU5:MP
TestParameter, Channel.IName, I, IDD1, IDD2, ISS, IPP
TestParameter, Channel.VName, V, VDD1, VDD2, VSS, VPP
TestParameter, Channel.Mode, V, V, V, V, V
TestParameter, Channel.Func, VAR1, CONST, CONST, CONST, CONST
TestParameter, Channel.Index, 
TestParameter, Channel.Time, 
TestParameter, Measurement.Port.Unit, SMU1:HP, SMU2:MP, SMU3:MP, SMU4:MP, SMU5:MP
TestParameter, Measurement.Port.SeriesResistor, NONE, NONE, NONE, NONE, NONE
TestParameter, Measurement.Port.Filter, ON, ON, ON, ON, ON
TestParameter, Measurement.Port.OutputVoltageComparison, 0, 0, 0, 0, 0
TestParameter, Measurement.Primary.Locus, Single
TestParameter, Measurement.Primary.Scale, LINEAR
TestParameter, Measurement.Primary.Start, -2
TestParameter, Measurement.Primary.Stop, 2
TestParameter, Measurement.Primary.Step, 0.04
TestParameter, Measurement.Primary.Compliance, 0.1
TestParameter, Measurement.Primary.PowerCompliance, 0
TestParameter, Measurement.Aborting.Condition, CONTINUE AT ANY
TestParameter, Measurement.PostOutput.Value, START
TestParameter, Measurement.PostOutput.Retention, OFF
TestParameter, Measurement.Bias.Source, -2, 1.8, 1.1, 0, 0
TestParameter, Measurement.Bias.Compliance, 0.1, 0.1, 0.1, 0.1, 0.1
TestParameter, Measurement.Monitor.Unit, SMU1:HP, SMU2:MP, SMU3:MP, SMU4:MP, SMU5:MP
TestParameter, Measurement.Monitor.Adc, HR ADC, HR ADC, HR ADC, HR ADC, HR ADC
TestParameter, Measurement.Monitor.Measurement, Compliance Side, Compliance Side, Compliance Side, Compliance Side, Compliance Side
TestParameter, Measurement.Monitor.RangingMode, LIMITED, LIMITED, LIMITED, LIMITED, LIMITED
TestParameter, Measurement.Monitor.RangeBoundary, 1nA, 1nA, 1nA, 1nA, 1nA
TestParameter, Measurement.Monitor.RangeRating, BY FULL RANGE, BY FULL RANGE, BY FULL RANGE, BY FULL RANGE, BY FULL RANGE
TestParameter, Measurement.Monitor.RangeRatingCoeff, 50, 50, 50, 50, 50
TestParameter, Measurement.Timing.Hold, 0
TestParameter, Measurement.Timing.Delay, 0
TestParameter, Measurement.Adc.HighSpeed.Mode, AUTO
TestParameter, Measurement.Adc.HighSpeed.Coeff, 1
TestParameter, Measurement.Adc.HighResolution.AutoZero, OFF
TestParameter, Measurement.Adc.HighResolution.Mode, AUTO
TestParameter, Measurement.Adc.HighResolution.Coeff, 6
TestParameter, Measurement.WaitTime.Source.Coeff, 1
TestParameter, Measurement.WaitTime.Source.Offset, 0
TestParameter, Measurement.WaitTime.Monitor.Coeff, 1
TestParameter, Measurement.WaitTime.Monitor.Offset, 0
TestParameter, Output.Graph.Enabled, true
TestParameter, Output.Graph.AutoScaling, false
TestParameter, Output.Graph.XAxis.Data, V
TestParameter, Output.Graph.XAxis.Scale, Linear
TestParameter, Output.Graph.XAxis.Left, -2
TestParameter, Output.Graph.XAxis.Right, 2
TestParameter, Output.Graph.XAxis.RunTimeAutoScale, true
TestParameter, Output.Graph.YAxis.Data, I
TestParameter, Output.Graph.YAxis.Scale, Linear
TestParameter, Output.Graph.YAxis.Bottom, -0.1
TestParameter, Output.Graph.YAxis.Top, 0.1
TestParameter, Output.Graph.YAxis.Group, 
TestParameter, Output.Graph.YAxis.RunTimeAutoScale, true
TestParameter, AutoAnalysis.Interpolation, false
TestParameter, AutoAnalysis.Var2StepCount, 1
TestParameter, AutoAnalysis.Var2StepScript, 
TestParameter, AutoAnalysis.Line1.Enabled, false
TestParameter, AutoAnalysis.Line1.Type, 1
TestParameter, AutoAnalysis.Line1.Fix, True
TestParameter, AutoAnalysis.Line1.YAxis, 0
TestParameter, AutoAnalysis.Line1.Point1.Type, 0
TestParameter, AutoAnalysis.Line1.Point1.XY.X, 
TestParameter, AutoAnalysis.Line1.Point1.XY.Y, 
TestParameter, AutoAnalysis.Line1.Point1.Data.Var, 
TestParameter, AutoAnalysis.Line1.Point1.Data.Condition, 
TestParameter, AutoAnalysis.Line1.Point1.Data.Start, false
TestParameter, AutoAnalysis.Line1.Point1.Data.StartVar, 
TestParameter, AutoAnalysis.Line1.Point1.Data.StartCondition, 
TestParameter, AutoAnalysis.Line1.Point2.Type, 0
TestParameter, AutoAnalysis.Line1.Point2.XY.X, 
TestParameter, AutoAnalysis.Line1.Point2.XY.Y, 
TestParameter, AutoAnalysis.Line1.Point2.Data.Var, 
TestParameter, AutoAnalysis.Line1.Point2.Data.Condition, 
TestParameter, AutoAnalysis.Line1.Point2.Data.Start, false
TestParameter, AutoAnalysis.Line1.Point2.Data.StartVar, 
TestParameter, AutoAnalysis.Line1.Point2.Data.StartCondition, 
TestParameter, AutoAnalysis.Line1.GradientExpr, 0
TestParameter, AutoAnalysis.Line2.Enabled, false
TestParameter, AutoAnalysis.Line2.Type, 1
TestParameter, AutoAnalysis.Line2.Fix, True
TestParameter, AutoAnalysis.Line2.YAxis, 0
TestParameter, AutoAnalysis.Line2.Point1.Type, 0
TestParameter, AutoAnalysis.Line2.Point1.XY.X, 
TestParameter, AutoAnalysis.Line2.Point1.XY.Y, 
TestParameter, AutoAnalysis.Line2.Point1.Data.Var, 
TestParameter, AutoAnalysis.Line2.Point1.Data.Condition, 
TestParameter, AutoAnalysis.Line2.Point1.Data.Start, false
TestParameter, AutoAnalysis.Line2.Point1.Data.StartVar, 
TestParameter, AutoAnalysis.Line2.Point1.Data.StartCondition, 
TestParameter, AutoAnalysis.Line2.Point2.Type, 0
TestParameter, AutoAnalysis.Line2.Point2.XY.X, 
TestParameter, AutoAnalysis.Line2.Point2.XY.Y, 
TestParameter, AutoAnalysis.Line2.Point2.Data.Var, 
TestParameter, AutoAnalysis.Line2.Point2.Data.Condition, 
TestParameter, AutoAnalysis.Line2.Point2.Data.Start, false
TestParameter, AutoAnalysis.Line2.Point2.Data.StartVar, 
TestParameter, AutoAnalysis.Line2.Point2.Data.StartCondition, 
TestParameter, AutoAnalysis.Line2.GradientExpr, 0
TestParameter, AutoAnalysis.Marker.Enabled, false
TestParameter, AutoAnalysis.Marker.Data.Var, 
TestParameter, AutoAnalysis.Marker.Data.Condition, 
TestParameter, AutoAnalysis.Marker.Data.Start, false
TestParameter, AutoAnalysis.Marker.Data.StartVar, 
TestParameter, AutoAnalysis.Marker.Data.StartCondition, 
MetaData, TestRecord.EntryPoint, true
MetaData, TestRecord.RecordTime, 10/19/2022 14:26:58
MetaData, TestRecord.TestTarget, 
MetaData, TestRecord.IterationIndex, 447
MetaData, TestRecord.Preservation, true
MetaData, TestRecord.Flag, 
MetaData, TestRecord.Remarks, 
MetaData, TestRecord.LinkKey, eecdbdba-8245-4540-9493-1630c232dd48
MetaData, TestRecord.Parameters, 
Dimension1, 101, 101
Dimension2, 1, 1
DataName, V, I
DataValue, -2, 1.4975799999999997E-08
DataValue, -1.9600000000000002, -3.0054399999999994E-08
DataValue, -1.9200000000000002, -1.1402399999999999E-08
DataValue, -1.8800000000000001, -4.34094E-08
DataValue, -1.84, 4.10142E-08
DataValue, -1.8, -3.5794599999999995E-08
DataValue, -1.76, 2.48094E-08
DataValue, -1.72, -2.89792E-08
DataValue, -1.6800000000000002, -4.4531799999999994E-08
DataValue, -1.6400000000000001, 4.8612199999999996E-08
DataValue, -1.6, 6.532E-08
DataValue, -1.56, 5.4127599999999992E-08
DataValue, -1.52, 3.952E-08
DataValue, -1.48, -6.5157999999999994E-09
DataValue, -1.4400000000000002, -3.68242E-08
DataValue, -1.4000000000000001, 3.93884E-08
DataValue, -1.36, -3.8236199999999997E-08
DataValue, -1.32, 1.51474E-08
DataValue, -1.28, 2.27606E-08
DataValue, -1.24, -5.4615999999999994E-09
DataValue, -1.2, -9.596E-08
DataValue, -1.1600000000000001, 4.154E-08
DataValue, -1.12, -9.2358E-09
DataValue, -1.08, 4.40994E-08
DataValue, -1.04, 6.8739999999999992E-08
DataValue, -1, 4.5738799999999993E-08
DataValue, -0.96000000000000008, 3.394E-08
DataValue, -0.92, 5.0979999999999994E-10
DataValue, -0.88, -1.33568E-08
DataValue, -0.84000000000000008, 6.386E-08
DataValue, -0.8, 6.1986599999999989E-08
DataValue, -0.76, 9.816E-08
DataValue, -0.72000000000000008, 1.7127E-08
DataValue, -0.68, -3.5182199999999995E-08
DataValue, -0.64, 1.3223399999999999E-08
DataValue, -0.6, -2.7842599999999998E-08
DataValue, -0.56, -4.97976E-08
DataValue, -0.52, 3.6944799999999993E-08
DataValue, -0.48000000000000004, -1.52342E-08
DataValue, -0.44, 5.8371599999999993E-08
DataValue, -0.4, 3.708E-08
DataValue, -0.36000000000000004, 2.1065999999999997E-09
DataValue, -0.32, -1.3122799999999999E-08
DataValue, -0.28, 6.366E-08
DataValue, -0.24000000000000002, -6.7199999999999993E-08
DataValue, -0.2, -1.1271999999999998E-08
DataValue, -0.16, 7.4319999999999993E-08
DataValue, -0.12000000000000001, 2.70868E-08
DataValue, -0.08, -2.3524799999999996E-08
DataValue, -0.04, -3.66682E-08
DataValue, 0, 6.6672999999999991E-08
DataValue, 0.04, 9.318E-08
DataValue, 0.08, 5.3880799999999994E-08
DataValue, 0.12000000000000001, 4.708E-08
DataValue, 0.16, 7.7588E-09
DataValue, 0.2, -1.9328199999999997E-08
DataValue, 0.24000000000000002, -7.897999999999999E-10
DataValue, 0.28, 4.7934399999999993E-08
DataValue, 0.32, 3.738E-08
DataValue, 0.36000000000000004, 3.4607999999999995E-09
DataValue, 0.4, -1.62676E-08
DataValue, 0.44, -2.9047999999999997E-09
DataValue, 0.48000000000000004, 4.95696E-08
DataValue, 0.52, 3.534E-08
DataValue, 0.56, 1.8389999999999998E-09
DataValue, 0.6, -6.208E-08
DataValue, 0.64, 6.68E-08
DataValue, 0.68, 1.29234E-08
DataValue, 0.72000000000000008, -2.7653999999999997E-08
DataValue, 0.76, -4.9894599999999996E-08
DataValue, 0.8, 6.074E-08
DataValue, 0.84000000000000008, 6.08E-08
DataValue, 0.88, 1.53488E-08
DataValue, 0.92, 5.95448E-08
DataValue, 0.96000000000000008, 3.66E-08
DataValue, 1, 2.9994E-09
DataValue, 1.04, -1.5806E-08
DataValue, 1.08, -3.2211999999999996E-09
DataValue, 1.12, 5.0110599999999996E-08
DataValue, 1.1600000000000001, -1.1760599999999999E-08
DataValue, 1.2, 1.5747999999999998E-09
DataValue, 1.24, -3.3451999999999996E-09
DataValue, 1.28, -4.3977399999999992E-08
DataValue, 1.32, 3.8667799999999995E-08
DataValue, 1.36, -2.6044599999999998E-08
DataValue, 1.4000000000000001, 4.82102E-08
DataValue, 1.4400000000000002, 4.062E-08
DataValue, 1.48, -1.56452E-08
DataValue, 1.52, -1.59616E-08
DataValue, 1.56, -3.2448E-09
DataValue, 1.6, 4.9742799999999993E-08
DataValue, 1.6400000000000001, 1.0534E-07
DataValue, 1.6800000000000002, 3.0153199999999996E-08
DataValue, 1.72, 5.0642E-08
DataValue, 1.76, 3.704E-08
DataValue, 1.8, 1.4591599999999999E-08
DataValue, 1.84, -6.326E-08
DataValue, 1.8800000000000001, 6.7899999999999993E-08
DataValue, 1.9200000000000002, 1.22818E-08
DataValue, 1.9600000000000002, 6.5935999999999992E-09
DataValue, 2, 7.1033999999999993E-09