
SetupTitle, I/V Sweep
PrimitiveTest, I/V Sweep
TestParameter, Context.MainFrame, B1500A
TestParameter, Channel.UnitType, SMU, SMU, SMU, SMU, SMU
TestParameter, Channel.Unit, SMU1:HP, SMU2:MP, SMU3:MP, SMU4:MP, SMU5:MP
TestParameter, Channel.IName, I, IDD1, IDD2, ISS, IPP
TestParameter, Channel.VName, V, VDD1, VDD2, VSS, VPP
TestParameter, Channel.Mode, V, V, V, V, V
TestParameter, Channel.Func, VAR1, CONST, CONST, CONST, CONST
TestParameter, Channel.Index, 
TestParameter, Channel.Time, 
TestParameter, Measurement.Port.Unit, SMU1:HP, SMU2:MP, SMU3:MP, SMU4:MP, SMU5:MP
TestParameter, Measurement.Port.SeriesResistor, NONE, NONE, NONE, NONE, NONE
TestParameter, Measurement.Port.Filter, ON, ON, ON, ON, ON
TestParameter, Measurement.Port.OutputVoltageComparison, 0, 0, 0, 0, 0
TestParameter, Measurement.Primary.Locus, Single
TestParameter, Measurement.Primary.Scale, LINEAR
TestParameter, Measurement.Primary.Start, -2
TestParameter, Measurement.Primary.Stop, 2
TestParameter, Measurement.Primary.Step, 0.04
TestParameter, Measurement.Primary.Compliance, 0.1
TestParameter, Measurement.Primary.PowerCompliance, 0
TestParameter, Measurement.Aborting.Condition, CONTINUE AT ANY
TestParameter, Measurement.PostOutput.Value, START
TestParameter, Measurement.PostOutput.Retention, OFF
TestParameter, Measurement.Bias.Source, -2, 1.8, 1.1, 0, 0
TestParameter, Measurement.Bias.Compliance, 0.1, 0.1, 0.1, 0.1, 0.1
TestParameter, Measurement.Monitor.Unit, SMU1:HP, SMU2:MP, SMU3:MP, SMU4:MP, SMU5:MP
TestParameter, Measurement.Monitor.Adc, HR ADC, HR ADC, HR ADC, HR ADC, HR ADC
TestParameter, Measurement.Monitor.Measurement, Compliance Side, Compliance Side, Compliance Side, Compliance Side, Compliance Side
TestParameter, Measurement.Monitor.RangingMode, LIMITED, LIMITED, LIMITED, LIMITED, LIMITED
TestParameter, Measurement.Monitor.RangeBoundary, 1nA, 1nA, 1nA, 1nA, 1nA
TestParameter, Measurement.Monitor.RangeRating, BY FULL RANGE, BY FULL RANGE, BY FULL RANGE, BY FULL RANGE, BY FULL RANGE
TestParameter, Measurement.Monitor.RangeRatingCoeff, 50, 50, 50, 50, 50
TestParameter, Measurement.Timing.Hold, 0
TestParameter, Measurement.Timing.Delay, 0
TestParameter, Measurement.Adc.HighSpeed.Mode, AUTO
TestParameter, Measurement.Adc.HighSpeed.Coeff, 1
TestParameter, Measurement.Adc.HighResolution.AutoZero, OFF
TestParameter, Measurement.Adc.HighResolution.Mode, AUTO
TestParameter, Measurement.Adc.HighResolution.Coeff, 6
TestParameter, Measurement.WaitTime.Source.Coeff, 1
TestParameter, Measurement.WaitTime.Source.Offset, 0
TestParameter, Measurement.WaitTime.Monitor.Coeff, 1
TestParameter, Measurement.WaitTime.Monitor.Offset, 0
TestParameter, Output.Graph.Enabled, true
TestParameter, Output.Graph.AutoScaling, false
TestParameter, Output.Graph.XAxis.Data, V
TestParameter, Output.Graph.XAxis.Scale, Linear
TestParameter, Output.Graph.XAxis.Left, -2
TestParameter, Output.Graph.XAxis.Right, 2
TestParameter, Output.Graph.XAxis.RunTimeAutoScale, true
TestParameter, Output.Graph.YAxis.Data, I
TestParameter, Output.Graph.YAxis.Scale, Linear
TestParameter, Output.Graph.YAxis.Bottom, -0.1
TestParameter, Output.Graph.YAxis.Top, 0.1
TestParameter, Output.Graph.YAxis.Group, 
TestParameter, Output.Graph.YAxis.RunTimeAutoScale, true
TestParameter, AutoAnalysis.Interpolation, false
TestParameter, AutoAnalysis.Var2StepCount, 1
TestParameter, AutoAnalysis.Var2StepScript, 
TestParameter, AutoAnalysis.Line1.Enabled, false
TestParameter, AutoAnalysis.Line1.Type, 1
TestParameter, AutoAnalysis.Line1.Fix, True
TestParameter, AutoAnalysis.Line1.YAxis, 0
TestParameter, AutoAnalysis.Line1.Point1.Type, 0
TestParameter, AutoAnalysis.Line1.Point1.XY.X, 
TestParameter, AutoAnalysis.Line1.Point1.XY.Y, 
TestParameter, AutoAnalysis.Line1.Point1.Data.Var, 
TestParameter, AutoAnalysis.Line1.Point1.Data.Condition, 
TestParameter, AutoAnalysis.Line1.Point1.Data.Start, false
TestParameter, AutoAnalysis.Line1.Point1.Data.StartVar, 
TestParameter, AutoAnalysis.Line1.Point1.Data.StartCondition, 
TestParameter, AutoAnalysis.Line1.Point2.Type, 0
TestParameter, AutoAnalysis.Line1.Point2.XY.X, 
TestParameter, AutoAnalysis.Line1.Point2.XY.Y, 
TestParameter, AutoAnalysis.Line1.Point2.Data.Var, 
TestParameter, AutoAnalysis.Line1.Point2.Data.Condition, 
TestParameter, AutoAnalysis.Line1.Point2.Data.Start, false
TestParameter, AutoAnalysis.Line1.Point2.Data.StartVar, 
TestParameter, AutoAnalysis.Line1.Point2.Data.StartCondition, 
TestParameter, AutoAnalysis.Line1.GradientExpr, 0
TestParameter, AutoAnalysis.Line2.Enabled, false
TestParameter, AutoAnalysis.Line2.Type, 1
TestParameter, AutoAnalysis.Line2.Fix, True
TestParameter, AutoAnalysis.Line2.YAxis, 0
TestParameter, AutoAnalysis.Line2.Point1.Type, 0
TestParameter, AutoAnalysis.Line2.Point1.XY.X, 
TestParameter, AutoAnalysis.Line2.Point1.XY.Y, 
TestParameter, AutoAnalysis.Line2.Point1.Data.Var, 
TestParameter, AutoAnalysis.Line2.Point1.Data.Condition, 
TestParameter, AutoAnalysis.Line2.Point1.Data.Start, false
TestParameter, AutoAnalysis.Line2.Point1.Data.StartVar, 
TestParameter, AutoAnalysis.Line2.Point1.Data.StartCondition, 
TestParameter, AutoAnalysis.Line2.Point2.Type, 0
TestParameter, AutoAnalysis.Line2.Point2.XY.X, 
TestParameter, AutoAnalysis.Line2.Point2.XY.Y, 
TestParameter, AutoAnalysis.Line2.Point2.Data.Var, 
TestParameter, AutoAnalysis.Line2.Point2.Data.Condition, 
TestParameter, AutoAnalysis.Line2.Point2.Data.Start, false
TestParameter, AutoAnalysis.Line2.Point2.Data.StartVar, 
TestParameter, AutoAnalysis.Line2.Point2.Data.StartCondition, 
TestParameter, AutoAnalysis.Line2.GradientExpr, 0
TestParameter, AutoAnalysis.Marker.Enabled, false
TestParameter, AutoAnalysis.Marker.Data.Var, 
TestParameter, AutoAnalysis.Marker.Data.Condition, 
TestParameter, AutoAnalysis.Marker.Data.Start, false
TestParameter, AutoAnalysis.Marker.Data.StartVar, 
TestParameter, AutoAnalysis.Marker.Data.StartCondition, 
MetaData, TestRecord.EntryPoint, true
MetaData, TestRecord.RecordTime, 10/19/2022 14:20:38
MetaData, TestRecord.TestTarget, 
MetaData, TestRecord.IterationIndex, 432
MetaData, TestRecord.Preservation, true
MetaData, TestRecord.Flag, 
MetaData, TestRecord.Remarks, 
MetaData, TestRecord.LinkKey, 0d3bfd4f-8b6d-4c36-9cb2-49abef2286d5
MetaData, TestRecord.Parameters, 
Dimension1, 101, 101
Dimension2, 1, 1
DataName, V, I
DataValue, -2, 3.6957E-08
DataValue, -1.9600000000000002, 8.092E-08
DataValue, -1.9200000000000002, -7.94E-08
DataValue, -1.8800000000000001, -1.8588599999999997E-08
DataValue, -1.84, -9.668E-08
DataValue, -1.8, 4.806E-08
DataValue, -1.76, 9.3415999999999984E-09
DataValue, -1.72, 5.306E-08
DataValue, -1.6800000000000002, -8.3386E-09
DataValue, -1.6400000000000001, 4.618E-08
DataValue, -1.6, 5.404E-08
DataValue, -1.56, -9.8837999999999985E-09
DataValue, -1.52, 7.12E-08
DataValue, -1.48, 1.4674399999999998E-08
DataValue, -1.4400000000000002, 1.162E-07
DataValue, -1.4000000000000001, 3.5852199999999993E-08
DataValue, -1.36, 8.332E-08
DataValue, -1.32, 2.07198E-08
DataValue, -1.28, 1.4216E-07
DataValue, -1.24, -8.05E-08
DataValue, -1.2, -2.4392399999999996E-08
DataValue, -1.1600000000000001, -1.2062E-07
DataValue, -1.12, 5.14E-09
DataValue, -1.08, -8.3539999999999992E-08
DataValue, -1.04, 4.45E-08
DataValue, -1, 5.8381999999999991E-09
DataValue, -0.96000000000000008, 8.188E-08
DataValue, -0.92, 2.2198399999999996E-08
DataValue, -0.88, 1.1598E-07
DataValue, -0.84000000000000008, -4.5819999999999996E-08
DataValue, -0.8, -6.3669999999999992E-09
DataValue, -0.76, -7.764E-08
DataValue, -0.72000000000000008, -2.3168799999999996E-08
DataValue, -0.68, -8.388E-08
DataValue, -0.64, -3.18292E-08
DataValue, -0.6, -4.846E-08
DataValue, -0.56, 1.3756E-07
DataValue, -0.52, 4.21132E-08
DataValue, -0.48000000000000004, 1.3551999999999999E-07
DataValue, -0.44, 4.4269799999999995E-08
DataValue, -0.4, 9.784E-08
DataValue, -0.36000000000000004, -5.344E-08
DataValue, -0.32, 4.5207999999999995E-09
DataValue, -0.28, -1.3936E-07
DataValue, -0.24000000000000002, 5.36E-08
DataValue, -0.2, -4.4723999999999996E-09
DataValue, -0.16, 4.706E-08
DataValue, -0.12000000000000001, -1.7413999999999998E-09
DataValue, -0.08, 8.032E-08
DataValue, -0.04, 3.55642E-08
DataValue, 0, 8.642E-08
DataValue, 0.04, 2.6679999999999998E-08
DataValue, 0.08, 4.388E-08
DataValue, 0.12000000000000001, -9.364E-08
DataValue, 0.16, 4.384E-08
DataValue, 0.2, 3.3124E-09
DataValue, 0.24000000000000002, 4.67E-08
DataValue, 0.28, 6.1437999999999994E-09
DataValue, 0.32, -3.84766E-08
DataValue, 0.36000000000000004, -1.0022E-07
DataValue, 0.4, -3.09382E-08
DataValue, 0.44, 4.8761999999999994E-09
DataValue, 0.48000000000000004, 5.006E-08
DataValue, 0.52, 9.3586E-09
DataValue, 0.56, 9.6939999999999993E-08
DataValue, 0.6, 3.1337799999999995E-08
DataValue, 0.64, 9.748E-08
DataValue, 0.68, 1.628E-08
DataValue, 0.72000000000000008, 4.9519999999999996E-08
DataValue, 0.76, -1.2264E-07
DataValue, 0.8, -3.57762E-08
DataValue, 0.84000000000000008, -1.2606E-07
DataValue, 0.88, -3.73278E-08
DataValue, 0.92, -8.08E-08
DataValue, 0.96000000000000008, -2.1286399999999998E-08
DataValue, 1, -1.3464E-07
DataValue, 1.04, -4.43686E-08
DataValue, 1.08, -8.792E-08
DataValue, 1.12, -2.7935399999999997E-08
DataValue, 1.1600000000000001, 8.8779999999999992E-08
DataValue, 1.2, -5.086E-08
DataValue, 1.24, -9.6785999999999984E-09
DataValue, 1.28, -8.486E-08
DataValue, 1.32, -2.70078E-08
DataValue, 1.36, -9.112E-08
DataValue, 1.4000000000000001, 5.1999999999999996E-08
DataValue, 1.4400000000000002, -4.8359999999999994E-09
DataValue, 1.48, 4.75E-08
DataValue, 1.52, -2.1857999999999996E-09
DataValue, 1.56, 4.35E-08
DataValue, 1.6, 2.2005999999999996E-09
DataValue, 1.6400000000000001, 4.534E-08
DataValue, 1.6800000000000002, 5.4056E-09
DataValue, 1.72, 5.618E-08
DataValue, 1.76, 4.3377E-08
DataValue, 1.8, 9.112E-08
DataValue, 1.84, 2.5309999999999996E-08
DataValue, 1.8800000000000001, 1.268E-07
DataValue, 1.9200000000000002, 4.71476E-08
DataValue, 1.9600000000000002, 7.89E-08
DataValue, 2, -8.564E-08