
SetupTitle, I/V Sweep
PrimitiveTest, I/V Sweep
TestParameter, Context.MainFrame, B1500A
TestParameter, Channel.UnitType, SMU, SMU, SMU, SMU, SMU
TestParameter, Channel.Unit, SMU1:HP, SMU2:MP, SMU3:MP, SMU4:MP, SMU5:MP
TestParameter, Channel.IName, I, IDD1, IDD2, ISS, IPP
TestParameter, Channel.VName, V, VDD1, VDD2, VSS, VPP
TestParameter, Channel.Mode, V, V, V, V, V
TestParameter, Channel.Func, VAR1, CONST, CONST, CONST, CONST
TestParameter, Channel.Index, 
TestParameter, Channel.Time, 
TestParameter, Measurement.Port.Unit, SMU1:HP, SMU2:MP, SMU3:MP, SMU4:MP, SMU5:MP
TestParameter, Measurement.Port.SeriesResistor, NONE, NONE, NONE, NONE, NONE
TestParameter, Measurement.Port.Filter, ON, ON, ON, ON, ON
TestParameter, Measurement.Port.OutputVoltageComparison, 0, 0, 0, 0, 0
TestParameter, Measurement.Primary.Locus, Single
TestParameter, Measurement.Primary.Scale, LINEAR
TestParameter, Measurement.Primary.Start, -2
TestParameter, Measurement.Primary.Stop, 2
TestParameter, Measurement.Primary.Step, 0.04
TestParameter, Measurement.Primary.Compliance, 0.1
TestParameter, Measurement.Primary.PowerCompliance, 0
TestParameter, Measurement.Aborting.Condition, CONTINUE AT ANY
TestParameter, Measurement.PostOutput.Value, START
TestParameter, Measurement.PostOutput.Retention, OFF
TestParameter, Measurement.Bias.Source, -2, 1.8, 1.1, 0, 0
TestParameter, Measurement.Bias.Compliance, 0.1, 0.1, 0.1, 0.1, 0.1
TestParameter, Measurement.Monitor.Unit, SMU1:HP, SMU2:MP, SMU3:MP, SMU4:MP, SMU5:MP
TestParameter, Measurement.Monitor.Adc, HR ADC, HR ADC, HR ADC, HR ADC, HR ADC
TestParameter, Measurement.Monitor.Measurement, Compliance Side, Compliance Side, Compliance Side, Compliance Side, Compliance Side
TestParameter, Measurement.Monitor.RangingMode, LIMITED, LIMITED, LIMITED, LIMITED, LIMITED
TestParameter, Measurement.Monitor.RangeBoundary, 1nA, 1nA, 1nA, 1nA, 1nA
TestParameter, Measurement.Monitor.RangeRating, BY FULL RANGE, BY FULL RANGE, BY FULL RANGE, BY FULL RANGE, BY FULL RANGE
TestParameter, Measurement.Monitor.RangeRatingCoeff, 50, 50, 50, 50, 50
TestParameter, Measurement.Timing.Hold, 0
TestParameter, Measurement.Timing.Delay, 0
TestParameter, Measurement.Adc.HighSpeed.Mode, AUTO
TestParameter, Measurement.Adc.HighSpeed.Coeff, 1
TestParameter, Measurement.Adc.HighResolution.AutoZero, OFF
TestParameter, Measurement.Adc.HighResolution.Mode, AUTO
TestParameter, Measurement.Adc.HighResolution.Coeff, 6
TestParameter, Measurement.WaitTime.Source.Coeff, 1
TestParameter, Measurement.WaitTime.Source.Offset, 0
TestParameter, Measurement.WaitTime.Monitor.Coeff, 1
TestParameter, Measurement.WaitTime.Monitor.Offset, 0
TestParameter, Output.Graph.Enabled, true
TestParameter, Output.Graph.AutoScaling, false
TestParameter, Output.Graph.XAxis.Data, V
TestParameter, Output.Graph.XAxis.Scale, Linear
TestParameter, Output.Graph.XAxis.Left, -2
TestParameter, Output.Graph.XAxis.Right, 2
TestParameter, Output.Graph.XAxis.RunTimeAutoScale, true
TestParameter, Output.Graph.YAxis.Data, I
TestParameter, Output.Graph.YAxis.Scale, Linear
TestParameter, Output.Graph.YAxis.Bottom, -0.1
TestParameter, Output.Graph.YAxis.Top, 0.1
TestParameter, Output.Graph.YAxis.Group, 
TestParameter, Output.Graph.YAxis.RunTimeAutoScale, true
TestParameter, AutoAnalysis.Interpolation, false
TestParameter, AutoAnalysis.Var2StepCount, 1
TestParameter, AutoAnalysis.Var2StepScript, 
TestParameter, AutoAnalysis.Line1.Enabled, false
TestParameter, AutoAnalysis.Line1.Type, 1
TestParameter, AutoAnalysis.Line1.Fix, True
TestParameter, AutoAnalysis.Line1.YAxis, 0
TestParameter, AutoAnalysis.Line1.Point1.Type, 0
TestParameter, AutoAnalysis.Line1.Point1.XY.X, 
TestParameter, AutoAnalysis.Line1.Point1.XY.Y, 
TestParameter, AutoAnalysis.Line1.Point1.Data.Var, 
TestParameter, AutoAnalysis.Line1.Point1.Data.Condition, 
TestParameter, AutoAnalysis.Line1.Point1.Data.Start, false
TestParameter, AutoAnalysis.Line1.Point1.Data.StartVar, 
TestParameter, AutoAnalysis.Line1.Point1.Data.StartCondition, 
TestParameter, AutoAnalysis.Line1.Point2.Type, 0
TestParameter, AutoAnalysis.Line1.Point2.XY.X, 
TestParameter, AutoAnalysis.Line1.Point2.XY.Y, 
TestParameter, AutoAnalysis.Line1.Point2.Data.Var, 
TestParameter, AutoAnalysis.Line1.Point2.Data.Condition, 
TestParameter, AutoAnalysis.Line1.Point2.Data.Start, false
TestParameter, AutoAnalysis.Line1.Point2.Data.StartVar, 
TestParameter, AutoAnalysis.Line1.Point2.Data.StartCondition, 
TestParameter, AutoAnalysis.Line1.GradientExpr, 0
TestParameter, AutoAnalysis.Line2.Enabled, false
TestParameter, AutoAnalysis.Line2.Type, 1
TestParameter, AutoAnalysis.Line2.Fix, True
TestParameter, AutoAnalysis.Line2.YAxis, 0
TestParameter, AutoAnalysis.Line2.Point1.Type, 0
TestParameter, AutoAnalysis.Line2.Point1.XY.X, 
TestParameter, AutoAnalysis.Line2.Point1.XY.Y, 
TestParameter, AutoAnalysis.Line2.Point1.Data.Var, 
TestParameter, AutoAnalysis.Line2.Point1.Data.Condition, 
TestParameter, AutoAnalysis.Line2.Point1.Data.Start, false
TestParameter, AutoAnalysis.Line2.Point1.Data.StartVar, 
TestParameter, AutoAnalysis.Line2.Point1.Data.StartCondition, 
TestParameter, AutoAnalysis.Line2.Point2.Type, 0
TestParameter, AutoAnalysis.Line2.Point2.XY.X, 
TestParameter, AutoAnalysis.Line2.Point2.XY.Y, 
TestParameter, AutoAnalysis.Line2.Point2.Data.Var, 
TestParameter, AutoAnalysis.Line2.Point2.Data.Condition, 
TestParameter, AutoAnalysis.Line2.Point2.Data.Start, false
TestParameter, AutoAnalysis.Line2.Point2.Data.StartVar, 
TestParameter, AutoAnalysis.Line2.Point2.Data.StartCondition, 
TestParameter, AutoAnalysis.Line2.GradientExpr, 0
TestParameter, AutoAnalysis.Marker.Enabled, false
TestParameter, AutoAnalysis.Marker.Data.Var, 
TestParameter, AutoAnalysis.Marker.Data.Condition, 
TestParameter, AutoAnalysis.Marker.Data.Start, false
TestParameter, AutoAnalysis.Marker.Data.StartVar, 
TestParameter, AutoAnalysis.Marker.Data.StartCondition, 
MetaData, TestRecord.EntryPoint, true
MetaData, TestRecord.RecordTime, 10/19/2022 14:16:43
MetaData, TestRecord.TestTarget, 
MetaData, TestRecord.IterationIndex, 420
MetaData, TestRecord.Preservation, true
MetaData, TestRecord.Flag, 
MetaData, TestRecord.Remarks, 
MetaData, TestRecord.LinkKey, ca2cee7e-8aae-48b3-bb29-bbd4ee3a8179
MetaData, TestRecord.Parameters, 
Dimension1, 101, 101
Dimension2, 1, 1
DataName, V, I
DataValue, -2, -0.0041794
DataValue, -1.9600000000000002, -0.0038668
DataValue, -1.9200000000000002, -0.0035598
DataValue, -1.8800000000000001, -0.00326
DataValue, -1.84, -0.0029662
DataValue, -1.8, -0.002682
DataValue, -1.76, -0.0024076
DataValue, -1.72, -0.0021436
DataValue, -1.6800000000000002, -0.0018922000000000001
DataValue, -1.6400000000000001, -0.001654
DataValue, -1.6, -0.0014308
DataValue, -1.56, -0.0012236
DataValue, -1.52, -0.0010336
DataValue, -1.48, -0.0008620600000000001
DataValue, -1.4400000000000002, -0.00070918
DataValue, -1.4000000000000001, -0.00057588000000000008
DataValue, -1.36, -0.00046138
DataValue, -1.32, -0.00036492
DataValue, -1.28, -0.00028526
DataValue, -1.24, -0.00022092000000000002
DataValue, -1.2, -0.0001695
DataValue, -1.1600000000000001, -0.00012906000000000002
DataValue, -1.12, -9.7766E-05
DataValue, -1.08, -7.3194E-05
DataValue, -1.04, -5.4178E-05
DataValue, -1, -3.9672E-05
DataValue, -0.96000000000000008, -2.866E-05
DataValue, -0.92, -2.0058E-05
DataValue, -0.88, -1.3702E-05
DataValue, -0.84000000000000008, -9.2800000000000009E-06
DataValue, -0.8, -5.8531000000000008E-06
DataValue, -0.76, -3.7329000000000003E-06
DataValue, -0.72000000000000008, -2.3389E-06
DataValue, -0.68, -1.3442000000000002E-06
DataValue, -0.64, -9.9796E-07
DataValue, -0.6, -7.4469999999999994E-07
DataValue, -0.56, -6.158E-07
DataValue, -0.52, -5.5106E-07
DataValue, -0.48000000000000004, -4.4718E-07
DataValue, -0.44, -3.109E-07
DataValue, -0.4, -2.6528E-07
DataValue, -0.36000000000000004, -1.7872E-07
DataValue, -0.32, -2.0818E-07
DataValue, -0.28, -1.7708E-07
DataValue, -0.24000000000000002, -2.3968E-07
DataValue, -0.2, -2.68E-07
DataValue, -0.16, -2.3726E-07
DataValue, -0.12000000000000001, -2.4682E-07
DataValue, -0.08, -2.7075999999999997E-07
DataValue, -0.04, -1.3803999999999998E-07
DataValue, 0, -6.32E-08
DataValue, 0.04, -1.422E-08
DataValue, 0.08, -9.12E-09
DataValue, 0.12000000000000001, -7.1E-09
DataValue, 0.16, 1.822E-08
DataValue, 0.2, -8.32E-08
DataValue, 0.24000000000000002, 5.99E-08
DataValue, 0.28, 5.4818E-07
DataValue, 0.32, 1.8776000000000002E-06
DataValue, 0.36000000000000004, 6.2630000000000009E-06
DataValue, 0.4, 1.4978000000000001E-05
DataValue, 0.44, 3.2434E-05
DataValue, 0.48000000000000004, 8.4194E-05
DataValue, 0.52, 0.00024262
DataValue, 0.56, 0.00058224
DataValue, 0.6, 0.0010944400000000001
DataValue, 0.64, 0.0017282
DataValue, 0.68, 0.0024402
DataValue, 0.72000000000000008, 0.0032118
DataValue, 0.76, 0.0040298
DataValue, 0.8, 0.0048864
DataValue, 0.84000000000000008, 0.0057736
DataValue, 0.88, 0.0066858
DataValue, 0.92, 0.0076142
DataValue, 0.96000000000000008, 0.0085538
DataValue, 1, 0.0095044
DataValue, 1.04, 0.0104592
DataValue, 1.08, 0.011414800000000001
DataValue, 1.12, 0.012372000000000001
DataValue, 1.1600000000000001, 0.013324
DataValue, 1.2, 0.014268000000000001
DataValue, 1.24, 0.015204
DataValue, 1.28, 0.016132
DataValue, 1.32, 0.017048
DataValue, 1.36, 0.01795
DataValue, 1.4000000000000001, 0.018838
DataValue, 1.4400000000000002, 0.019714000000000002
DataValue, 1.48, 0.02057
DataValue, 1.52, 0.021412
DataValue, 1.56, 0.022236000000000002
DataValue, 1.6, 0.023046
DataValue, 1.6400000000000001, 0.023838
DataValue, 1.6800000000000002, 0.024618
DataValue, 1.72, 0.025398000000000004
DataValue, 1.76, 0.026132000000000002
DataValue, 1.8, 0.026838
DataValue, 1.84, 0.02747
DataValue, 1.8800000000000001, 0.028192000000000002
DataValue, 1.9200000000000002, 0.028872000000000002
DataValue, 1.9600000000000002, 0.029802000000000002
DataValue, 2, 0.028798000000000004