
SetupTitle, I/V Sweep
PrimitiveTest, I/V Sweep
TestParameter, Context.MainFrame, B1500A
TestParameter, Channel.UnitType, SMU, SMU, SMU, SMU, SMU
TestParameter, Channel.Unit, SMU1:HP, SMU2:MP, SMU3:MP, SMU4:MP, SMU5:MP
TestParameter, Channel.IName, I, IDD1, IDD2, ISS, IPP
TestParameter, Channel.VName, V, VDD1, VDD2, VSS, VPP
TestParameter, Channel.Mode, V, V, V, V, V
TestParameter, Channel.Func, VAR1, CONST, CONST, CONST, CONST
TestParameter, Channel.Index, 
TestParameter, Channel.Time, 
TestParameter, Measurement.Port.Unit, SMU1:HP, SMU2:MP, SMU3:MP, SMU4:MP, SMU5:MP
TestParameter, Measurement.Port.SeriesResistor, NONE, NONE, NONE, NONE, NONE
TestParameter, Measurement.Port.Filter, ON, ON, ON, ON, ON
TestParameter, Measurement.Port.OutputVoltageComparison, 0, 0, 0, 0, 0
TestParameter, Measurement.Primary.Locus, Single
TestParameter, Measurement.Primary.Scale, LINEAR
TestParameter, Measurement.Primary.Start, -2
TestParameter, Measurement.Primary.Stop, 2
TestParameter, Measurement.Primary.Step, 0.04
TestParameter, Measurement.Primary.Compliance, 0.1
TestParameter, Measurement.Primary.PowerCompliance, 0
TestParameter, Measurement.Aborting.Condition, CONTINUE AT ANY
TestParameter, Measurement.PostOutput.Value, START
TestParameter, Measurement.PostOutput.Retention, OFF
TestParameter, Measurement.Bias.Source, -2, 1.8, 1.1, 0, 0
TestParameter, Measurement.Bias.Compliance, 0.1, 0.1, 0.1, 0.1, 0.1
TestParameter, Measurement.Monitor.Unit, SMU1:HP, SMU2:MP, SMU3:MP, SMU4:MP, SMU5:MP
TestParameter, Measurement.Monitor.Adc, HR ADC, HR ADC, HR ADC, HR ADC, HR ADC
TestParameter, Measurement.Monitor.Measurement, Compliance Side, Compliance Side, Compliance Side, Compliance Side, Compliance Side
TestParameter, Measurement.Monitor.RangingMode, LIMITED, LIMITED, LIMITED, LIMITED, LIMITED
TestParameter, Measurement.Monitor.RangeBoundary, 1nA, 1nA, 1nA, 1nA, 1nA
TestParameter, Measurement.Monitor.RangeRating, BY FULL RANGE, BY FULL RANGE, BY FULL RANGE, BY FULL RANGE, BY FULL RANGE
TestParameter, Measurement.Monitor.RangeRatingCoeff, 50, 50, 50, 50, 50
TestParameter, Measurement.Timing.Hold, 0
TestParameter, Measurement.Timing.Delay, 0
TestParameter, Measurement.Adc.HighSpeed.Mode, AUTO
TestParameter, Measurement.Adc.HighSpeed.Coeff, 1
TestParameter, Measurement.Adc.HighResolution.AutoZero, OFF
TestParameter, Measurement.Adc.HighResolution.Mode, AUTO
TestParameter, Measurement.Adc.HighResolution.Coeff, 6
TestParameter, Measurement.WaitTime.Source.Coeff, 1
TestParameter, Measurement.WaitTime.Source.Offset, 0
TestParameter, Measurement.WaitTime.Monitor.Coeff, 1
TestParameter, Measurement.WaitTime.Monitor.Offset, 0
TestParameter, Output.Graph.Enabled, true
TestParameter, Output.Graph.AutoScaling, false
TestParameter, Output.Graph.XAxis.Data, V
TestParameter, Output.Graph.XAxis.Scale, Linear
TestParameter, Output.Graph.XAxis.Left, -2
TestParameter, Output.Graph.XAxis.Right, 2
TestParameter, Output.Graph.XAxis.RunTimeAutoScale, true
TestParameter, Output.Graph.YAxis.Data, I
TestParameter, Output.Graph.YAxis.Scale, Linear
TestParameter, Output.Graph.YAxis.Bottom, -0.1
TestParameter, Output.Graph.YAxis.Top, 0.1
TestParameter, Output.Graph.YAxis.Group, 
TestParameter, Output.Graph.YAxis.RunTimeAutoScale, true
TestParameter, AutoAnalysis.Interpolation, false
TestParameter, AutoAnalysis.Var2StepCount, 1
TestParameter, AutoAnalysis.Var2StepScript, 
TestParameter, AutoAnalysis.Line1.Enabled, false
TestParameter, AutoAnalysis.Line1.Type, 1
TestParameter, AutoAnalysis.Line1.Fix, True
TestParameter, AutoAnalysis.Line1.YAxis, 0
TestParameter, AutoAnalysis.Line1.Point1.Type, 0
TestParameter, AutoAnalysis.Line1.Point1.XY.X, 
TestParameter, AutoAnalysis.Line1.Point1.XY.Y, 
TestParameter, AutoAnalysis.Line1.Point1.Data.Var, 
TestParameter, AutoAnalysis.Line1.Point1.Data.Condition, 
TestParameter, AutoAnalysis.Line1.Point1.Data.Start, false
TestParameter, AutoAnalysis.Line1.Point1.Data.StartVar, 
TestParameter, AutoAnalysis.Line1.Point1.Data.StartCondition, 
TestParameter, AutoAnalysis.Line1.Point2.Type, 0
TestParameter, AutoAnalysis.Line1.Point2.XY.X, 
TestParameter, AutoAnalysis.Line1.Point2.XY.Y, 
TestParameter, AutoAnalysis.Line1.Point2.Data.Var, 
TestParameter, AutoAnalysis.Line1.Point2.Data.Condition, 
TestParameter, AutoAnalysis.Line1.Point2.Data.Start, false
TestParameter, AutoAnalysis.Line1.Point2.Data.StartVar, 
TestParameter, AutoAnalysis.Line1.Point2.Data.StartCondition, 
TestParameter, AutoAnalysis.Line1.GradientExpr, 0
TestParameter, AutoAnalysis.Line2.Enabled, false
TestParameter, AutoAnalysis.Line2.Type, 1
TestParameter, AutoAnalysis.Line2.Fix, True
TestParameter, AutoAnalysis.Line2.YAxis, 0
TestParameter, AutoAnalysis.Line2.Point1.Type, 0
TestParameter, AutoAnalysis.Line2.Point1.XY.X, 
TestParameter, AutoAnalysis.Line2.Point1.XY.Y, 
TestParameter, AutoAnalysis.Line2.Point1.Data.Var, 
TestParameter, AutoAnalysis.Line2.Point1.Data.Condition, 
TestParameter, AutoAnalysis.Line2.Point1.Data.Start, false
TestParameter, AutoAnalysis.Line2.Point1.Data.StartVar, 
TestParameter, AutoAnalysis.Line2.Point1.Data.StartCondition, 
TestParameter, AutoAnalysis.Line2.Point2.Type, 0
TestParameter, AutoAnalysis.Line2.Point2.XY.X, 
TestParameter, AutoAnalysis.Line2.Point2.XY.Y, 
TestParameter, AutoAnalysis.Line2.Point2.Data.Var, 
TestParameter, AutoAnalysis.Line2.Point2.Data.Condition, 
TestParameter, AutoAnalysis.Line2.Point2.Data.Start, false
TestParameter, AutoAnalysis.Line2.Point2.Data.StartVar, 
TestParameter, AutoAnalysis.Line2.Point2.Data.StartCondition, 
TestParameter, AutoAnalysis.Line2.GradientExpr, 0
TestParameter, AutoAnalysis.Marker.Enabled, false
TestParameter, AutoAnalysis.Marker.Data.Var, 
TestParameter, AutoAnalysis.Marker.Data.Condition, 
TestParameter, AutoAnalysis.Marker.Data.Start, false
TestParameter, AutoAnalysis.Marker.Data.StartVar, 
TestParameter, AutoAnalysis.Marker.Data.StartCondition, 
MetaData, TestRecord.EntryPoint, true
MetaData, TestRecord.RecordTime, 10/19/2022 14:22:00
MetaData, TestRecord.TestTarget, 
MetaData, TestRecord.IterationIndex, 434
MetaData, TestRecord.Preservation, true
MetaData, TestRecord.Flag, 
MetaData, TestRecord.Remarks, 
MetaData, TestRecord.LinkKey, b0f80ca7-ba85-4e27-bb7e-26869687470c
MetaData, TestRecord.Parameters, 
Dimension1, 101, 101
Dimension2, 1, 1
DataName, V, I
DataValue, -2, 4.6111199999999993E-08
DataValue, -1.9600000000000002, 3.3352E-08
DataValue, -1.9200000000000002, 8.816E-08
DataValue, -1.8800000000000001, -8.6259999999999993E-08
DataValue, -1.84, -2.7208799999999998E-08
DataValue, -1.8, -7.676E-08
DataValue, -1.76, 8.904E-08
DataValue, -1.72, 3.1640199999999995E-08
DataValue, -1.6800000000000002, 9.634E-08
DataValue, -1.6400000000000001, -5.424E-08
DataValue, -1.6, -1.38588E-08
DataValue, -1.56, -7.584E-08
DataValue, -1.52, -6.3902E-09
DataValue, -1.48, 4.443E-09
DataValue, -1.4400000000000002, 1.2202E-07
DataValue, -1.4000000000000001, 3.07186E-08
DataValue, -1.36, 8.776E-08
DataValue, -1.32, -8.814E-08
DataValue, -1.28, -1.136E-08
DataValue, -1.24, 6.06986E-08
DataValue, -1.2, 3.11662E-08
DataValue, -1.1600000000000001, 8.732E-08
DataValue, -1.12, -8.76E-08
DataValue, -1.08, -1.802E-08
DataValue, -1.04, 6.01356E-08
DataValue, -1, 3.2983E-08
DataValue, -0.96000000000000008, 1.041E-07
DataValue, -0.92, 2.248E-08
DataValue, -0.88, -5.87934E-08
DataValue, -0.84000000000000008, -1.7623599999999998E-08
DataValue, -0.8, -1.3288E-07
DataValue, -0.76, 4.154E-08
DataValue, -0.72000000000000008, 2.0015999999999998E-09
DataValue, -0.68, 7.728E-08
DataValue, -0.64, 1.9122799999999998E-08
DataValue, -0.6, 1.1364E-07
DataValue, -0.56, -4.686E-08
DataValue, -0.52, -2.0659199999999997E-08
DataValue, -0.48000000000000004, -1.0776E-07
DataValue, -0.44, -3.26336E-08
DataValue, -0.4, -7.992E-08
DataValue, -0.36000000000000004, -1.6807E-08
DataValue, -0.32, -8.662E-08
DataValue, -0.28, -3.5118599999999997E-08
DataValue, -0.24000000000000002, -7.672E-08
DataValue, -0.2, -2.0588399999999997E-08
DataValue, -0.16, -9.514E-08
DataValue, -0.12000000000000001, 4.9659999999999996E-08
DataValue, -0.08, 1.2745199999999999E-08
DataValue, -0.04, 1.1618E-07
DataValue, 0, -4.926E-08
DataValue, 0.04, 5.5842E-09
DataValue, 0.08, 1.1918799999999998E-08
DataValue, 0.12000000000000001, 1.0914E-07
DataValue, 0.16, 3.2179E-08
DataValue, 0.2, 7.958E-08
DataValue, 0.24000000000000002, 1.7686799999999997E-08
DataValue, 0.28, 8.358E-08
DataValue, 0.32, -4.834E-08
DataValue, 0.36000000000000004, -6.7253999999999991E-09
DataValue, 0.4, -8.618E-08
DataValue, 0.44, -2.53746E-08
DataValue, 0.48000000000000004, 1.3307999999999998E-09
DataValue, 0.52, 7.762E-08
DataValue, 0.56, 2.2285199999999998E-08
DataValue, 0.6, 1.1696E-07
DataValue, 0.64, -8.198E-08
DataValue, 0.68, -2.56948E-08
DataValue, 0.72000000000000008, -9.144E-08
DataValue, 0.76, 5.262E-08
DataValue, 0.8, -1.3194799999999999E-08
DataValue, 0.84000000000000008, 4.328E-08
DataValue, 0.88, 2.7950999999999997E-08
DataValue, 0.92, -2.2817999999999996E-08
DataValue, 0.96000000000000008, 2.7735799999999997E-08
DataValue, 1, -2.5783999999999997E-09
DataValue, 1.04, 4.0424399999999994E-08
DataValue, 1.08, -2.09544E-08
DataValue, 1.12, -4.982E-08
DataValue, 1.1600000000000001, 8.758E-08
DataValue, 1.2, 2.008E-08
DataValue, 1.24, -5.9559199999999995E-08
DataValue, 1.28, -1.6869999999999998E-08
DataValue, 1.32, -1.3036E-07
DataValue, 1.36, -3.89066E-08
DataValue, 1.4000000000000001, -8.4099999999999992E-08
DataValue, 1.4400000000000002, -2.3775799999999996E-08
DataValue, 1.48, 8.642E-08
DataValue, 1.52, -4.158E-08
DataValue, 1.56, -6.1819999999999989E-10
DataValue, 1.6, 1.82018E-08
DataValue, 1.6400000000000001, 1.334E-07
DataValue, 1.6800000000000002, 3.8609999999999993E-08
DataValue, 1.72, 1.1942E-07
DataValue, 1.76, 4.32222E-08
DataValue, 1.8, 5.6454399999999992E-08
DataValue, 1.84, 3.19462E-08
DataValue, 1.8800000000000001, 7.852E-08
DataValue, 1.9200000000000002, 1.8149199999999997E-08
DataValue, 1.9600000000000002, 1.1892E-07
DataValue, 2, -1.2488E-07