
SetupTitle, I/V Sweep
PrimitiveTest, I/V Sweep
TestParameter, Context.MainFrame, B1500A
TestParameter, Channel.UnitType, SMU, SMU, SMU, SMU, SMU
TestParameter, Channel.Unit, SMU1:HP, SMU2:MP, SMU3:MP, SMU4:MP, SMU5:MP
TestParameter, Channel.IName, I, IDD1, IDD2, ISS, IPP
TestParameter, Channel.VName, V, VDD1, VDD2, VSS, VPP
TestParameter, Channel.Mode, V, V, V, V, V
TestParameter, Channel.Func, VAR1, CONST, CONST, CONST, CONST
TestParameter, Channel.Index, 
TestParameter, Channel.Time, 
TestParameter, Measurement.Port.Unit, SMU1:HP, SMU2:MP, SMU3:MP, SMU4:MP, SMU5:MP
TestParameter, Measurement.Port.SeriesResistor, NONE, NONE, NONE, NONE, NONE
TestParameter, Measurement.Port.Filter, ON, ON, ON, ON, ON
TestParameter, Measurement.Port.OutputVoltageComparison, 0, 0, 0, 0, 0
TestParameter, Measurement.Primary.Locus, Single
TestParameter, Measurement.Primary.Scale, LINEAR
TestParameter, Measurement.Primary.Start, -2
TestParameter, Measurement.Primary.Stop, 2
TestParameter, Measurement.Primary.Step, 0.04
TestParameter, Measurement.Primary.Compliance, 0.1
TestParameter, Measurement.Primary.PowerCompliance, 0
TestParameter, Measurement.Aborting.Condition, CONTINUE AT ANY
TestParameter, Measurement.PostOutput.Value, START
TestParameter, Measurement.PostOutput.Retention, OFF
TestParameter, Measurement.Bias.Source, -2, 1.8, 1.1, 0, 0
TestParameter, Measurement.Bias.Compliance, 0.1, 0.1, 0.1, 0.1, 0.1
TestParameter, Measurement.Monitor.Unit, SMU1:HP, SMU2:MP, SMU3:MP, SMU4:MP, SMU5:MP
TestParameter, Measurement.Monitor.Adc, HR ADC, HR ADC, HR ADC, HR ADC, HR ADC
TestParameter, Measurement.Monitor.Measurement, Compliance Side, Compliance Side, Compliance Side, Compliance Side, Compliance Side
TestParameter, Measurement.Monitor.RangingMode, LIMITED, LIMITED, LIMITED, LIMITED, LIMITED
TestParameter, Measurement.Monitor.RangeBoundary, 1nA, 1nA, 1nA, 1nA, 1nA
TestParameter, Measurement.Monitor.RangeRating, BY FULL RANGE, BY FULL RANGE, BY FULL RANGE, BY FULL RANGE, BY FULL RANGE
TestParameter, Measurement.Monitor.RangeRatingCoeff, 50, 50, 50, 50, 50
TestParameter, Measurement.Timing.Hold, 0
TestParameter, Measurement.Timing.Delay, 0
TestParameter, Measurement.Adc.HighSpeed.Mode, AUTO
TestParameter, Measurement.Adc.HighSpeed.Coeff, 1
TestParameter, Measurement.Adc.HighResolution.AutoZero, OFF
TestParameter, Measurement.Adc.HighResolution.Mode, AUTO
TestParameter, Measurement.Adc.HighResolution.Coeff, 6
TestParameter, Measurement.WaitTime.Source.Coeff, 1
TestParameter, Measurement.WaitTime.Source.Offset, 0
TestParameter, Measurement.WaitTime.Monitor.Coeff, 1
TestParameter, Measurement.WaitTime.Monitor.Offset, 0
TestParameter, Output.Graph.Enabled, true
TestParameter, Output.Graph.AutoScaling, false
TestParameter, Output.Graph.XAxis.Data, V
TestParameter, Output.Graph.XAxis.Scale, Linear
TestParameter, Output.Graph.XAxis.Left, -2
TestParameter, Output.Graph.XAxis.Right, 2
TestParameter, Output.Graph.XAxis.RunTimeAutoScale, true
TestParameter, Output.Graph.YAxis.Data, I
TestParameter, Output.Graph.YAxis.Scale, Linear
TestParameter, Output.Graph.YAxis.Bottom, -0.1
TestParameter, Output.Graph.YAxis.Top, 0.1
TestParameter, Output.Graph.YAxis.Group, 
TestParameter, Output.Graph.YAxis.RunTimeAutoScale, true
TestParameter, AutoAnalysis.Interpolation, false
TestParameter, AutoAnalysis.Var2StepCount, 1
TestParameter, AutoAnalysis.Var2StepScript, 
TestParameter, AutoAnalysis.Line1.Enabled, false
TestParameter, AutoAnalysis.Line1.Type, 1
TestParameter, AutoAnalysis.Line1.Fix, True
TestParameter, AutoAnalysis.Line1.YAxis, 0
TestParameter, AutoAnalysis.Line1.Point1.Type, 0
TestParameter, AutoAnalysis.Line1.Point1.XY.X, 
TestParameter, AutoAnalysis.Line1.Point1.XY.Y, 
TestParameter, AutoAnalysis.Line1.Point1.Data.Var, 
TestParameter, AutoAnalysis.Line1.Point1.Data.Condition, 
TestParameter, AutoAnalysis.Line1.Point1.Data.Start, false
TestParameter, AutoAnalysis.Line1.Point1.Data.StartVar, 
TestParameter, AutoAnalysis.Line1.Point1.Data.StartCondition, 
TestParameter, AutoAnalysis.Line1.Point2.Type, 0
TestParameter, AutoAnalysis.Line1.Point2.XY.X, 
TestParameter, AutoAnalysis.Line1.Point2.XY.Y, 
TestParameter, AutoAnalysis.Line1.Point2.Data.Var, 
TestParameter, AutoAnalysis.Line1.Point2.Data.Condition, 
TestParameter, AutoAnalysis.Line1.Point2.Data.Start, false
TestParameter, AutoAnalysis.Line1.Point2.Data.StartVar, 
TestParameter, AutoAnalysis.Line1.Point2.Data.StartCondition, 
TestParameter, AutoAnalysis.Line1.GradientExpr, 0
TestParameter, AutoAnalysis.Line2.Enabled, false
TestParameter, AutoAnalysis.Line2.Type, 1
TestParameter, AutoAnalysis.Line2.Fix, True
TestParameter, AutoAnalysis.Line2.YAxis, 0
TestParameter, AutoAnalysis.Line2.Point1.Type, 0
TestParameter, AutoAnalysis.Line2.Point1.XY.X, 
TestParameter, AutoAnalysis.Line2.Point1.XY.Y, 
TestParameter, AutoAnalysis.Line2.Point1.Data.Var, 
TestParameter, AutoAnalysis.Line2.Point1.Data.Condition, 
TestParameter, AutoAnalysis.Line2.Point1.Data.Start, false
TestParameter, AutoAnalysis.Line2.Point1.Data.StartVar, 
TestParameter, AutoAnalysis.Line2.Point1.Data.StartCondition, 
TestParameter, AutoAnalysis.Line2.Point2.Type, 0
TestParameter, AutoAnalysis.Line2.Point2.XY.X, 
TestParameter, AutoAnalysis.Line2.Point2.XY.Y, 
TestParameter, AutoAnalysis.Line2.Point2.Data.Var, 
TestParameter, AutoAnalysis.Line2.Point2.Data.Condition, 
TestParameter, AutoAnalysis.Line2.Point2.Data.Start, false
TestParameter, AutoAnalysis.Line2.Point2.Data.StartVar, 
TestParameter, AutoAnalysis.Line2.Point2.Data.StartCondition, 
TestParameter, AutoAnalysis.Line2.GradientExpr, 0
TestParameter, AutoAnalysis.Marker.Enabled, false
TestParameter, AutoAnalysis.Marker.Data.Var, 
TestParameter, AutoAnalysis.Marker.Data.Condition, 
TestParameter, AutoAnalysis.Marker.Data.Start, false
TestParameter, AutoAnalysis.Marker.Data.StartVar, 
TestParameter, AutoAnalysis.Marker.Data.StartCondition, 
MetaData, TestRecord.EntryPoint, true
MetaData, TestRecord.RecordTime, 10/19/2022 14:29:21
MetaData, TestRecord.TestTarget, 
MetaData, TestRecord.IterationIndex, 451
MetaData, TestRecord.Preservation, true
MetaData, TestRecord.Flag, 
MetaData, TestRecord.Remarks, 
MetaData, TestRecord.LinkKey, 1b8f0fb0-aff1-469d-9d99-dc11f2e56771
MetaData, TestRecord.Parameters, 
Dimension1, 101, 101
Dimension2, 1, 1
DataName, V, I
DataValue, -2, -3.6845E-08
DataValue, -1.9600000000000002, 3.544E-08
DataValue, -1.9200000000000002, -4.024E-08
DataValue, -1.8800000000000001, 4.9731599999999996E-08
DataValue, -1.84, 3.1013999999999996E-08
DataValue, -1.8, 1.1484E-07
DataValue, -1.76, 3.7259599999999996E-08
DataValue, -1.72, 8.952E-08
DataValue, -1.6800000000000002, -1.1464E-07
DataValue, -1.6400000000000001, -3.79582E-08
DataValue, -1.6, 2.4289799999999997E-08
DataValue, -1.56, 5.024E-08
DataValue, -1.52, -9.0659999999999993E-08
DataValue, -1.48, 7.18E-08
DataValue, -1.4400000000000002, 1.8857599999999997E-08
DataValue, -1.4000000000000001, 1.2801999999999998E-09
DataValue, -1.36, 1.2622999999999998E-08
DataValue, -1.32, 9.966E-08
DataValue, -1.28, -4.11E-08
DataValue, -1.24, 7.3699999999999992E-09
DataValue, -1.2, 3.5947999999999996E-09
DataValue, -1.1600000000000001, 6.936E-08
DataValue, -1.12, 1.53392E-08
DataValue, -1.08, -7.514E-08
DataValue, -1.04, 6.372E-08
DataValue, -1, 1.0860999999999999E-08
DataValue, -0.96000000000000008, -2.0305199999999996E-08
DataValue, -0.92, -3.6973999999999997E-09
DataValue, -0.88, 3.954E-08
DataValue, -0.84000000000000008, 1.5863999999999998E-09
DataValue, -0.8, 6.982E-08
DataValue, -0.76, 1.8940399999999998E-08
DataValue, -0.72000000000000008, 1.1076E-09
DataValue, -0.68, 1.1440399999999999E-08
DataValue, -0.64, 9.8E-08
DataValue, -0.6, 1.77512E-08
DataValue, -0.56, 2.2166E-09
DataValue, -0.52, -9.356E-08
DataValue, -0.48000000000000004, 5.9539999999999996E-08
DataValue, -0.44, 6.9421999999999995E-09
DataValue, -0.4, 1.0722E-07
DataValue, -0.36000000000000004, 2.4946999999999998E-08
DataValue, -0.32, -4.4399999999999996E-09
DataValue, -0.28, 6.2977E-08
DataValue, -0.24000000000000002, 2.7285199999999997E-08
DataValue, -0.2, 8.828E-08
DataValue, -0.16, -4.87E-08
DataValue, -0.12000000000000001, 1.4002599999999998E-08
DataValue, -0.08, 2.4779999999999996E-10
DataValue, -0.04, 7.084E-08
DataValue, 0, -7.988E-08
DataValue, 0.04, 4.118E-08
DataValue, 0.08, -2.0461599999999996E-08
DataValue, 0.12000000000000001, 4.4179999999999996E-08
DataValue, 0.16, -1.6387999999999998E-08
DataValue, 0.2, 4.318E-08
DataValue, 0.24000000000000002, -1.2395199999999999E-08
DataValue, 0.28, 3.81E-08
DataValue, 0.32, -9.1643999999999987E-09
DataValue, 0.36000000000000004, 7.22E-08
DataValue, 0.4, 1.0472E-08
DataValue, 0.44, 1.1758E-07
DataValue, 0.48000000000000004, 2.7837199999999997E-08
DataValue, 0.52, 7.876E-08
DataValue, 0.56, -1.0194E-07
DataValue, 0.6, 3.366E-08
DataValue, 0.64, -5.8719999999999996E-09
DataValue, 0.68, 3.5799999999999996E-08
DataValue, 0.72000000000000008, -2.0776E-09
DataValue, 0.76, 4.5539999999999996E-08
DataValue, 0.8, 4.0448E-09
DataValue, 0.84000000000000008, 8.148E-08
DataValue, 0.88, 2.0433599999999998E-08
DataValue, 0.92, 7.76E-08
DataValue, 0.96000000000000008, -6.908E-08
DataValue, 1, -3.1307199999999995E-08
DataValue, 1.04, -7.1319999999999993E-08
DataValue, 1.08, -1.7513399999999998E-08
DataValue, 1.12, 8.066E-08
DataValue, 1.1600000000000001, -7.014E-08
DataValue, 1.2, -1.7138599999999997E-08
DataValue, 1.24, -4.53578E-08
DataValue, 1.28, -2.99748E-08
DataValue, 1.32, -7.17E-08
DataValue, 1.36, -1.72576E-08
DataValue, 1.4000000000000001, 7.602E-08
DataValue, 1.4400000000000002, -1.1209999999999999E-07
DataValue, 1.48, -2.9102199999999996E-08
DataValue, 1.52, -8.408E-08
DataValue, 1.56, 4.364E-08
DataValue, 1.6, -1.6655999999999997E-08
DataValue, 1.6400000000000001, 3.518E-08
DataValue, 1.6800000000000002, -7.9234E-09
DataValue, 1.72, 3.428E-08
DataValue, 1.76, -4.4579999999999993E-09
DataValue, 1.8, 4.974E-08
DataValue, 1.84, 4.1317999999999993E-09
DataValue, 1.8800000000000001, 8.088E-08
DataValue, 1.9200000000000002, 2.0890599999999996E-08
DataValue, 1.9600000000000002, -2.9586799999999998E-08
DataValue, 2, -9.022E-08