
SetupTitle, I/V Sweep
PrimitiveTest, I/V Sweep
TestParameter, Context.MainFrame, B1500A
TestParameter, Channel.UnitType, SMU, SMU, SMU, SMU
TestParameter, Channel.Unit, SMU1:HP, SMU2:MP, SMU3:MP, SMU4:MP
TestParameter, Channel.IName, I, IDD1, IDD2, II
TestParameter, Channel.VName, V, VDD1, VDD2, VV
TestParameter, Channel.Mode, V, V, V, V
TestParameter, Channel.Func, VAR1, CONST, CONST, CONST
TestParameter, Channel.Index, 
TestParameter, Channel.Time, 
TestParameter, Measurement.Port.Unit, SMU1:HP, SMU2:MP, SMU3:MP, SMU4:MP
TestParameter, Measurement.Port.SeriesResistor, NONE, NONE, NONE, NONE
TestParameter, Measurement.Port.Filter, ON, ON, ON, ON
TestParameter, Measurement.Port.OutputVoltageComparison, 0, 0, 0, 0
TestParameter, Measurement.Primary.Locus, Single
TestParameter, Measurement.Primary.Scale, LINEAR
TestParameter, Measurement.Primary.Start, -2
TestParameter, Measurement.Primary.Stop, 2
TestParameter, Measurement.Primary.Step, 0.04
TestParameter, Measurement.Primary.Compliance, 0.1
TestParameter, Measurement.Primary.PowerCompliance, 0
TestParameter, Measurement.Aborting.Condition, CONTINUE AT ANY
TestParameter, Measurement.PostOutput.Value, START
TestParameter, Measurement.PostOutput.Retention, OFF
TestParameter, Measurement.Bias.Source, -2, 1.8, 1.1, 0
TestParameter, Measurement.Bias.Compliance, 0.1, 0.1, 0.1, 0.1
TestParameter, Measurement.Monitor.Unit, SMU1:HP, SMU2:MP, SMU3:MP, SMU4:MP
TestParameter, Measurement.Monitor.Adc, HR ADC, HR ADC, HR ADC, HR ADC
TestParameter, Measurement.Monitor.Measurement, Compliance Side, Compliance Side, Compliance Side, Compliance Side
TestParameter, Measurement.Monitor.RangingMode, LIMITED, LIMITED, LIMITED, LIMITED
TestParameter, Measurement.Monitor.RangeBoundary, 1nA, 1nA, 1nA, 1nA
TestParameter, Measurement.Monitor.RangeRating, BY FULL RANGE, BY FULL RANGE, BY FULL RANGE, BY FULL RANGE
TestParameter, Measurement.Monitor.RangeRatingCoeff, 50, 50, 50, 50
TestParameter, Measurement.Timing.Hold, 0
TestParameter, Measurement.Timing.Delay, 0
TestParameter, Measurement.Adc.HighSpeed.Mode, AUTO
TestParameter, Measurement.Adc.HighSpeed.Coeff, 1
TestParameter, Measurement.Adc.HighResolution.AutoZero, OFF
TestParameter, Measurement.Adc.HighResolution.Mode, AUTO
TestParameter, Measurement.Adc.HighResolution.Coeff, 6
TestParameter, Measurement.WaitTime.Source.Coeff, 1
TestParameter, Measurement.WaitTime.Source.Offset, 0
TestParameter, Measurement.WaitTime.Monitor.Coeff, 1
TestParameter, Measurement.WaitTime.Monitor.Offset, 0
TestParameter, Output.Graph.Enabled, true
TestParameter, Output.Graph.AutoScaling, false
TestParameter, Output.Graph.XAxis.Data, V
TestParameter, Output.Graph.XAxis.Scale, Linear
TestParameter, Output.Graph.XAxis.Left, -2
TestParameter, Output.Graph.XAxis.Right, 2
TestParameter, Output.Graph.XAxis.RunTimeAutoScale, true
TestParameter, Output.Graph.YAxis.Data, I
TestParameter, Output.Graph.YAxis.Scale, Linear
TestParameter, Output.Graph.YAxis.Bottom, -0.1
TestParameter, Output.Graph.YAxis.Top, 0.1
TestParameter, Output.Graph.YAxis.Group, 
TestParameter, Output.Graph.YAxis.RunTimeAutoScale, true
TestParameter, AutoAnalysis.Interpolation, false
TestParameter, AutoAnalysis.Var2StepCount, 1
TestParameter, AutoAnalysis.Var2StepScript, 
TestParameter, AutoAnalysis.Line1.Enabled, false
TestParameter, AutoAnalysis.Line1.Type, 1
TestParameter, AutoAnalysis.Line1.Fix, True
TestParameter, AutoAnalysis.Line1.YAxis, 0
TestParameter, AutoAnalysis.Line1.Point1.Type, 0
TestParameter, AutoAnalysis.Line1.Point1.XY.X, 
TestParameter, AutoAnalysis.Line1.Point1.XY.Y, 
TestParameter, AutoAnalysis.Line1.Point1.Data.Var, 
TestParameter, AutoAnalysis.Line1.Point1.Data.Condition, 
TestParameter, AutoAnalysis.Line1.Point1.Data.Start, false
TestParameter, AutoAnalysis.Line1.Point1.Data.StartVar, 
TestParameter, AutoAnalysis.Line1.Point1.Data.StartCondition, 
TestParameter, AutoAnalysis.Line1.Point2.Type, 0
TestParameter, AutoAnalysis.Line1.Point2.XY.X, 
TestParameter, AutoAnalysis.Line1.Point2.XY.Y, 
TestParameter, AutoAnalysis.Line1.Point2.Data.Var, 
TestParameter, AutoAnalysis.Line1.Point2.Data.Condition, 
TestParameter, AutoAnalysis.Line1.Point2.Data.Start, false
TestParameter, AutoAnalysis.Line1.Point2.Data.StartVar, 
TestParameter, AutoAnalysis.Line1.Point2.Data.StartCondition, 
TestParameter, AutoAnalysis.Line1.GradientExpr, 0
TestParameter, AutoAnalysis.Line2.Enabled, false
TestParameter, AutoAnalysis.Line2.Type, 1
TestParameter, AutoAnalysis.Line2.Fix, True
TestParameter, AutoAnalysis.Line2.YAxis, 0
TestParameter, AutoAnalysis.Line2.Point1.Type, 0
TestParameter, AutoAnalysis.Line2.Point1.XY.X, 
TestParameter, AutoAnalysis.Line2.Point1.XY.Y, 
TestParameter, AutoAnalysis.Line2.Point1.Data.Var, 
TestParameter, AutoAnalysis.Line2.Point1.Data.Condition, 
TestParameter, AutoAnalysis.Line2.Point1.Data.Start, false
TestParameter, AutoAnalysis.Line2.Point1.Data.StartVar, 
TestParameter, AutoAnalysis.Line2.Point1.Data.StartCondition, 
TestParameter, AutoAnalysis.Line2.Point2.Type, 0
TestParameter, AutoAnalysis.Line2.Point2.XY.X, 
TestParameter, AutoAnalysis.Line2.Point2.XY.Y, 
TestParameter, AutoAnalysis.Line2.Point2.Data.Var, 
TestParameter, AutoAnalysis.Line2.Point2.Data.Condition, 
TestParameter, AutoAnalysis.Line2.Point2.Data.Start, false
TestParameter, AutoAnalysis.Line2.Point2.Data.StartVar, 
TestParameter, AutoAnalysis.Line2.Point2.Data.StartCondition, 
TestParameter, AutoAnalysis.Line2.GradientExpr, 0
TestParameter, AutoAnalysis.Marker.Enabled, false
TestParameter, AutoAnalysis.Marker.Data.Var, 
TestParameter, AutoAnalysis.Marker.Data.Condition, 
TestParameter, AutoAnalysis.Marker.Data.Start, false
TestParameter, AutoAnalysis.Marker.Data.StartVar, 
TestParameter, AutoAnalysis.Marker.Data.StartCondition, 
MetaData, TestRecord.EntryPoint, true
MetaData, TestRecord.RecordTime, 10/19/2022 15:32:32
MetaData, TestRecord.TestTarget, 
MetaData, TestRecord.IterationIndex, 73
MetaData, TestRecord.Preservation, true
MetaData, TestRecord.Flag, 
MetaData, TestRecord.Remarks, 
MetaData, TestRecord.LinkKey, 59b45434-55a3-4689-89f6-1aa0175cc0a9
MetaData, TestRecord.Parameters, 
Dimension1, 101, 101
Dimension2, 1, 1
DataName, V, I
DataValue, -2, -0.044812000000000005
DataValue, -1.9600000000000002, -0.045540000000000004
DataValue, -1.9200000000000002, -0.044252000000000007
DataValue, -1.8800000000000001, -0.043886
DataValue, -1.84, -0.043732000000000007
DataValue, -1.8, -0.04238
DataValue, -1.76, -0.040648000000000004
DataValue, -1.72, -0.039
DataValue, -1.6800000000000002, -0.037426
DataValue, -1.6400000000000001, -0.03629
DataValue, -1.6, -0.035284
DataValue, -1.56, -0.034480000000000004
DataValue, -1.52, -0.033514
DataValue, -1.48, -0.032510000000000004
DataValue, -1.4400000000000002, -0.031496
DataValue, -1.4000000000000001, -0.030464
DataValue, -1.36, -0.029416
DataValue, -1.32, -0.028364000000000004
DataValue, -1.28, -0.027306000000000004
DataValue, -1.24, -0.026236000000000002
DataValue, -1.2, -0.025148000000000004
DataValue, -1.1600000000000001, -0.024064000000000002
DataValue, -1.12, -0.02297
DataValue, -1.08, -0.021872000000000003
DataValue, -1.04, -0.02077
DataValue, -1, -0.01966
DataValue, -0.96000000000000008, -0.01855
DataValue, -0.92, -0.017434
DataValue, -0.88, -0.016328000000000002
DataValue, -0.84000000000000008, -0.015220000000000001
DataValue, -0.8, -0.014116000000000002
DataValue, -0.76, -0.013024
DataValue, -0.72000000000000008, -0.011940000000000001
DataValue, -0.68, -0.010862
DataValue, -0.64, -0.0098096
DataValue, -0.6, -0.0087688
DataValue, -0.56, -0.007749
DataValue, -0.52, -0.006752
DataValue, -0.48000000000000004, -0.0057902000000000006
DataValue, -0.44, -0.0048652
DataValue, -0.4, -0.0039858
DataValue, -0.36000000000000004, -0.003159
DataValue, -0.32, -0.0024002
DataValue, -0.28, -0.0017216
DataValue, -0.24000000000000002, -0.001141
DataValue, -0.2, -0.00067732
DataValue, -0.16, -0.00034386000000000003
DataValue, -0.12000000000000001, -0.00014342
DataValue, -0.08, -4.8288E-05
DataValue, -0.04, -1.2072E-05
DataValue, 0, -6.0977999999999994E-09
DataValue, 0.04, 3.6791000000000005E-06
DataValue, 0.08, 4.6956E-06
DataValue, 0.12000000000000001, 5.0562000000000008E-06
DataValue, 0.16, 5.2945000000000007E-06
DataValue, 0.2, 5.5342E-06
DataValue, 0.24000000000000002, 6.050200000000001E-06
DataValue, 0.28, 7.5988000000000008E-06
DataValue, 0.32, 1.267E-05
DataValue, 0.36000000000000004, 2.7422E-05
DataValue, 0.4, 5.131E-05
DataValue, 0.44, 8.5792000000000008E-05
DataValue, 0.48000000000000004, 0.00013426
DataValue, 0.52, 0.00019976000000000003
DataValue, 0.56, 0.00028806000000000003
DataValue, 0.6, 0.00040534
DataValue, 0.64, 0.00055222000000000008
DataValue, 0.68, 0.00072868
DataValue, 0.72000000000000008, 0.00092914000000000007
DataValue, 0.76, 0.00115006
DataValue, 0.8, 0.0013948
DataValue, 0.84000000000000008, 0.0016478
DataValue, 0.88, 0.0019102000000000001
DataValue, 0.92, 0.0021822
DataValue, 0.96000000000000008, 0.0024590000000000002
DataValue, 1, 0.0027364
DataValue, 1.04, 0.0030642
DataValue, 1.08, 0.0033584
DataValue, 1.12, 0.0036680000000000003
DataValue, 1.1600000000000001, 0.00388
DataValue, 1.2, 0.0040968
DataValue, 1.24, 0.0043516
DataValue, 1.28, 0.0046204
DataValue, 1.32, 0.0049078
DataValue, 1.36, 0.0051966
DataValue, 1.4000000000000001, 0.0055052
DataValue, 1.4400000000000002, 0.0058330000000000005
DataValue, 1.48, 0.0062332
DataValue, 1.52, 0.0067688
DataValue, 1.56, 0.0073322000000000005
DataValue, 1.6, 0.00781
DataValue, 1.6400000000000001, 0.0082372
DataValue, 1.6800000000000002, 0.008661
DataValue, 1.72, 0.0090854
DataValue, 1.76, 0.0095174
DataValue, 1.8, 0.0099592
DataValue, 1.84, 0.0104082
DataValue, 1.8800000000000001, 0.0108898
DataValue, 1.9200000000000002, 0.0114264
DataValue, 1.9600000000000002, 0.011940000000000001
DataValue, 2, 0.012430000000000002