
SetupTitle, I/V Sweep
PrimitiveTest, I/V Sweep
TestParameter, Context.MainFrame, B1500A
TestParameter, Channel.UnitType, SMU, SMU, SMU, SMU
TestParameter, Channel.Unit, SMU1:HP, SMU2:MP, SMU3:MP, SMU4:MP
TestParameter, Channel.IName, I, IDD1, IDD2, II
TestParameter, Channel.VName, V, VDD1, VDD2, VV
TestParameter, Channel.Mode, V, V, V, V
TestParameter, Channel.Func, VAR1, CONST, CONST, CONST
TestParameter, Channel.Index, 
TestParameter, Channel.Time, 
TestParameter, Measurement.Port.Unit, SMU1:HP, SMU2:MP, SMU3:MP, SMU4:MP
TestParameter, Measurement.Port.SeriesResistor, NONE, NONE, NONE, NONE
TestParameter, Measurement.Port.Filter, ON, ON, ON, ON
TestParameter, Measurement.Port.OutputVoltageComparison, 0, 0, 0, 0
TestParameter, Measurement.Primary.Locus, Single
TestParameter, Measurement.Primary.Scale, LINEAR
TestParameter, Measurement.Primary.Start, -2
TestParameter, Measurement.Primary.Stop, 2
TestParameter, Measurement.Primary.Step, 0.04
TestParameter, Measurement.Primary.Compliance, 0.1
TestParameter, Measurement.Primary.PowerCompliance, 0
TestParameter, Measurement.Aborting.Condition, CONTINUE AT ANY
TestParameter, Measurement.PostOutput.Value, START
TestParameter, Measurement.PostOutput.Retention, OFF
TestParameter, Measurement.Bias.Source, -2, 1.8, 1.1, 0
TestParameter, Measurement.Bias.Compliance, 0.1, 0.1, 0.1, 0.1
TestParameter, Measurement.Monitor.Unit, SMU1:HP, SMU2:MP, SMU3:MP, SMU4:MP
TestParameter, Measurement.Monitor.Adc, HR ADC, HR ADC, HR ADC, HR ADC
TestParameter, Measurement.Monitor.Measurement, Compliance Side, Compliance Side, Compliance Side, Compliance Side
TestParameter, Measurement.Monitor.RangingMode, LIMITED, LIMITED, LIMITED, LIMITED
TestParameter, Measurement.Monitor.RangeBoundary, 1nA, 1nA, 1nA, 1nA
TestParameter, Measurement.Monitor.RangeRating, BY FULL RANGE, BY FULL RANGE, BY FULL RANGE, BY FULL RANGE
TestParameter, Measurement.Monitor.RangeRatingCoeff, 50, 50, 50, 50
TestParameter, Measurement.Timing.Hold, 0
TestParameter, Measurement.Timing.Delay, 0
TestParameter, Measurement.Adc.HighSpeed.Mode, AUTO
TestParameter, Measurement.Adc.HighSpeed.Coeff, 1
TestParameter, Measurement.Adc.HighResolution.AutoZero, OFF
TestParameter, Measurement.Adc.HighResolution.Mode, AUTO
TestParameter, Measurement.Adc.HighResolution.Coeff, 6
TestParameter, Measurement.WaitTime.Source.Coeff, 1
TestParameter, Measurement.WaitTime.Source.Offset, 0
TestParameter, Measurement.WaitTime.Monitor.Coeff, 1
TestParameter, Measurement.WaitTime.Monitor.Offset, 0
TestParameter, Output.Graph.Enabled, true
TestParameter, Output.Graph.AutoScaling, false
TestParameter, Output.Graph.XAxis.Data, V
TestParameter, Output.Graph.XAxis.Scale, Linear
TestParameter, Output.Graph.XAxis.Left, -2
TestParameter, Output.Graph.XAxis.Right, 2
TestParameter, Output.Graph.XAxis.RunTimeAutoScale, true
TestParameter, Output.Graph.YAxis.Data, I
TestParameter, Output.Graph.YAxis.Scale, Linear
TestParameter, Output.Graph.YAxis.Bottom, -0.1
TestParameter, Output.Graph.YAxis.Top, 0.1
TestParameter, Output.Graph.YAxis.Group, 
TestParameter, Output.Graph.YAxis.RunTimeAutoScale, true
TestParameter, AutoAnalysis.Interpolation, false
TestParameter, AutoAnalysis.Var2StepCount, 1
TestParameter, AutoAnalysis.Var2StepScript, 
TestParameter, AutoAnalysis.Line1.Enabled, false
TestParameter, AutoAnalysis.Line1.Type, 1
TestParameter, AutoAnalysis.Line1.Fix, True
TestParameter, AutoAnalysis.Line1.YAxis, 0
TestParameter, AutoAnalysis.Line1.Point1.Type, 0
TestParameter, AutoAnalysis.Line1.Point1.XY.X, 
TestParameter, AutoAnalysis.Line1.Point1.XY.Y, 
TestParameter, AutoAnalysis.Line1.Point1.Data.Var, 
TestParameter, AutoAnalysis.Line1.Point1.Data.Condition, 
TestParameter, AutoAnalysis.Line1.Point1.Data.Start, false
TestParameter, AutoAnalysis.Line1.Point1.Data.StartVar, 
TestParameter, AutoAnalysis.Line1.Point1.Data.StartCondition, 
TestParameter, AutoAnalysis.Line1.Point2.Type, 0
TestParameter, AutoAnalysis.Line1.Point2.XY.X, 
TestParameter, AutoAnalysis.Line1.Point2.XY.Y, 
TestParameter, AutoAnalysis.Line1.Point2.Data.Var, 
TestParameter, AutoAnalysis.Line1.Point2.Data.Condition, 
TestParameter, AutoAnalysis.Line1.Point2.Data.Start, false
TestParameter, AutoAnalysis.Line1.Point2.Data.StartVar, 
TestParameter, AutoAnalysis.Line1.Point2.Data.StartCondition, 
TestParameter, AutoAnalysis.Line1.GradientExpr, 0
TestParameter, AutoAnalysis.Line2.Enabled, false
TestParameter, AutoAnalysis.Line2.Type, 1
TestParameter, AutoAnalysis.Line2.Fix, True
TestParameter, AutoAnalysis.Line2.YAxis, 0
TestParameter, AutoAnalysis.Line2.Point1.Type, 0
TestParameter, AutoAnalysis.Line2.Point1.XY.X, 
TestParameter, AutoAnalysis.Line2.Point1.XY.Y, 
TestParameter, AutoAnalysis.Line2.Point1.Data.Var, 
TestParameter, AutoAnalysis.Line2.Point1.Data.Condition, 
TestParameter, AutoAnalysis.Line2.Point1.Data.Start, false
TestParameter, AutoAnalysis.Line2.Point1.Data.StartVar, 
TestParameter, AutoAnalysis.Line2.Point1.Data.StartCondition, 
TestParameter, AutoAnalysis.Line2.Point2.Type, 0
TestParameter, AutoAnalysis.Line2.Point2.XY.X, 
TestParameter, AutoAnalysis.Line2.Point2.XY.Y, 
TestParameter, AutoAnalysis.Line2.Point2.Data.Var, 
TestParameter, AutoAnalysis.Line2.Point2.Data.Condition, 
TestParameter, AutoAnalysis.Line2.Point2.Data.Start, false
TestParameter, AutoAnalysis.Line2.Point2.Data.StartVar, 
TestParameter, AutoAnalysis.Line2.Point2.Data.StartCondition, 
TestParameter, AutoAnalysis.Line2.GradientExpr, 0
TestParameter, AutoAnalysis.Marker.Enabled, false
TestParameter, AutoAnalysis.Marker.Data.Var, 
TestParameter, AutoAnalysis.Marker.Data.Condition, 
TestParameter, AutoAnalysis.Marker.Data.Start, false
TestParameter, AutoAnalysis.Marker.Data.StartVar, 
TestParameter, AutoAnalysis.Marker.Data.StartCondition, 
MetaData, TestRecord.EntryPoint, true
MetaData, TestRecord.RecordTime, 10/19/2022 15:27:34
MetaData, TestRecord.TestTarget, 
MetaData, TestRecord.IterationIndex, 61
MetaData, TestRecord.Preservation, true
MetaData, TestRecord.Flag, 
MetaData, TestRecord.Remarks, 
MetaData, TestRecord.LinkKey, d68d308a-903d-432f-a789-4e4e9bbd1544
MetaData, TestRecord.Parameters, 
Dimension1, 101, 101
Dimension2, 1, 1
DataName, V, I
DataValue, -2, -0.020138000000000003
DataValue, -1.9600000000000002, -0.019404
DataValue, -1.9200000000000002, -0.018692
DataValue, -1.8800000000000001, -0.017986000000000002
DataValue, -1.84, -0.017268000000000002
DataValue, -1.8, -0.016556
DataValue, -1.76, -0.015860000000000003
DataValue, -1.72, -0.015146000000000002
DataValue, -1.6800000000000002, -0.014440000000000001
DataValue, -1.6400000000000001, -0.01374
DataValue, -1.6, -0.013036
DataValue, -1.56, -0.012334000000000001
DataValue, -1.52, -0.011640000000000001
DataValue, -1.48, -0.010940000000000002
DataValue, -1.4400000000000002, -0.010248
DataValue, -1.4000000000000001, -0.00958
DataValue, -1.36, -0.0088788000000000009
DataValue, -1.32, -0.0081934
DataValue, -1.28, -0.0075094
DataValue, -1.24, -0.0068302
DataValue, -1.2, -0.0061574
DataValue, -1.1600000000000001, -0.0054856
DataValue, -1.12, -0.0048196
DataValue, -1.08, -0.004164
DataValue, -1.04, -0.0035184
DataValue, -1, -0.0028884
DataValue, -0.96000000000000008, -0.0022802
DataValue, -0.92, -0.001701
DataValue, -0.88, -0.0011696
DataValue, -0.84000000000000008, -0.00070826
DataValue, -0.8, -0.00035568000000000004
DataValue, -0.76, -0.00014324000000000002
DataValue, -0.72000000000000008, -5.4104E-05
DataValue, -0.68, -1.8212E-05
DataValue, -0.64, -6.8543000000000006E-06
DataValue, -0.6, -2.0248E-06
DataValue, -0.56, 1.9002000000000003E-06
DataValue, -0.52, 3.8883000000000005E-06
DataValue, -0.48000000000000004, 4.9701000000000009E-06
DataValue, -0.44, 5.7087000000000009E-06
DataValue, -0.4, 3.9852E-06
DataValue, -0.36000000000000004, 5.3415000000000004E-06
DataValue, -0.32, 5.6389E-06
DataValue, -0.28, 4.271E-06
DataValue, -0.24000000000000002, 5.5277000000000005E-06
DataValue, -0.2, 6.0895000000000007E-06
DataValue, -0.16, 4.3324E-06
DataValue, -0.12000000000000001, 5.5559000000000005E-06
DataValue, -0.08, 6.1011000000000008E-06
DataValue, -0.04, 4.3172000000000008E-06
DataValue, 0, 5.5322E-06
DataValue, 0.04, 4.3291000000000006E-06
DataValue, 0.08, 5.5455000000000005E-06
DataValue, 0.12000000000000001, 4.3316E-06
DataValue, 0.16, 5.5528000000000004E-06
DataValue, 0.2, 4.3369000000000008E-06
DataValue, 0.24000000000000002, 5.5512E-06
DataValue, 0.28, 4.3785000000000005E-06
DataValue, 0.32, 5.6036000000000009E-06
DataValue, 0.36000000000000004, 4.4594E-06
DataValue, 0.4, 5.7131E-06
DataValue, 0.44, 4.8908000000000007E-06
DataValue, 0.48000000000000004, 5.3495E-06
DataValue, 0.52, 6.4331E-06
DataValue, 0.56, 8.5544E-06
DataValue, 0.6, 1.1498E-05
DataValue, 0.64, 1.817E-05
DataValue, 0.68, 2.6416000000000003E-05
DataValue, 0.72000000000000008, 3.7742E-05
DataValue, 0.76, 5.1606E-05
DataValue, 0.8, 6.9948E-05
DataValue, 0.84000000000000008, 9.8084E-05
DataValue, 0.88, 3.1106E-05
DataValue, 0.92, 4.4256000000000005E-05
DataValue, 0.96000000000000008, 5.577E-05
DataValue, 1, 6.7236E-05
DataValue, 1.04, 9.2204E-05
DataValue, 1.08, 0.0001633
DataValue, 1.12, 0.00020888000000000002
DataValue, 1.1600000000000001, 0.00026726
DataValue, 1.2, 0.00034632
DataValue, 1.24, 0.00047716
DataValue, 1.28, 0.00051328000000000007
DataValue, 1.32, 0.0005367
DataValue, 1.36, 0.0017978
DataValue, 1.4000000000000001, 0.0019382
DataValue, 1.4400000000000002, 0.0020664
DataValue, 1.48, 0.0022132000000000002
DataValue, 1.52, 0.0023614
DataValue, 1.56, 0.0025166
DataValue, 1.6, 0.0026810000000000002
DataValue, 1.6400000000000001, 0.002857
DataValue, 1.6800000000000002, 0.0030168
DataValue, 1.72, 0.0031704
DataValue, 1.76, 0.0033654
DataValue, 1.8, 0.0035694
DataValue, 1.84, 0.0037864
DataValue, 1.8800000000000001, 0.0040134
DataValue, 1.9200000000000002, 0.00428
DataValue, 1.9600000000000002, 0.0045312
DataValue, 2, 0.0047982