
SetupTitle, I/V Sweep
PrimitiveTest, I/V Sweep
TestParameter, Context.MainFrame, B1500A
TestParameter, Channel.UnitType, SMU, SMU, SMU, SMU
TestParameter, Channel.Unit, SMU1:HP, SMU2:MP, SMU3:MP, SMU4:MP
TestParameter, Channel.IName, I, IDD1, IDD2, II
TestParameter, Channel.VName, V, VDD1, VDD2, VV
TestParameter, Channel.Mode, V, V, V, V
TestParameter, Channel.Func, VAR1, CONST, CONST, CONST
TestParameter, Channel.Index, 
TestParameter, Channel.Time, 
TestParameter, Measurement.Port.Unit, SMU1:HP, SMU2:MP, SMU3:MP, SMU4:MP
TestParameter, Measurement.Port.SeriesResistor, NONE, NONE, NONE, NONE
TestParameter, Measurement.Port.Filter, ON, ON, ON, ON
TestParameter, Measurement.Port.OutputVoltageComparison, 0, 0, 0, 0
TestParameter, Measurement.Primary.Locus, Single
TestParameter, Measurement.Primary.Scale, LINEAR
TestParameter, Measurement.Primary.Start, -2
TestParameter, Measurement.Primary.Stop, 2
TestParameter, Measurement.Primary.Step, 0.04
TestParameter, Measurement.Primary.Compliance, 0.1
TestParameter, Measurement.Primary.PowerCompliance, 0
TestParameter, Measurement.Aborting.Condition, CONTINUE AT ANY
TestParameter, Measurement.PostOutput.Value, START
TestParameter, Measurement.PostOutput.Retention, OFF
TestParameter, Measurement.Bias.Source, -2, 1.8, 1.1, 0
TestParameter, Measurement.Bias.Compliance, 0.1, 0.1, 0.1, 0.1
TestParameter, Measurement.Monitor.Unit, SMU1:HP, SMU2:MP, SMU3:MP, SMU4:MP
TestParameter, Measurement.Monitor.Adc, HR ADC, HR ADC, HR ADC, HR ADC
TestParameter, Measurement.Monitor.Measurement, Compliance Side, Compliance Side, Compliance Side, Compliance Side
TestParameter, Measurement.Monitor.RangingMode, LIMITED, LIMITED, LIMITED, LIMITED
TestParameter, Measurement.Monitor.RangeBoundary, 1nA, 1nA, 1nA, 1nA
TestParameter, Measurement.Monitor.RangeRating, BY FULL RANGE, BY FULL RANGE, BY FULL RANGE, BY FULL RANGE
TestParameter, Measurement.Monitor.RangeRatingCoeff, 50, 50, 50, 50
TestParameter, Measurement.Timing.Hold, 0
TestParameter, Measurement.Timing.Delay, 0
TestParameter, Measurement.Adc.HighSpeed.Mode, AUTO
TestParameter, Measurement.Adc.HighSpeed.Coeff, 1
TestParameter, Measurement.Adc.HighResolution.AutoZero, OFF
TestParameter, Measurement.Adc.HighResolution.Mode, AUTO
TestParameter, Measurement.Adc.HighResolution.Coeff, 6
TestParameter, Measurement.WaitTime.Source.Coeff, 1
TestParameter, Measurement.WaitTime.Source.Offset, 0
TestParameter, Measurement.WaitTime.Monitor.Coeff, 1
TestParameter, Measurement.WaitTime.Monitor.Offset, 0
TestParameter, Output.Graph.Enabled, true
TestParameter, Output.Graph.AutoScaling, false
TestParameter, Output.Graph.XAxis.Data, V
TestParameter, Output.Graph.XAxis.Scale, Linear
TestParameter, Output.Graph.XAxis.Left, -2
TestParameter, Output.Graph.XAxis.Right, 2
TestParameter, Output.Graph.XAxis.RunTimeAutoScale, true
TestParameter, Output.Graph.YAxis.Data, I
TestParameter, Output.Graph.YAxis.Scale, Linear
TestParameter, Output.Graph.YAxis.Bottom, -0.1
TestParameter, Output.Graph.YAxis.Top, 0.1
TestParameter, Output.Graph.YAxis.Group, 
TestParameter, Output.Graph.YAxis.RunTimeAutoScale, true
TestParameter, AutoAnalysis.Interpolation, false
TestParameter, AutoAnalysis.Var2StepCount, 1
TestParameter, AutoAnalysis.Var2StepScript, 
TestParameter, AutoAnalysis.Line1.Enabled, false
TestParameter, AutoAnalysis.Line1.Type, 1
TestParameter, AutoAnalysis.Line1.Fix, True
TestParameter, AutoAnalysis.Line1.YAxis, 0
TestParameter, AutoAnalysis.Line1.Point1.Type, 0
TestParameter, AutoAnalysis.Line1.Point1.XY.X, 
TestParameter, AutoAnalysis.Line1.Point1.XY.Y, 
TestParameter, AutoAnalysis.Line1.Point1.Data.Var, 
TestParameter, AutoAnalysis.Line1.Point1.Data.Condition, 
TestParameter, AutoAnalysis.Line1.Point1.Data.Start, false
TestParameter, AutoAnalysis.Line1.Point1.Data.StartVar, 
TestParameter, AutoAnalysis.Line1.Point1.Data.StartCondition, 
TestParameter, AutoAnalysis.Line1.Point2.Type, 0
TestParameter, AutoAnalysis.Line1.Point2.XY.X, 
TestParameter, AutoAnalysis.Line1.Point2.XY.Y, 
TestParameter, AutoAnalysis.Line1.Point2.Data.Var, 
TestParameter, AutoAnalysis.Line1.Point2.Data.Condition, 
TestParameter, AutoAnalysis.Line1.Point2.Data.Start, false
TestParameter, AutoAnalysis.Line1.Point2.Data.StartVar, 
TestParameter, AutoAnalysis.Line1.Point2.Data.StartCondition, 
TestParameter, AutoAnalysis.Line1.GradientExpr, 0
TestParameter, AutoAnalysis.Line2.Enabled, false
TestParameter, AutoAnalysis.Line2.Type, 1
TestParameter, AutoAnalysis.Line2.Fix, True
TestParameter, AutoAnalysis.Line2.YAxis, 0
TestParameter, AutoAnalysis.Line2.Point1.Type, 0
TestParameter, AutoAnalysis.Line2.Point1.XY.X, 
TestParameter, AutoAnalysis.Line2.Point1.XY.Y, 
TestParameter, AutoAnalysis.Line2.Point1.Data.Var, 
TestParameter, AutoAnalysis.Line2.Point1.Data.Condition, 
TestParameter, AutoAnalysis.Line2.Point1.Data.Start, false
TestParameter, AutoAnalysis.Line2.Point1.Data.StartVar, 
TestParameter, AutoAnalysis.Line2.Point1.Data.StartCondition, 
TestParameter, AutoAnalysis.Line2.Point2.Type, 0
TestParameter, AutoAnalysis.Line2.Point2.XY.X, 
TestParameter, AutoAnalysis.Line2.Point2.XY.Y, 
TestParameter, AutoAnalysis.Line2.Point2.Data.Var, 
TestParameter, AutoAnalysis.Line2.Point2.Data.Condition, 
TestParameter, AutoAnalysis.Line2.Point2.Data.Start, false
TestParameter, AutoAnalysis.Line2.Point2.Data.StartVar, 
TestParameter, AutoAnalysis.Line2.Point2.Data.StartCondition, 
TestParameter, AutoAnalysis.Line2.GradientExpr, 0
TestParameter, AutoAnalysis.Marker.Enabled, false
TestParameter, AutoAnalysis.Marker.Data.Var, 
TestParameter, AutoAnalysis.Marker.Data.Condition, 
TestParameter, AutoAnalysis.Marker.Data.Start, false
TestParameter, AutoAnalysis.Marker.Data.StartVar, 
TestParameter, AutoAnalysis.Marker.Data.StartCondition, 
MetaData, TestRecord.EntryPoint, true
MetaData, TestRecord.RecordTime, 10/19/2022 15:49:00
MetaData, TestRecord.TestTarget, 
MetaData, TestRecord.IterationIndex, 100
MetaData, TestRecord.Preservation, true
MetaData, TestRecord.Flag, 
MetaData, TestRecord.Remarks, 
MetaData, TestRecord.LinkKey, 83376470-7117-485a-8055-2ba9681d0964
MetaData, TestRecord.Parameters, 
Dimension1, 101, 101
Dimension2, 1, 1
DataName, V, I
DataValue, -2, -0.099256000000000011
DataValue, -1.9600000000000002, -0.10000200000000001
DataValue, -1.9200000000000002, -0.10000200000000001
DataValue, -1.8800000000000001, -0.1
DataValue, -1.84, -0.1
DataValue, -1.8, -0.099584
DataValue, -1.76, -0.097088000000000008
DataValue, -1.72, -0.094866
DataValue, -1.6800000000000002, -0.092472000000000013
DataValue, -1.6400000000000001, -0.089774
DataValue, -1.6, -0.087296000000000012
DataValue, -1.56, -0.08462
DataValue, -1.52, -0.081948000000000007
DataValue, -1.48, -0.079202000000000009
DataValue, -1.4400000000000002, -0.07641400000000001
DataValue, -1.4000000000000001, -0.073518
DataValue, -1.36, -0.07059
DataValue, -1.32, -0.066308
DataValue, -1.28, -0.063506
DataValue, -1.24, -0.060526
DataValue, -1.2, -0.057266000000000004
DataValue, -1.1600000000000001, -0.053794
DataValue, -1.12, -0.05052
DataValue, -1.08, -0.047226000000000004
DataValue, -1.04, -0.043904000000000006
DataValue, -1, -0.040560000000000006
DataValue, -0.96000000000000008, -0.037182
DataValue, -0.92, -0.033762
DataValue, -0.88, -0.030302000000000003
DataValue, -0.84000000000000008, -0.026764000000000003
DataValue, -0.8, -0.023078
DataValue, -0.76, -0.019142000000000003
DataValue, -0.72000000000000008, -0.015342000000000002
DataValue, -0.68, -0.011742
DataValue, -0.64, -0.008276
DataValue, -0.6, -0.0052576
DataValue, -0.56, -0.0027656
DataValue, -0.52, -0.0010968
DataValue, -0.48000000000000004, -0.00034024
DataValue, -0.44, -0.00011216000000000001
DataValue, -0.4, -4.847E-05
DataValue, -0.36000000000000004, -2.6418E-05
DataValue, -0.32, -1.5258E-05
DataValue, -0.28, -8.2632E-06
DataValue, -0.24000000000000002, -4.0710000000000005E-06
DataValue, -0.2, -1.8547000000000002E-06
DataValue, -0.16, -7.417E-07
DataValue, -0.12000000000000001, -2.8716E-07
DataValue, -0.08, -9.956E-08
DataValue, -0.04, -2.8659199999999996E-08
DataValue, 0, -6.921E-09
DataValue, 0.04, -2.204E-09
DataValue, 0.08, -1.0086E-09
DataValue, 0.12000000000000001, -6.0331000000000006E-10
DataValue, 0.16, -5.0746E-10
DataValue, 0.2, -4.0727000000000003E-10
DataValue, 0.24000000000000002, -3.6314000000000005E-10
DataValue, 0.28, -2.2452000000000002E-10
DataValue, 0.32, 4.9000000000000005E-12
DataValue, 0.36000000000000004, 6.3209E-10
DataValue, 0.4, 1.8399E-09
DataValue, 0.44, 4.1368E-09
DataValue, 0.48000000000000004, 7.9533E-09
DataValue, 0.52, 1.4189399999999999E-08
DataValue, 0.56, 2.37644E-08
DataValue, 0.6, 3.8050399999999995E-08
DataValue, 0.64, 5.8470199999999991E-08
DataValue, 0.68, 8.68198E-08
DataValue, 0.72000000000000008, 1.2534E-07
DataValue, 0.76, 1.7642E-07
DataValue, 0.8, 2.4332E-07
DataValue, 0.84000000000000008, 3.2984E-07
DataValue, 0.88, 4.4194E-07
DataValue, 0.92, 5.8829999999999994E-07
DataValue, 0.96000000000000008, 7.7933999999999994E-07
DataValue, 1, 1.01958E-06
DataValue, 1.04, 1.2905000000000002E-06
DataValue, 1.08, 1.6575000000000002E-06
DataValue, 1.12, 2.1166E-06
DataValue, 1.1600000000000001, 2.6721000000000002E-06
DataValue, 1.2, 3.3111000000000004E-06
DataValue, 1.24, 4.0416E-06
DataValue, 1.28, 4.7756000000000005E-06
DataValue, 1.32, 5.6835000000000007E-06
DataValue, 1.36, 6.7767000000000007E-06
DataValue, 1.4000000000000001, 7.9951E-06
DataValue, 1.4400000000000002, 9.4161000000000012E-06
DataValue, 1.48, 1.0544000000000001E-05
DataValue, 1.52, 1.4718E-05
DataValue, 1.56, 2.7644E-05
DataValue, 1.6, 8.008E-05
DataValue, 1.6400000000000001, 0.0002836
DataValue, 1.6800000000000002, 0.0009016
DataValue, 1.72, 0.0021772000000000002
DataValue, 1.76, 0.0040312
DataValue, 1.8, 0.0062818
DataValue, 1.84, 0.008824
DataValue, 1.8800000000000001, 0.011552000000000002
DataValue, 1.9200000000000002, 0.014390000000000002
DataValue, 1.9600000000000002, 0.017346
DataValue, 2, 0.020226