
SetupTitle, I/V Sweep
PrimitiveTest, I/V Sweep
TestParameter, Context.MainFrame, B1500A
TestParameter, Channel.UnitType, SMU, SMU, SMU, SMU
TestParameter, Channel.Unit, SMU1:HP, SMU2:MP, SMU3:MP, SMU4:MP
TestParameter, Channel.IName, I, IDD1, IDD2, II
TestParameter, Channel.VName, V, VDD1, VDD2, VV
TestParameter, Channel.Mode, V, V, V, V
TestParameter, Channel.Func, VAR1, CONST, CONST, CONST
TestParameter, Channel.Index, 
TestParameter, Channel.Time, 
TestParameter, Measurement.Port.Unit, SMU1:HP, SMU2:MP, SMU3:MP, SMU4:MP
TestParameter, Measurement.Port.SeriesResistor, NONE, NONE, NONE, NONE
TestParameter, Measurement.Port.Filter, ON, ON, ON, ON
TestParameter, Measurement.Port.OutputVoltageComparison, 0, 0, 0, 0
TestParameter, Measurement.Primary.Locus, Single
TestParameter, Measurement.Primary.Scale, LINEAR
TestParameter, Measurement.Primary.Start, -2
TestParameter, Measurement.Primary.Stop, 2
TestParameter, Measurement.Primary.Step, 0.04
TestParameter, Measurement.Primary.Compliance, 0.1
TestParameter, Measurement.Primary.PowerCompliance, 0
TestParameter, Measurement.Aborting.Condition, CONTINUE AT ANY
TestParameter, Measurement.PostOutput.Value, START
TestParameter, Measurement.PostOutput.Retention, OFF
TestParameter, Measurement.Bias.Source, -2, 1.8, 1.1, 0
TestParameter, Measurement.Bias.Compliance, 0.1, 0.1, 0.1, 0.1
TestParameter, Measurement.Monitor.Unit, SMU1:HP, SMU2:MP, SMU3:MP, SMU4:MP
TestParameter, Measurement.Monitor.Adc, HR ADC, HR ADC, HR ADC, HR ADC
TestParameter, Measurement.Monitor.Measurement, Compliance Side, Compliance Side, Compliance Side, Compliance Side
TestParameter, Measurement.Monitor.RangingMode, LIMITED, LIMITED, LIMITED, LIMITED
TestParameter, Measurement.Monitor.RangeBoundary, 1nA, 1nA, 1nA, 1nA
TestParameter, Measurement.Monitor.RangeRating, BY FULL RANGE, BY FULL RANGE, BY FULL RANGE, BY FULL RANGE
TestParameter, Measurement.Monitor.RangeRatingCoeff, 50, 50, 50, 50
TestParameter, Measurement.Timing.Hold, 0
TestParameter, Measurement.Timing.Delay, 0
TestParameter, Measurement.Adc.HighSpeed.Mode, AUTO
TestParameter, Measurement.Adc.HighSpeed.Coeff, 1
TestParameter, Measurement.Adc.HighResolution.AutoZero, OFF
TestParameter, Measurement.Adc.HighResolution.Mode, AUTO
TestParameter, Measurement.Adc.HighResolution.Coeff, 6
TestParameter, Measurement.WaitTime.Source.Coeff, 1
TestParameter, Measurement.WaitTime.Source.Offset, 0
TestParameter, Measurement.WaitTime.Monitor.Coeff, 1
TestParameter, Measurement.WaitTime.Monitor.Offset, 0
TestParameter, Output.Graph.Enabled, true
TestParameter, Output.Graph.AutoScaling, false
TestParameter, Output.Graph.XAxis.Data, V
TestParameter, Output.Graph.XAxis.Scale, Linear
TestParameter, Output.Graph.XAxis.Left, -2
TestParameter, Output.Graph.XAxis.Right, 2
TestParameter, Output.Graph.XAxis.RunTimeAutoScale, true
TestParameter, Output.Graph.YAxis.Data, I
TestParameter, Output.Graph.YAxis.Scale, Linear
TestParameter, Output.Graph.YAxis.Bottom, -0.1
TestParameter, Output.Graph.YAxis.Top, 0.1
TestParameter, Output.Graph.YAxis.Group, 
TestParameter, Output.Graph.YAxis.RunTimeAutoScale, true
TestParameter, AutoAnalysis.Interpolation, false
TestParameter, AutoAnalysis.Var2StepCount, 1
TestParameter, AutoAnalysis.Var2StepScript, 
TestParameter, AutoAnalysis.Line1.Enabled, false
TestParameter, AutoAnalysis.Line1.Type, 1
TestParameter, AutoAnalysis.Line1.Fix, True
TestParameter, AutoAnalysis.Line1.YAxis, 0
TestParameter, AutoAnalysis.Line1.Point1.Type, 0
TestParameter, AutoAnalysis.Line1.Point1.XY.X, 
TestParameter, AutoAnalysis.Line1.Point1.XY.Y, 
TestParameter, AutoAnalysis.Line1.Point1.Data.Var, 
TestParameter, AutoAnalysis.Line1.Point1.Data.Condition, 
TestParameter, AutoAnalysis.Line1.Point1.Data.Start, false
TestParameter, AutoAnalysis.Line1.Point1.Data.StartVar, 
TestParameter, AutoAnalysis.Line1.Point1.Data.StartCondition, 
TestParameter, AutoAnalysis.Line1.Point2.Type, 0
TestParameter, AutoAnalysis.Line1.Point2.XY.X, 
TestParameter, AutoAnalysis.Line1.Point2.XY.Y, 
TestParameter, AutoAnalysis.Line1.Point2.Data.Var, 
TestParameter, AutoAnalysis.Line1.Point2.Data.Condition, 
TestParameter, AutoAnalysis.Line1.Point2.Data.Start, false
TestParameter, AutoAnalysis.Line1.Point2.Data.StartVar, 
TestParameter, AutoAnalysis.Line1.Point2.Data.StartCondition, 
TestParameter, AutoAnalysis.Line1.GradientExpr, 0
TestParameter, AutoAnalysis.Line2.Enabled, false
TestParameter, AutoAnalysis.Line2.Type, 1
TestParameter, AutoAnalysis.Line2.Fix, True
TestParameter, AutoAnalysis.Line2.YAxis, 0
TestParameter, AutoAnalysis.Line2.Point1.Type, 0
TestParameter, AutoAnalysis.Line2.Point1.XY.X, 
TestParameter, AutoAnalysis.Line2.Point1.XY.Y, 
TestParameter, AutoAnalysis.Line2.Point1.Data.Var, 
TestParameter, AutoAnalysis.Line2.Point1.Data.Condition, 
TestParameter, AutoAnalysis.Line2.Point1.Data.Start, false
TestParameter, AutoAnalysis.Line2.Point1.Data.StartVar, 
TestParameter, AutoAnalysis.Line2.Point1.Data.StartCondition, 
TestParameter, AutoAnalysis.Line2.Point2.Type, 0
TestParameter, AutoAnalysis.Line2.Point2.XY.X, 
TestParameter, AutoAnalysis.Line2.Point2.XY.Y, 
TestParameter, AutoAnalysis.Line2.Point2.Data.Var, 
TestParameter, AutoAnalysis.Line2.Point2.Data.Condition, 
TestParameter, AutoAnalysis.Line2.Point2.Data.Start, false
TestParameter, AutoAnalysis.Line2.Point2.Data.StartVar, 
TestParameter, AutoAnalysis.Line2.Point2.Data.StartCondition, 
TestParameter, AutoAnalysis.Line2.GradientExpr, 0
TestParameter, AutoAnalysis.Marker.Enabled, false
TestParameter, AutoAnalysis.Marker.Data.Var, 
TestParameter, AutoAnalysis.Marker.Data.Condition, 
TestParameter, AutoAnalysis.Marker.Data.Start, false
TestParameter, AutoAnalysis.Marker.Data.StartVar, 
TestParameter, AutoAnalysis.Marker.Data.StartCondition, 
MetaData, TestRecord.EntryPoint, true
MetaData, TestRecord.RecordTime, 10/19/2022 15:41:51
MetaData, TestRecord.TestTarget, 
MetaData, TestRecord.IterationIndex, 85
MetaData, TestRecord.Preservation, true
MetaData, TestRecord.Flag, 
MetaData, TestRecord.Remarks, 
MetaData, TestRecord.LinkKey, 53bc38e3-8fc9-489f-bbf6-45df1b402ba0
MetaData, TestRecord.Parameters, 
Dimension1, 101, 101
Dimension2, 1, 1
DataName, V, I
DataValue, -2, -0.074504
DataValue, -1.9600000000000002, -0.073678000000000007
DataValue, -1.9200000000000002, -0.07315
DataValue, -1.8800000000000001, -0.071382
DataValue, -1.84, -0.070654000000000008
DataValue, -1.8, -0.068928
DataValue, -1.76, -0.067762
DataValue, -1.72, -0.066538
DataValue, -1.6800000000000002, -0.065078000000000011
DataValue, -1.6400000000000001, -0.063646000000000008
DataValue, -1.6, -0.062708
DataValue, -1.56, -0.061666000000000006
DataValue, -1.52, -0.060572000000000008
DataValue, -1.48, -0.059452000000000005
DataValue, -1.4400000000000002, -0.058328000000000005
DataValue, -1.4000000000000001, -0.057194
DataValue, -1.36, -0.056044000000000004
DataValue, -1.32, -0.054888000000000006
DataValue, -1.28, -0.053726
DataValue, -1.24, -0.05256
DataValue, -1.2, -0.051378000000000007
DataValue, -1.1600000000000001, -0.050204000000000006
DataValue, -1.12, -0.049016000000000004
DataValue, -1.08, -0.047832000000000006
DataValue, -1.04, -0.046642
DataValue, -1, -0.045450000000000004
DataValue, -0.96000000000000008, -0.044252000000000007
DataValue, -0.92, -0.043048
DataValue, -0.88, -0.041850000000000005
DataValue, -0.84000000000000008, -0.040648000000000004
DataValue, -0.8, -0.039446
DataValue, -0.76, -0.038238
DataValue, -0.72000000000000008, -0.037034000000000004
DataValue, -0.68, -0.035826000000000004
DataValue, -0.64, -0.034622
DataValue, -0.6, -0.033420000000000005
DataValue, -0.56, -0.032220000000000006
DataValue, -0.52, -0.031016000000000002
DataValue, -0.48000000000000004, -0.029816000000000002
DataValue, -0.44, -0.028618
DataValue, -0.4, -0.027430000000000003
DataValue, -0.36000000000000004, -0.026242
DataValue, -0.32, -0.025060000000000002
DataValue, -0.28, -0.023884000000000002
DataValue, -0.24000000000000002, -0.022716000000000004
DataValue, -0.2, -0.021556000000000002
DataValue, -0.16, -0.020408000000000003
DataValue, -0.12000000000000001, -0.019270000000000002
DataValue, -0.08, -0.018144
DataValue, -0.04, -0.017036000000000003
DataValue, 0, -0.015950000000000002
DataValue, 0.04, -0.014886000000000002
DataValue, 0.08, -0.013852000000000002
DataValue, 0.12000000000000001, -0.012858000000000001
DataValue, 0.16, -0.011906000000000002
DataValue, 0.2, -0.011002000000000001
DataValue, 0.24000000000000002, -0.010136000000000001
DataValue, 0.28, -0.0093212
DataValue, 0.32, -0.0085474
DataValue, 0.36000000000000004, -0.0078228
DataValue, 0.4, -0.0071704
DataValue, 0.44, -0.0065782
DataValue, 0.48000000000000004, -0.0060160000000000005
DataValue, 0.52, -0.005477
DataValue, 0.56, -0.0052838
DataValue, 0.6, -0.0046862
DataValue, 0.64, -0.0040924
DataValue, 0.68, -0.0034774000000000003
DataValue, 0.72000000000000008, -0.0028504
DataValue, 0.76, -0.0023132
DataValue, 0.8, -0.0018456
DataValue, 0.84000000000000008, -0.0014008
DataValue, 0.88, -0.0009786
DataValue, 0.92, -0.00060666000000000008
DataValue, 0.96000000000000008, -0.00032048
DataValue, 1, -0.00013676
DataValue, 1.04, -4.5010000000000004E-05
DataValue, 1.08, -8.5701000000000012E-06
DataValue, 1.12, 5.8257000000000008E-06
DataValue, 1.1600000000000001, 1.3912E-05
DataValue, 1.2, 2.2016E-05
DataValue, 1.24, 3.501E-05
DataValue, 1.28, 6.2354E-05
DataValue, 1.32, 0.00011666000000000001
DataValue, 1.36, 0.00021528
DataValue, 1.4000000000000001, 0.00036084
DataValue, 1.4400000000000002, 0.00055312
DataValue, 1.48, 0.00078844000000000006
DataValue, 1.52, 0.00105988
DataValue, 1.56, 0.0013618
DataValue, 1.6, 0.0016982
DataValue, 1.6400000000000001, 0.0020634
DataValue, 1.6800000000000002, 0.0024590000000000002
DataValue, 1.72, 0.002882
DataValue, 1.76, 0.0033282
DataValue, 1.8, 0.0037982000000000003
DataValue, 1.84, 0.0042908
DataValue, 1.8800000000000001, 0.0048022
DataValue, 1.9200000000000002, 0.0053338000000000005
DataValue, 1.9600000000000002, 0.0058872
DataValue, 2, 0.0064666