
SetupTitle, I/V Sweep
PrimitiveTest, I/V Sweep
TestParameter, Context.MainFrame, B1500A
TestParameter, Channel.UnitType, SMU, SMU, SMU, SMU
TestParameter, Channel.Unit, SMU1:HP, SMU2:MP, SMU3:MP, SMU4:MP
TestParameter, Channel.IName, I, IDD1, IDD2, II
TestParameter, Channel.VName, V, VDD1, VDD2, VV
TestParameter, Channel.Mode, V, V, V, V
TestParameter, Channel.Func, VAR1, CONST, CONST, CONST
TestParameter, Channel.Index, 
TestParameter, Channel.Time, 
TestParameter, Measurement.Port.Unit, SMU1:HP, SMU2:MP, SMU3:MP, SMU4:MP
TestParameter, Measurement.Port.SeriesResistor, NONE, NONE, NONE, NONE
TestParameter, Measurement.Port.Filter, ON, ON, ON, ON
TestParameter, Measurement.Port.OutputVoltageComparison, 0, 0, 0, 0
TestParameter, Measurement.Primary.Locus, Single
TestParameter, Measurement.Primary.Scale, LINEAR
TestParameter, Measurement.Primary.Start, -2
TestParameter, Measurement.Primary.Stop, 2
TestParameter, Measurement.Primary.Step, 0.04
TestParameter, Measurement.Primary.Compliance, 0.1
TestParameter, Measurement.Primary.PowerCompliance, 0
TestParameter, Measurement.Aborting.Condition, CONTINUE AT ANY
TestParameter, Measurement.PostOutput.Value, START
TestParameter, Measurement.PostOutput.Retention, OFF
TestParameter, Measurement.Bias.Source, -2, 1.8, 1.1, 0
TestParameter, Measurement.Bias.Compliance, 0.1, 0.1, 0.1, 0.1
TestParameter, Measurement.Monitor.Unit, SMU1:HP, SMU2:MP, SMU3:MP, SMU4:MP
TestParameter, Measurement.Monitor.Adc, HR ADC, HR ADC, HR ADC, HR ADC
TestParameter, Measurement.Monitor.Measurement, Compliance Side, Compliance Side, Compliance Side, Compliance Side
TestParameter, Measurement.Monitor.RangingMode, LIMITED, LIMITED, LIMITED, LIMITED
TestParameter, Measurement.Monitor.RangeBoundary, 1nA, 1nA, 1nA, 1nA
TestParameter, Measurement.Monitor.RangeRating, BY FULL RANGE, BY FULL RANGE, BY FULL RANGE, BY FULL RANGE
TestParameter, Measurement.Monitor.RangeRatingCoeff, 50, 50, 50, 50
TestParameter, Measurement.Timing.Hold, 0
TestParameter, Measurement.Timing.Delay, 0
TestParameter, Measurement.Adc.HighSpeed.Mode, AUTO
TestParameter, Measurement.Adc.HighSpeed.Coeff, 1
TestParameter, Measurement.Adc.HighResolution.AutoZero, OFF
TestParameter, Measurement.Adc.HighResolution.Mode, AUTO
TestParameter, Measurement.Adc.HighResolution.Coeff, 6
TestParameter, Measurement.WaitTime.Source.Coeff, 1
TestParameter, Measurement.WaitTime.Source.Offset, 0
TestParameter, Measurement.WaitTime.Monitor.Coeff, 1
TestParameter, Measurement.WaitTime.Monitor.Offset, 0
TestParameter, Output.Graph.Enabled, true
TestParameter, Output.Graph.AutoScaling, false
TestParameter, Output.Graph.XAxis.Data, V
TestParameter, Output.Graph.XAxis.Scale, Linear
TestParameter, Output.Graph.XAxis.Left, -2
TestParameter, Output.Graph.XAxis.Right, 2
TestParameter, Output.Graph.XAxis.RunTimeAutoScale, true
TestParameter, Output.Graph.YAxis.Data, I
TestParameter, Output.Graph.YAxis.Scale, Linear
TestParameter, Output.Graph.YAxis.Bottom, -0.1
TestParameter, Output.Graph.YAxis.Top, 0.1
TestParameter, Output.Graph.YAxis.Group, 
TestParameter, Output.Graph.YAxis.RunTimeAutoScale, true
TestParameter, AutoAnalysis.Interpolation, false
TestParameter, AutoAnalysis.Var2StepCount, 1
TestParameter, AutoAnalysis.Var2StepScript, 
TestParameter, AutoAnalysis.Line1.Enabled, false
TestParameter, AutoAnalysis.Line1.Type, 1
TestParameter, AutoAnalysis.Line1.Fix, True
TestParameter, AutoAnalysis.Line1.YAxis, 0
TestParameter, AutoAnalysis.Line1.Point1.Type, 0
TestParameter, AutoAnalysis.Line1.Point1.XY.X, 
TestParameter, AutoAnalysis.Line1.Point1.XY.Y, 
TestParameter, AutoAnalysis.Line1.Point1.Data.Var, 
TestParameter, AutoAnalysis.Line1.Point1.Data.Condition, 
TestParameter, AutoAnalysis.Line1.Point1.Data.Start, false
TestParameter, AutoAnalysis.Line1.Point1.Data.StartVar, 
TestParameter, AutoAnalysis.Line1.Point1.Data.StartCondition, 
TestParameter, AutoAnalysis.Line1.Point2.Type, 0
TestParameter, AutoAnalysis.Line1.Point2.XY.X, 
TestParameter, AutoAnalysis.Line1.Point2.XY.Y, 
TestParameter, AutoAnalysis.Line1.Point2.Data.Var, 
TestParameter, AutoAnalysis.Line1.Point2.Data.Condition, 
TestParameter, AutoAnalysis.Line1.Point2.Data.Start, false
TestParameter, AutoAnalysis.Line1.Point2.Data.StartVar, 
TestParameter, AutoAnalysis.Line1.Point2.Data.StartCondition, 
TestParameter, AutoAnalysis.Line1.GradientExpr, 0
TestParameter, AutoAnalysis.Line2.Enabled, false
TestParameter, AutoAnalysis.Line2.Type, 1
TestParameter, AutoAnalysis.Line2.Fix, True
TestParameter, AutoAnalysis.Line2.YAxis, 0
TestParameter, AutoAnalysis.Line2.Point1.Type, 0
TestParameter, AutoAnalysis.Line2.Point1.XY.X, 
TestParameter, AutoAnalysis.Line2.Point1.XY.Y, 
TestParameter, AutoAnalysis.Line2.Point1.Data.Var, 
TestParameter, AutoAnalysis.Line2.Point1.Data.Condition, 
TestParameter, AutoAnalysis.Line2.Point1.Data.Start, false
TestParameter, AutoAnalysis.Line2.Point1.Data.StartVar, 
TestParameter, AutoAnalysis.Line2.Point1.Data.StartCondition, 
TestParameter, AutoAnalysis.Line2.Point2.Type, 0
TestParameter, AutoAnalysis.Line2.Point2.XY.X, 
TestParameter, AutoAnalysis.Line2.Point2.XY.Y, 
TestParameter, AutoAnalysis.Line2.Point2.Data.Var, 
TestParameter, AutoAnalysis.Line2.Point2.Data.Condition, 
TestParameter, AutoAnalysis.Line2.Point2.Data.Start, false
TestParameter, AutoAnalysis.Line2.Point2.Data.StartVar, 
TestParameter, AutoAnalysis.Line2.Point2.Data.StartCondition, 
TestParameter, AutoAnalysis.Line2.GradientExpr, 0
TestParameter, AutoAnalysis.Marker.Enabled, false
TestParameter, AutoAnalysis.Marker.Data.Var, 
TestParameter, AutoAnalysis.Marker.Data.Condition, 
TestParameter, AutoAnalysis.Marker.Data.Start, false
TestParameter, AutoAnalysis.Marker.Data.StartVar, 
TestParameter, AutoAnalysis.Marker.Data.StartCondition, 
MetaData, TestRecord.EntryPoint, true
MetaData, TestRecord.RecordTime, 10/19/2022 15:34:15
MetaData, TestRecord.TestTarget, 
MetaData, TestRecord.IterationIndex, 77
MetaData, TestRecord.Preservation, true
MetaData, TestRecord.Flag, 
MetaData, TestRecord.Remarks, 
MetaData, TestRecord.LinkKey, df67e9f5-aa94-4e0c-a971-15ff0f5d3b1d
MetaData, TestRecord.Parameters, 
Dimension1, 101, 101
Dimension2, 1, 1
DataName, V, I
DataValue, -2, -0.093018
DataValue, -1.9600000000000002, -0.091904000000000013
DataValue, -1.9200000000000002, -0.089656000000000013
DataValue, -1.8800000000000001, -0.087428
DataValue, -1.84, -0.085294000000000009
DataValue, -1.8, -0.083104000000000011
DataValue, -1.76, -0.080588
DataValue, -1.72, -0.07805200000000001
DataValue, -1.6800000000000002, -0.07531800000000001
DataValue, -1.6400000000000001, -0.072526000000000007
DataValue, -1.6, -0.069810000000000011
DataValue, -1.56, -0.067206
DataValue, -1.52, -0.064566000000000012
DataValue, -1.48, -0.061900000000000004
DataValue, -1.4400000000000002, -0.059222000000000004
DataValue, -1.4000000000000001, -0.056554000000000007
DataValue, -1.36, -0.053902000000000005
DataValue, -1.32, -0.05129
DataValue, -1.28, -0.048728000000000007
DataValue, -1.24, -0.046208000000000006
DataValue, -1.2, -0.043676000000000006
DataValue, -1.1600000000000001, -0.041224000000000004
DataValue, -1.12, -0.038798000000000006
DataValue, -1.08, -0.036402000000000004
DataValue, -1.04, -0.034016000000000005
DataValue, -1, -0.031646
DataValue, -0.96000000000000008, -0.029300000000000003
DataValue, -0.92, -0.027016000000000002
DataValue, -0.88, -0.024748000000000003
DataValue, -0.84000000000000008, -0.02229
DataValue, -0.8, -0.019992000000000003
DataValue, -0.76, -0.017744000000000003
DataValue, -0.72000000000000008, -0.015402
DataValue, -0.68, -0.013380000000000001
DataValue, -0.64, -0.011586
DataValue, -0.6, -0.010024000000000002
DataValue, -0.56, -0.0087954
DataValue, -0.52, -0.0089754
DataValue, -0.48000000000000004, -0.0085374
DataValue, -0.44, -0.008079600000000001
DataValue, -0.4, -0.007685
DataValue, -0.36000000000000004, -0.0072328
DataValue, -0.32, -0.0067914
DataValue, -0.28, -0.0071376
DataValue, -0.24000000000000002, -0.0066022
DataValue, -0.2, -0.0060698
DataValue, -0.16, -0.0055396
DataValue, -0.12000000000000001, -0.0050304
DataValue, -0.08, -0.004534
DataValue, -0.04, -0.0040494
DataValue, 0, -0.0035792000000000003
DataValue, 0.04, -0.0031186
DataValue, 0.08, -0.002679
DataValue, 0.12000000000000001, -0.0022474
DataValue, 0.16, -0.0018188
DataValue, 0.2, -0.001416
DataValue, 0.24000000000000002, -0.0010208
DataValue, 0.28, -0.00063126
DataValue, 0.32, -0.0002547
DataValue, 0.36000000000000004, 0.00012444
DataValue, 0.4, 0.00049916
DataValue, 0.44, 0.00087674000000000009
DataValue, 0.48000000000000004, 0.0012252
DataValue, 0.52, 0.0016034
DataValue, 0.56, 0.001984
DataValue, 0.6, 0.0023706
DataValue, 0.64, 0.0027682
DataValue, 0.68, 0.003158
DataValue, 0.72000000000000008, 0.0035570000000000003
DataValue, 0.76, 0.0039624000000000005
DataValue, 0.8, 0.0043668
DataValue, 0.84000000000000008, 0.0047878
DataValue, 0.88, 0.0052164
DataValue, 0.92, 0.0056484000000000005
DataValue, 0.96000000000000008, 0.0060772000000000005
DataValue, 1, 0.0065218
DataValue, 1.04, 0.0069778
DataValue, 1.08, 0.0074410000000000006
DataValue, 1.12, 0.0079082
DataValue, 1.1600000000000001, 0.008382
DataValue, 1.2, 0.0088524
DataValue, 1.24, 0.0093308
DataValue, 1.28, 0.0098106000000000009
DataValue, 1.32, 0.0097484
DataValue, 1.36, 0.010830000000000001
DataValue, 1.4000000000000001, 0.011404000000000001
DataValue, 1.4400000000000002, 0.012012000000000002
DataValue, 1.48, 0.01259
DataValue, 1.52, 0.01318
DataValue, 1.56, 0.013818
DataValue, 1.6, 0.014560000000000002
DataValue, 1.6400000000000001, 0.015300000000000001
DataValue, 1.6800000000000002, 0.016096000000000003
DataValue, 1.72, 0.016878
DataValue, 1.76, 0.017778000000000002
DataValue, 1.8, 0.018670000000000003
DataValue, 1.84, 0.01966
DataValue, 1.8800000000000001, 0.020472
DataValue, 1.9200000000000002, 0.021348000000000002
DataValue, 1.9600000000000002, 0.022316000000000003
DataValue, 2, 0.023286