
SetupTitle, I/V Sweep
PrimitiveTest, I/V Sweep
TestParameter, Context.MainFrame, B1500A
TestParameter, Channel.UnitType, SMU, SMU, SMU, SMU
TestParameter, Channel.Unit, SMU1:HP, SMU2:MP, SMU3:MP, SMU4:MP
TestParameter, Channel.IName, I, IDD1, IDD2, II
TestParameter, Channel.VName, V, VDD1, VDD2, VV
TestParameter, Channel.Mode, V, V, V, V
TestParameter, Channel.Func, VAR1, CONST, CONST, CONST
TestParameter, Channel.Index, 
TestParameter, Channel.Time, 
TestParameter, Measurement.Port.Unit, SMU1:HP, SMU2:MP, SMU3:MP, SMU4:MP
TestParameter, Measurement.Port.SeriesResistor, NONE, NONE, NONE, NONE
TestParameter, Measurement.Port.Filter, ON, ON, ON, ON
TestParameter, Measurement.Port.OutputVoltageComparison, 0, 0, 0, 0
TestParameter, Measurement.Primary.Locus, Single
TestParameter, Measurement.Primary.Scale, LINEAR
TestParameter, Measurement.Primary.Start, -2
TestParameter, Measurement.Primary.Stop, 2
TestParameter, Measurement.Primary.Step, 0.04
TestParameter, Measurement.Primary.Compliance, 0.1
TestParameter, Measurement.Primary.PowerCompliance, 0
TestParameter, Measurement.Aborting.Condition, CONTINUE AT ANY
TestParameter, Measurement.PostOutput.Value, START
TestParameter, Measurement.PostOutput.Retention, OFF
TestParameter, Measurement.Bias.Source, -2, 1.8, 1.1, 0
TestParameter, Measurement.Bias.Compliance, 0.1, 0.1, 0.1, 0.1
TestParameter, Measurement.Monitor.Unit, SMU1:HP, SMU2:MP, SMU3:MP, SMU4:MP
TestParameter, Measurement.Monitor.Adc, HR ADC, HR ADC, HR ADC, HR ADC
TestParameter, Measurement.Monitor.Measurement, Compliance Side, Compliance Side, Compliance Side, Compliance Side
TestParameter, Measurement.Monitor.RangingMode, LIMITED, LIMITED, LIMITED, LIMITED
TestParameter, Measurement.Monitor.RangeBoundary, 1nA, 1nA, 1nA, 1nA
TestParameter, Measurement.Monitor.RangeRating, BY FULL RANGE, BY FULL RANGE, BY FULL RANGE, BY FULL RANGE
TestParameter, Measurement.Monitor.RangeRatingCoeff, 50, 50, 50, 50
TestParameter, Measurement.Timing.Hold, 0
TestParameter, Measurement.Timing.Delay, 0
TestParameter, Measurement.Adc.HighSpeed.Mode, AUTO
TestParameter, Measurement.Adc.HighSpeed.Coeff, 1
TestParameter, Measurement.Adc.HighResolution.AutoZero, OFF
TestParameter, Measurement.Adc.HighResolution.Mode, AUTO
TestParameter, Measurement.Adc.HighResolution.Coeff, 6
TestParameter, Measurement.WaitTime.Source.Coeff, 1
TestParameter, Measurement.WaitTime.Source.Offset, 0
TestParameter, Measurement.WaitTime.Monitor.Coeff, 1
TestParameter, Measurement.WaitTime.Monitor.Offset, 0
TestParameter, Output.Graph.Enabled, true
TestParameter, Output.Graph.AutoScaling, false
TestParameter, Output.Graph.XAxis.Data, V
TestParameter, Output.Graph.XAxis.Scale, Linear
TestParameter, Output.Graph.XAxis.Left, -2
TestParameter, Output.Graph.XAxis.Right, 2
TestParameter, Output.Graph.XAxis.RunTimeAutoScale, true
TestParameter, Output.Graph.YAxis.Data, I
TestParameter, Output.Graph.YAxis.Scale, Linear
TestParameter, Output.Graph.YAxis.Bottom, -0.1
TestParameter, Output.Graph.YAxis.Top, 0.1
TestParameter, Output.Graph.YAxis.Group, 
TestParameter, Output.Graph.YAxis.RunTimeAutoScale, true
TestParameter, AutoAnalysis.Interpolation, false
TestParameter, AutoAnalysis.Var2StepCount, 1
TestParameter, AutoAnalysis.Var2StepScript, 
TestParameter, AutoAnalysis.Line1.Enabled, false
TestParameter, AutoAnalysis.Line1.Type, 1
TestParameter, AutoAnalysis.Line1.Fix, True
TestParameter, AutoAnalysis.Line1.YAxis, 0
TestParameter, AutoAnalysis.Line1.Point1.Type, 0
TestParameter, AutoAnalysis.Line1.Point1.XY.X, 
TestParameter, AutoAnalysis.Line1.Point1.XY.Y, 
TestParameter, AutoAnalysis.Line1.Point1.Data.Var, 
TestParameter, AutoAnalysis.Line1.Point1.Data.Condition, 
TestParameter, AutoAnalysis.Line1.Point1.Data.Start, false
TestParameter, AutoAnalysis.Line1.Point1.Data.StartVar, 
TestParameter, AutoAnalysis.Line1.Point1.Data.StartCondition, 
TestParameter, AutoAnalysis.Line1.Point2.Type, 0
TestParameter, AutoAnalysis.Line1.Point2.XY.X, 
TestParameter, AutoAnalysis.Line1.Point2.XY.Y, 
TestParameter, AutoAnalysis.Line1.Point2.Data.Var, 
TestParameter, AutoAnalysis.Line1.Point2.Data.Condition, 
TestParameter, AutoAnalysis.Line1.Point2.Data.Start, false
TestParameter, AutoAnalysis.Line1.Point2.Data.StartVar, 
TestParameter, AutoAnalysis.Line1.Point2.Data.StartCondition, 
TestParameter, AutoAnalysis.Line1.GradientExpr, 0
TestParameter, AutoAnalysis.Line2.Enabled, false
TestParameter, AutoAnalysis.Line2.Type, 1
TestParameter, AutoAnalysis.Line2.Fix, True
TestParameter, AutoAnalysis.Line2.YAxis, 0
TestParameter, AutoAnalysis.Line2.Point1.Type, 0
TestParameter, AutoAnalysis.Line2.Point1.XY.X, 
TestParameter, AutoAnalysis.Line2.Point1.XY.Y, 
TestParameter, AutoAnalysis.Line2.Point1.Data.Var, 
TestParameter, AutoAnalysis.Line2.Point1.Data.Condition, 
TestParameter, AutoAnalysis.Line2.Point1.Data.Start, false
TestParameter, AutoAnalysis.Line2.Point1.Data.StartVar, 
TestParameter, AutoAnalysis.Line2.Point1.Data.StartCondition, 
TestParameter, AutoAnalysis.Line2.Point2.Type, 0
TestParameter, AutoAnalysis.Line2.Point2.XY.X, 
TestParameter, AutoAnalysis.Line2.Point2.XY.Y, 
TestParameter, AutoAnalysis.Line2.Point2.Data.Var, 
TestParameter, AutoAnalysis.Line2.Point2.Data.Condition, 
TestParameter, AutoAnalysis.Line2.Point2.Data.Start, false
TestParameter, AutoAnalysis.Line2.Point2.Data.StartVar, 
TestParameter, AutoAnalysis.Line2.Point2.Data.StartCondition, 
TestParameter, AutoAnalysis.Line2.GradientExpr, 0
TestParameter, AutoAnalysis.Marker.Enabled, false
TestParameter, AutoAnalysis.Marker.Data.Var, 
TestParameter, AutoAnalysis.Marker.Data.Condition, 
TestParameter, AutoAnalysis.Marker.Data.Start, false
TestParameter, AutoAnalysis.Marker.Data.StartVar, 
TestParameter, AutoAnalysis.Marker.Data.StartCondition, 
MetaData, TestRecord.EntryPoint, true
MetaData, TestRecord.RecordTime, 10/19/2022 15:25:57
MetaData, TestRecord.TestTarget, 
MetaData, TestRecord.IterationIndex, 56
MetaData, TestRecord.Preservation, true
MetaData, TestRecord.Flag, 
MetaData, TestRecord.Remarks, 
MetaData, TestRecord.LinkKey, 4032518d-8f5c-4dd9-abf1-e5500454d32c
MetaData, TestRecord.Parameters, 
Dimension1, 101, 101
Dimension2, 1, 1
DataName, V, I
DataValue, -2, -0.088254000000000013
DataValue, -1.9600000000000002, -0.087288
DataValue, -1.9200000000000002, -0.085296000000000011
DataValue, -1.8800000000000001, -0.08299200000000001
DataValue, -1.84, -0.080862
DataValue, -1.8, -0.078854000000000007
DataValue, -1.76, -0.076866
DataValue, -1.72, -0.074378
DataValue, -1.6800000000000002, -0.072122
DataValue, -1.6400000000000001, -0.06984
DataValue, -1.6, -0.067410000000000012
DataValue, -1.56, -0.065114
DataValue, -1.52, -0.062768
DataValue, -1.48, -0.0604
DataValue, -1.4400000000000002, -0.058018000000000007
DataValue, -1.4000000000000001, -0.055630000000000006
DataValue, -1.36, -0.053206
DataValue, -1.32, -0.050768000000000008
DataValue, -1.28, -0.048310000000000006
DataValue, -1.24, -0.045852000000000004
DataValue, -1.2, -0.043386
DataValue, -1.1600000000000001, -0.040932
DataValue, -1.12, -0.038472000000000006
DataValue, -1.08, -0.03604
DataValue, -1.04, -0.033618
DataValue, -1, -0.031234
DataValue, -0.96000000000000008, -0.028894000000000003
DataValue, -0.92, -0.026598000000000004
DataValue, -0.88, -0.024382
DataValue, -0.84000000000000008, -0.022254000000000003
DataValue, -0.8, -0.020236
DataValue, -0.76, -0.018326000000000002
DataValue, -0.72000000000000008, -0.016488000000000003
DataValue, -0.68, -0.014652000000000002
DataValue, -0.64, -0.012874000000000002
DataValue, -0.6, -0.011160000000000002
DataValue, -0.56, -0.0095098
DataValue, -0.52, -0.0079024
DataValue, -0.48000000000000004, -0.0063616
DataValue, -0.44, -0.0048986
DataValue, -0.4, -0.0035426
DataValue, -0.36000000000000004, -0.0023338
DataValue, -0.32, -0.0013364
DataValue, -0.28, -0.00062720000000000007
DataValue, -0.24000000000000002, -0.0002357
DataValue, -0.2, -7.61E-05
DataValue, -0.16, -2.3394E-05
DataValue, -0.12000000000000001, -7.252000000000001E-06
DataValue, -0.08, -2.3345000000000003E-06
DataValue, -0.04, -6.5792E-07
DataValue, 0, -2.071E-07
DataValue, 0.04, -7.75E-08
DataValue, 0.08, -7.3978799999999993E-08
DataValue, 0.12000000000000001, -4.47808E-08
DataValue, 0.16, -3.0308599999999995E-08
DataValue, 0.2, -2.0649E-08
DataValue, 0.24000000000000002, -1.14476E-08
DataValue, 0.28, 6.4628E-09
DataValue, 0.32, 5.3062599999999995E-08
DataValue, 0.36000000000000004, 1.4422E-07
DataValue, 0.4, 3.6878E-07
DataValue, 0.44, 4.1571999999999997E-07
DataValue, 0.48000000000000004, 5.4256E-07
DataValue, 0.52, 1.0197000000000002E-06
DataValue, 0.56, 1.1101000000000002E-06
DataValue, 0.6, 1.2491E-06
DataValue, 0.64, 1.4834E-06
DataValue, 0.68, 1.9288E-06
DataValue, 0.72000000000000008, 2.8390000000000003E-06
DataValue, 0.76, 4.7256E-06
DataValue, 0.8, 8.0952E-06
DataValue, 0.84000000000000008, 1.3216E-05
DataValue, 0.88, 2.0278E-05
DataValue, 0.92, 2.9516E-05
DataValue, 0.96000000000000008, 4.1262E-05
DataValue, 1, 5.5916000000000005E-05
DataValue, 1.04, 7.3998E-05
DataValue, 1.08, 9.5990000000000008E-05
DataValue, 1.12, 0.00012254
DataValue, 1.1600000000000001, 0.00015398
DataValue, 1.2, 0.00019130000000000002
DataValue, 1.24, 0.00023486
DataValue, 1.28, 0.0002851
DataValue, 1.32, 0.00034282000000000003
DataValue, 1.36, 0.00040878
DataValue, 1.4000000000000001, 0.00048350000000000004
DataValue, 1.4400000000000002, 0.00056706
DataValue, 1.48, 0.00066092000000000006
DataValue, 1.52, 0.00076498000000000007
DataValue, 1.56, 0.0008798
DataValue, 1.6, 0.00100654
DataValue, 1.6400000000000001, 0.00114478
DataValue, 1.6800000000000002, 0.0012958
DataValue, 1.72, 0.0014594
DataValue, 1.76, 0.0016356
DataValue, 1.8, 0.0018264
DataValue, 1.84, 0.0020308
DataValue, 1.8800000000000001, 0.0022494
DataValue, 1.9200000000000002, 0.0024826
DataValue, 1.9600000000000002, 0.0027306
DataValue, 2, 0.002994