
SetupTitle, I/V Sweep
PrimitiveTest, I/V Sweep
TestParameter, Context.MainFrame, B1500A
TestParameter, Channel.UnitType, SMU, SMU, SMU, SMU
TestParameter, Channel.Unit, SMU1:HP, SMU2:MP, SMU3:MP, SMU4:MP
TestParameter, Channel.IName, I, IDD1, IDD2, II
TestParameter, Channel.VName, V, VDD1, VDD2, VV
TestParameter, Channel.Mode, V, V, V, V
TestParameter, Channel.Func, VAR1, CONST, CONST, CONST
TestParameter, Channel.Index, 
TestParameter, Channel.Time, 
TestParameter, Measurement.Port.Unit, SMU1:HP, SMU2:MP, SMU3:MP, SMU4:MP
TestParameter, Measurement.Port.SeriesResistor, NONE, NONE, NONE, NONE
TestParameter, Measurement.Port.Filter, ON, ON, ON, ON
TestParameter, Measurement.Port.OutputVoltageComparison, 0, 0, 0, 0
TestParameter, Measurement.Primary.Locus, Single
TestParameter, Measurement.Primary.Scale, LINEAR
TestParameter, Measurement.Primary.Start, -2
TestParameter, Measurement.Primary.Stop, 2
TestParameter, Measurement.Primary.Step, 0.04
TestParameter, Measurement.Primary.Compliance, 0.1
TestParameter, Measurement.Primary.PowerCompliance, 0
TestParameter, Measurement.Aborting.Condition, CONTINUE AT ANY
TestParameter, Measurement.PostOutput.Value, START
TestParameter, Measurement.PostOutput.Retention, OFF
TestParameter, Measurement.Bias.Source, -2, 1.8, 1.1, 0
TestParameter, Measurement.Bias.Compliance, 0.1, 0.1, 0.1, 0.1
TestParameter, Measurement.Monitor.Unit, SMU1:HP, SMU2:MP, SMU3:MP, SMU4:MP
TestParameter, Measurement.Monitor.Adc, HR ADC, HR ADC, HR ADC, HR ADC
TestParameter, Measurement.Monitor.Measurement, Compliance Side, Compliance Side, Compliance Side, Compliance Side
TestParameter, Measurement.Monitor.RangingMode, LIMITED, LIMITED, LIMITED, LIMITED
TestParameter, Measurement.Monitor.RangeBoundary, 1nA, 1nA, 1nA, 1nA
TestParameter, Measurement.Monitor.RangeRating, BY FULL RANGE, BY FULL RANGE, BY FULL RANGE, BY FULL RANGE
TestParameter, Measurement.Monitor.RangeRatingCoeff, 50, 50, 50, 50
TestParameter, Measurement.Timing.Hold, 0
TestParameter, Measurement.Timing.Delay, 0
TestParameter, Measurement.Adc.HighSpeed.Mode, AUTO
TestParameter, Measurement.Adc.HighSpeed.Coeff, 1
TestParameter, Measurement.Adc.HighResolution.AutoZero, OFF
TestParameter, Measurement.Adc.HighResolution.Mode, AUTO
TestParameter, Measurement.Adc.HighResolution.Coeff, 6
TestParameter, Measurement.WaitTime.Source.Coeff, 1
TestParameter, Measurement.WaitTime.Source.Offset, 0
TestParameter, Measurement.WaitTime.Monitor.Coeff, 1
TestParameter, Measurement.WaitTime.Monitor.Offset, 0
TestParameter, Output.Graph.Enabled, true
TestParameter, Output.Graph.AutoScaling, false
TestParameter, Output.Graph.XAxis.Data, V
TestParameter, Output.Graph.XAxis.Scale, Linear
TestParameter, Output.Graph.XAxis.Left, -2
TestParameter, Output.Graph.XAxis.Right, 2
TestParameter, Output.Graph.XAxis.RunTimeAutoScale, true
TestParameter, Output.Graph.YAxis.Data, I
TestParameter, Output.Graph.YAxis.Scale, Linear
TestParameter, Output.Graph.YAxis.Bottom, -0.1
TestParameter, Output.Graph.YAxis.Top, 0.1
TestParameter, Output.Graph.YAxis.Group, 
TestParameter, Output.Graph.YAxis.RunTimeAutoScale, true
TestParameter, AutoAnalysis.Interpolation, false
TestParameter, AutoAnalysis.Var2StepCount, 1
TestParameter, AutoAnalysis.Var2StepScript, 
TestParameter, AutoAnalysis.Line1.Enabled, false
TestParameter, AutoAnalysis.Line1.Type, 1
TestParameter, AutoAnalysis.Line1.Fix, True
TestParameter, AutoAnalysis.Line1.YAxis, 0
TestParameter, AutoAnalysis.Line1.Point1.Type, 0
TestParameter, AutoAnalysis.Line1.Point1.XY.X, 
TestParameter, AutoAnalysis.Line1.Point1.XY.Y, 
TestParameter, AutoAnalysis.Line1.Point1.Data.Var, 
TestParameter, AutoAnalysis.Line1.Point1.Data.Condition, 
TestParameter, AutoAnalysis.Line1.Point1.Data.Start, false
TestParameter, AutoAnalysis.Line1.Point1.Data.StartVar, 
TestParameter, AutoAnalysis.Line1.Point1.Data.StartCondition, 
TestParameter, AutoAnalysis.Line1.Point2.Type, 0
TestParameter, AutoAnalysis.Line1.Point2.XY.X, 
TestParameter, AutoAnalysis.Line1.Point2.XY.Y, 
TestParameter, AutoAnalysis.Line1.Point2.Data.Var, 
TestParameter, AutoAnalysis.Line1.Point2.Data.Condition, 
TestParameter, AutoAnalysis.Line1.Point2.Data.Start, false
TestParameter, AutoAnalysis.Line1.Point2.Data.StartVar, 
TestParameter, AutoAnalysis.Line1.Point2.Data.StartCondition, 
TestParameter, AutoAnalysis.Line1.GradientExpr, 0
TestParameter, AutoAnalysis.Line2.Enabled, false
TestParameter, AutoAnalysis.Line2.Type, 1
TestParameter, AutoAnalysis.Line2.Fix, True
TestParameter, AutoAnalysis.Line2.YAxis, 0
TestParameter, AutoAnalysis.Line2.Point1.Type, 0
TestParameter, AutoAnalysis.Line2.Point1.XY.X, 
TestParameter, AutoAnalysis.Line2.Point1.XY.Y, 
TestParameter, AutoAnalysis.Line2.Point1.Data.Var, 
TestParameter, AutoAnalysis.Line2.Point1.Data.Condition, 
TestParameter, AutoAnalysis.Line2.Point1.Data.Start, false
TestParameter, AutoAnalysis.Line2.Point1.Data.StartVar, 
TestParameter, AutoAnalysis.Line2.Point1.Data.StartCondition, 
TestParameter, AutoAnalysis.Line2.Point2.Type, 0
TestParameter, AutoAnalysis.Line2.Point2.XY.X, 
TestParameter, AutoAnalysis.Line2.Point2.XY.Y, 
TestParameter, AutoAnalysis.Line2.Point2.Data.Var, 
TestParameter, AutoAnalysis.Line2.Point2.Data.Condition, 
TestParameter, AutoAnalysis.Line2.Point2.Data.Start, false
TestParameter, AutoAnalysis.Line2.Point2.Data.StartVar, 
TestParameter, AutoAnalysis.Line2.Point2.Data.StartCondition, 
TestParameter, AutoAnalysis.Line2.GradientExpr, 0
TestParameter, AutoAnalysis.Marker.Enabled, false
TestParameter, AutoAnalysis.Marker.Data.Var, 
TestParameter, AutoAnalysis.Marker.Data.Condition, 
TestParameter, AutoAnalysis.Marker.Data.Start, false
TestParameter, AutoAnalysis.Marker.Data.StartVar, 
TestParameter, AutoAnalysis.Marker.Data.StartCondition, 
MetaData, TestRecord.EntryPoint, true
MetaData, TestRecord.RecordTime, 10/19/2022 15:32:08
MetaData, TestRecord.TestTarget, 
MetaData, TestRecord.IterationIndex, 71
MetaData, TestRecord.Preservation, true
MetaData, TestRecord.Flag, 
MetaData, TestRecord.Remarks, 
MetaData, TestRecord.LinkKey, 745e4d1d-af38-48de-bad4-6922a0d6de12
MetaData, TestRecord.Parameters, 
Dimension1, 101, 101
Dimension2, 1, 1
DataName, V, I
DataValue, -2, -0.1
DataValue, -1.9600000000000002, -0.10000200000000001
DataValue, -1.9200000000000002, -0.10000200000000001
DataValue, -1.8800000000000001, -0.10000200000000001
DataValue, -1.84, -0.10000200000000001
DataValue, -1.8, -0.10000400000000001
DataValue, -1.76, -0.10000200000000001
DataValue, -1.72, -0.10000200000000001
DataValue, -1.6800000000000002, -0.0994
DataValue, -1.6400000000000001, -0.096902
DataValue, -1.6, -0.094408
DataValue, -1.56, -0.09191
DataValue, -1.52, -0.089408
DataValue, -1.48, -0.086902000000000007
DataValue, -1.4400000000000002, -0.084398
DataValue, -1.4000000000000001, -0.081902
DataValue, -1.36, -0.079408
DataValue, -1.32, -0.076922
DataValue, -1.28, -0.074438
DataValue, -1.24, -0.07197
DataValue, -1.2, -0.069514
DataValue, -1.1600000000000001, -0.06707
DataValue, -1.12, -0.064626
DataValue, -1.08, -0.062202000000000007
DataValue, -1.04, -0.059786000000000006
DataValue, -1, -0.057378000000000005
DataValue, -0.96000000000000008, -0.054980000000000008
DataValue, -0.92, -0.052592000000000007
DataValue, -0.88, -0.050220000000000008
DataValue, -0.84000000000000008, -0.047856
DataValue, -0.8, -0.045504
DataValue, -0.76, -0.043164
DataValue, -0.72000000000000008, -0.040834
DataValue, -0.68, -0.03851
DataValue, -0.64, -0.036210000000000006
DataValue, -0.6, -0.033926000000000005
DataValue, -0.56, -0.031664000000000005
DataValue, -0.52, -0.029408000000000004
DataValue, -0.48000000000000004, -0.027192
DataValue, -0.44, -0.025006
DataValue, -0.4, -0.022862
DataValue, -0.36000000000000004, -0.020758000000000002
DataValue, -0.32, -0.018694000000000002
DataValue, -0.28, -0.016684
DataValue, -0.24000000000000002, -0.014748
DataValue, -0.2, -0.012902
DataValue, -0.16, -0.011160000000000002
DataValue, -0.12000000000000001, -0.009543600000000001
DataValue, -0.08, -0.0080544
DataValue, -0.04, -0.0066998000000000005
DataValue, 0, -0.005484
DataValue, 0.04, -0.0043950000000000005
DataValue, 0.08, -0.0034284000000000003
DataValue, 0.12000000000000001, -0.0025848
DataValue, 0.16, -0.0018806
DataValue, 0.2, -0.0013254
DataValue, 0.24000000000000002, -0.0009081400000000001
DataValue, 0.28, -0.00059358
DataValue, 0.32, -0.00035754
DataValue, 0.36000000000000004, -0.00018758000000000002
DataValue, 0.4, -7.3504E-05
DataValue, 0.44, -1.4172000000000002E-06
DataValue, 0.48000000000000004, 3.2446E-05
DataValue, 0.52, 4.64E-05
DataValue, 0.56, 5.2534E-05
DataValue, 0.6, 5.585E-05
DataValue, 0.64, 5.8896E-05
DataValue, 0.68, 6.3742E-05
DataValue, 0.72000000000000008, 7.7304E-05
DataValue, 0.76, 0.000108536
DataValue, 0.8, 0.00017206
DataValue, 0.84000000000000008, 0.0002784
DataValue, 0.88, 0.00042866000000000003
DataValue, 0.92, 0.00061844
DataValue, 0.96000000000000008, 0.00083788
DataValue, 1, 0.0010804
DataValue, 1.04, 0.0013386000000000001
DataValue, 1.08, 0.0016036
DataValue, 1.12, 0.0018666
DataValue, 1.1600000000000001, 0.0021274
DataValue, 1.2, 0.0023808
DataValue, 1.24, 0.0026272
DataValue, 1.28, 0.0028662
DataValue, 1.32, 0.003097
DataValue, 1.36, 0.0033078
DataValue, 1.4000000000000001, 0.0035262
DataValue, 1.4400000000000002, 0.003752
DataValue, 1.48, 0.0039866
DataValue, 1.52, 0.0042584
DataValue, 1.56, 0.0045282000000000005
DataValue, 1.6, 0.0048146000000000005
DataValue, 1.6400000000000001, 0.0051196
DataValue, 1.6800000000000002, 0.0054416
DataValue, 1.72, 0.0057824
DataValue, 1.76, 0.006137
DataValue, 1.8, 0.0065060000000000005
DataValue, 1.84, 0.0068894
DataValue, 1.8800000000000001, 0.007286
DataValue, 1.9200000000000002, 0.0076992
DataValue, 1.9600000000000002, 0.0081286
DataValue, 2, 0.0085764