
SetupTitle, I/V Sweep
PrimitiveTest, I/V Sweep
TestParameter, Context.MainFrame, B1500A
TestParameter, Channel.UnitType, SMU, SMU, SMU, SMU
TestParameter, Channel.Unit, SMU1:HP, SMU2:MP, SMU3:MP, SMU4:MP
TestParameter, Channel.IName, I, IDD1, IDD2, II
TestParameter, Channel.VName, V, VDD1, VDD2, VV
TestParameter, Channel.Mode, V, V, V, V
TestParameter, Channel.Func, VAR1, CONST, CONST, CONST
TestParameter, Channel.Index, 
TestParameter, Channel.Time, 
TestParameter, Measurement.Port.Unit, SMU1:HP, SMU2:MP, SMU3:MP, SMU4:MP
TestParameter, Measurement.Port.SeriesResistor, NONE, NONE, NONE, NONE
TestParameter, Measurement.Port.Filter, ON, ON, ON, ON
TestParameter, Measurement.Port.OutputVoltageComparison, 0, 0, 0, 0
TestParameter, Measurement.Primary.Locus, Single
TestParameter, Measurement.Primary.Scale, LINEAR
TestParameter, Measurement.Primary.Start, -2
TestParameter, Measurement.Primary.Stop, 2
TestParameter, Measurement.Primary.Step, 0.04
TestParameter, Measurement.Primary.Compliance, 0.1
TestParameter, Measurement.Primary.PowerCompliance, 0
TestParameter, Measurement.Aborting.Condition, CONTINUE AT ANY
TestParameter, Measurement.PostOutput.Value, START
TestParameter, Measurement.PostOutput.Retention, OFF
TestParameter, Measurement.Bias.Source, -2, 1.8, 1.1, 0
TestParameter, Measurement.Bias.Compliance, 0.1, 0.1, 0.1, 0.1
TestParameter, Measurement.Monitor.Unit, SMU1:HP, SMU2:MP, SMU3:MP, SMU4:MP
TestParameter, Measurement.Monitor.Adc, HR ADC, HR ADC, HR ADC, HR ADC
TestParameter, Measurement.Monitor.Measurement, Compliance Side, Compliance Side, Compliance Side, Compliance Side
TestParameter, Measurement.Monitor.RangingMode, LIMITED, LIMITED, LIMITED, LIMITED
TestParameter, Measurement.Monitor.RangeBoundary, 1nA, 1nA, 1nA, 1nA
TestParameter, Measurement.Monitor.RangeRating, BY FULL RANGE, BY FULL RANGE, BY FULL RANGE, BY FULL RANGE
TestParameter, Measurement.Monitor.RangeRatingCoeff, 50, 50, 50, 50
TestParameter, Measurement.Timing.Hold, 0
TestParameter, Measurement.Timing.Delay, 0
TestParameter, Measurement.Adc.HighSpeed.Mode, AUTO
TestParameter, Measurement.Adc.HighSpeed.Coeff, 1
TestParameter, Measurement.Adc.HighResolution.AutoZero, OFF
TestParameter, Measurement.Adc.HighResolution.Mode, AUTO
TestParameter, Measurement.Adc.HighResolution.Coeff, 6
TestParameter, Measurement.WaitTime.Source.Coeff, 1
TestParameter, Measurement.WaitTime.Source.Offset, 0
TestParameter, Measurement.WaitTime.Monitor.Coeff, 1
TestParameter, Measurement.WaitTime.Monitor.Offset, 0
TestParameter, Output.Graph.Enabled, true
TestParameter, Output.Graph.AutoScaling, false
TestParameter, Output.Graph.XAxis.Data, V
TestParameter, Output.Graph.XAxis.Scale, Linear
TestParameter, Output.Graph.XAxis.Left, -2
TestParameter, Output.Graph.XAxis.Right, 2
TestParameter, Output.Graph.XAxis.RunTimeAutoScale, true
TestParameter, Output.Graph.YAxis.Data, I
TestParameter, Output.Graph.YAxis.Scale, Linear
TestParameter, Output.Graph.YAxis.Bottom, -0.1
TestParameter, Output.Graph.YAxis.Top, 0.1
TestParameter, Output.Graph.YAxis.Group, 
TestParameter, Output.Graph.YAxis.RunTimeAutoScale, true
TestParameter, AutoAnalysis.Interpolation, false
TestParameter, AutoAnalysis.Var2StepCount, 1
TestParameter, AutoAnalysis.Var2StepScript, 
TestParameter, AutoAnalysis.Line1.Enabled, false
TestParameter, AutoAnalysis.Line1.Type, 1
TestParameter, AutoAnalysis.Line1.Fix, True
TestParameter, AutoAnalysis.Line1.YAxis, 0
TestParameter, AutoAnalysis.Line1.Point1.Type, 0
TestParameter, AutoAnalysis.Line1.Point1.XY.X, 
TestParameter, AutoAnalysis.Line1.Point1.XY.Y, 
TestParameter, AutoAnalysis.Line1.Point1.Data.Var, 
TestParameter, AutoAnalysis.Line1.Point1.Data.Condition, 
TestParameter, AutoAnalysis.Line1.Point1.Data.Start, false
TestParameter, AutoAnalysis.Line1.Point1.Data.StartVar, 
TestParameter, AutoAnalysis.Line1.Point1.Data.StartCondition, 
TestParameter, AutoAnalysis.Line1.Point2.Type, 0
TestParameter, AutoAnalysis.Line1.Point2.XY.X, 
TestParameter, AutoAnalysis.Line1.Point2.XY.Y, 
TestParameter, AutoAnalysis.Line1.Point2.Data.Var, 
TestParameter, AutoAnalysis.Line1.Point2.Data.Condition, 
TestParameter, AutoAnalysis.Line1.Point2.Data.Start, false
TestParameter, AutoAnalysis.Line1.Point2.Data.StartVar, 
TestParameter, AutoAnalysis.Line1.Point2.Data.StartCondition, 
TestParameter, AutoAnalysis.Line1.GradientExpr, 0
TestParameter, AutoAnalysis.Line2.Enabled, false
TestParameter, AutoAnalysis.Line2.Type, 1
TestParameter, AutoAnalysis.Line2.Fix, True
TestParameter, AutoAnalysis.Line2.YAxis, 0
TestParameter, AutoAnalysis.Line2.Point1.Type, 0
TestParameter, AutoAnalysis.Line2.Point1.XY.X, 
TestParameter, AutoAnalysis.Line2.Point1.XY.Y, 
TestParameter, AutoAnalysis.Line2.Point1.Data.Var, 
TestParameter, AutoAnalysis.Line2.Point1.Data.Condition, 
TestParameter, AutoAnalysis.Line2.Point1.Data.Start, false
TestParameter, AutoAnalysis.Line2.Point1.Data.StartVar, 
TestParameter, AutoAnalysis.Line2.Point1.Data.StartCondition, 
TestParameter, AutoAnalysis.Line2.Point2.Type, 0
TestParameter, AutoAnalysis.Line2.Point2.XY.X, 
TestParameter, AutoAnalysis.Line2.Point2.XY.Y, 
TestParameter, AutoAnalysis.Line2.Point2.Data.Var, 
TestParameter, AutoAnalysis.Line2.Point2.Data.Condition, 
TestParameter, AutoAnalysis.Line2.Point2.Data.Start, false
TestParameter, AutoAnalysis.Line2.Point2.Data.StartVar, 
TestParameter, AutoAnalysis.Line2.Point2.Data.StartCondition, 
TestParameter, AutoAnalysis.Line2.GradientExpr, 0
TestParameter, AutoAnalysis.Marker.Enabled, false
TestParameter, AutoAnalysis.Marker.Data.Var, 
TestParameter, AutoAnalysis.Marker.Data.Condition, 
TestParameter, AutoAnalysis.Marker.Data.Start, false
TestParameter, AutoAnalysis.Marker.Data.StartVar, 
TestParameter, AutoAnalysis.Marker.Data.StartCondition, 
MetaData, TestRecord.EntryPoint, true
MetaData, TestRecord.RecordTime, 10/19/2022 15:27:04
MetaData, TestRecord.TestTarget, 
MetaData, TestRecord.IterationIndex, 58
MetaData, TestRecord.Preservation, true
MetaData, TestRecord.Flag, 
MetaData, TestRecord.Remarks, 
MetaData, TestRecord.LinkKey, 0cf1c22f-6e6f-4812-a483-ddc3f773ed06
MetaData, TestRecord.Parameters, 
Dimension1, 101, 101
Dimension2, 1, 1
DataName, V, I
DataValue, -2, -0.023240000000000004
DataValue, -1.9600000000000002, -0.022356
DataValue, -1.9200000000000002, -0.021392
DataValue, -1.8800000000000001, -0.020616000000000002
DataValue, -1.84, -0.019918
DataValue, -1.8, -0.019214000000000002
DataValue, -1.76, -0.018374
DataValue, -1.72, -0.017614
DataValue, -1.6800000000000002, -0.016846
DataValue, -1.6400000000000001, -0.016088
DataValue, -1.6, -0.015340000000000001
DataValue, -1.56, -0.014638000000000002
DataValue, -1.52, -0.013926000000000001
DataValue, -1.48, -0.013186000000000002
DataValue, -1.4400000000000002, -0.01246
DataValue, -1.4000000000000001, -0.011760000000000001
DataValue, -1.36, -0.011046
DataValue, -1.32, -0.010342
DataValue, -1.28, -0.009661
DataValue, -1.24, -0.0089626
DataValue, -1.2, -0.008283200000000001
DataValue, -1.1600000000000001, -0.0076042
DataValue, -1.12, -0.0069398
DataValue, -1.08, -0.0062902
DataValue, -1.04, -0.0056594
DataValue, -1, -0.0050456
DataValue, -0.96000000000000008, -0.004457
DataValue, -0.92, -0.0038976
DataValue, -0.88, -0.0033756
DataValue, -0.84000000000000008, -0.0028948
DataValue, -0.8, -0.0024568
DataValue, -0.76, -0.0020618
DataValue, -0.72000000000000008, -0.0017178
DataValue, -0.68, -0.0014186000000000001
DataValue, -0.64, -0.0011538
DataValue, -0.6, -0.0009359800000000001
DataValue, -0.56, -0.00076568
DataValue, -0.52, -0.00063152
DataValue, -0.48000000000000004, -0.00051994
DataValue, -0.44, -0.00042074
DataValue, -0.4, -0.00032920000000000003
DataValue, -0.36000000000000004, -0.00024450000000000003
DataValue, -0.32, -0.00016706000000000002
DataValue, -0.28, -9.8860000000000012E-05
DataValue, -0.24000000000000002, -4.4886000000000004E-05
DataValue, -0.2, -8.3371E-06
DataValue, -0.16, 9.928E-06
DataValue, -0.12000000000000001, 1.813E-05
DataValue, -0.08, 1.9424E-05
DataValue, -0.04, 2.0118E-05
DataValue, 0, 2.0714000000000002E-05
DataValue, 0.04, 2.0566E-05
DataValue, 0.08, 2.0932000000000002E-05
DataValue, 0.12000000000000001, 2.103E-05
DataValue, 0.16, 2.1072E-05
DataValue, 0.2, 2.1114E-05
DataValue, 0.24000000000000002, 2.1884E-05
DataValue, 0.28, 2.1464E-05
DataValue, 0.32, 2.1254E-05
DataValue, 0.36000000000000004, 2.184E-05
DataValue, 0.4, 2.1502000000000002E-05
DataValue, 0.44, 2.1602E-05
DataValue, 0.48000000000000004, 2.2138E-05
DataValue, 0.52, 2.1744E-05
DataValue, 0.56, 2.1872E-05
DataValue, 0.6, 2.2436E-05
DataValue, 0.64, 2.2306E-05
DataValue, 0.68, 2.243E-05
DataValue, 0.72000000000000008, 2.2782E-05
DataValue, 0.76, 2.2734E-05
DataValue, 0.8, 2.2996E-05
DataValue, 0.84000000000000008, 2.3206E-05
DataValue, 0.88, 2.345E-05
DataValue, 0.92, 2.4172E-05
DataValue, 0.96000000000000008, 2.6276E-05
DataValue, 1, 3.2162E-05
DataValue, 1.04, 4.6312E-05
DataValue, 1.08, 7.5224E-05
DataValue, 1.12, 0.00012416
DataValue, 1.1600000000000001, 0.00019846000000000002
DataValue, 1.2, 0.00029590000000000004
DataValue, 1.24, 0.00041150000000000003
DataValue, 1.28, 0.0005362
DataValue, 1.32, 0.00066382000000000008
DataValue, 1.36, 0.00078868
DataValue, 1.4000000000000001, 0.0009095
DataValue, 1.4400000000000002, 0.00102818
DataValue, 1.48, 0.0011412800000000002
DataValue, 1.52, 0.0012532
DataValue, 1.56, 0.0013628
DataValue, 1.6, 0.0014716
DataValue, 1.6400000000000001, 0.0015794000000000001
DataValue, 1.6800000000000002, 0.001686
DataValue, 1.72, 0.0017918
DataValue, 1.76, 0.0018978
DataValue, 1.8, 0.0020032
DataValue, 1.84, 0.002109
DataValue, 1.8800000000000001, 0.0022154
DataValue, 1.9200000000000002, 0.0023214
DataValue, 1.9600000000000002, 0.0024272
DataValue, 2, 0.0025332