
SetupTitle, I/V Sweep
PrimitiveTest, I/V Sweep
TestParameter, Context.MainFrame, B1500A
TestParameter, Channel.UnitType, SMU, SMU, SMU, SMU
TestParameter, Channel.Unit, SMU1:HP, SMU2:MP, SMU3:MP, SMU4:MP
TestParameter, Channel.IName, I, IDD1, IDD2, II
TestParameter, Channel.VName, V, VDD1, VDD2, VV
TestParameter, Channel.Mode, V, V, V, V
TestParameter, Channel.Func, VAR1, CONST, CONST, CONST
TestParameter, Channel.Index, 
TestParameter, Channel.Time, 
TestParameter, Measurement.Port.Unit, SMU1:HP, SMU2:MP, SMU3:MP, SMU4:MP
TestParameter, Measurement.Port.SeriesResistor, NONE, NONE, NONE, NONE
TestParameter, Measurement.Port.Filter, ON, ON, ON, ON
TestParameter, Measurement.Port.OutputVoltageComparison, 0, 0, 0, 0
TestParameter, Measurement.Primary.Locus, Single
TestParameter, Measurement.Primary.Scale, LINEAR
TestParameter, Measurement.Primary.Start, -2
TestParameter, Measurement.Primary.Stop, 2
TestParameter, Measurement.Primary.Step, 0.04
TestParameter, Measurement.Primary.Compliance, 0.1
TestParameter, Measurement.Primary.PowerCompliance, 0
TestParameter, Measurement.Aborting.Condition, CONTINUE AT ANY
TestParameter, Measurement.PostOutput.Value, START
TestParameter, Measurement.PostOutput.Retention, OFF
TestParameter, Measurement.Bias.Source, -2, 1.8, 1.1, 0
TestParameter, Measurement.Bias.Compliance, 0.1, 0.1, 0.1, 0.1
TestParameter, Measurement.Monitor.Unit, SMU1:HP, SMU2:MP, SMU3:MP, SMU4:MP
TestParameter, Measurement.Monitor.Adc, HR ADC, HR ADC, HR ADC, HR ADC
TestParameter, Measurement.Monitor.Measurement, Compliance Side, Compliance Side, Compliance Side, Compliance Side
TestParameter, Measurement.Monitor.RangingMode, LIMITED, LIMITED, LIMITED, LIMITED
TestParameter, Measurement.Monitor.RangeBoundary, 1nA, 1nA, 1nA, 1nA
TestParameter, Measurement.Monitor.RangeRating, BY FULL RANGE, BY FULL RANGE, BY FULL RANGE, BY FULL RANGE
TestParameter, Measurement.Monitor.RangeRatingCoeff, 50, 50, 50, 50
TestParameter, Measurement.Timing.Hold, 0
TestParameter, Measurement.Timing.Delay, 0
TestParameter, Measurement.Adc.HighSpeed.Mode, AUTO
TestParameter, Measurement.Adc.HighSpeed.Coeff, 1
TestParameter, Measurement.Adc.HighResolution.AutoZero, OFF
TestParameter, Measurement.Adc.HighResolution.Mode, AUTO
TestParameter, Measurement.Adc.HighResolution.Coeff, 6
TestParameter, Measurement.WaitTime.Source.Coeff, 1
TestParameter, Measurement.WaitTime.Source.Offset, 0
TestParameter, Measurement.WaitTime.Monitor.Coeff, 1
TestParameter, Measurement.WaitTime.Monitor.Offset, 0
TestParameter, Output.Graph.Enabled, true
TestParameter, Output.Graph.AutoScaling, false
TestParameter, Output.Graph.XAxis.Data, V
TestParameter, Output.Graph.XAxis.Scale, Linear
TestParameter, Output.Graph.XAxis.Left, -2
TestParameter, Output.Graph.XAxis.Right, 2
TestParameter, Output.Graph.XAxis.RunTimeAutoScale, true
TestParameter, Output.Graph.YAxis.Data, I
TestParameter, Output.Graph.YAxis.Scale, Linear
TestParameter, Output.Graph.YAxis.Bottom, -0.1
TestParameter, Output.Graph.YAxis.Top, 0.1
TestParameter, Output.Graph.YAxis.Group, 
TestParameter, Output.Graph.YAxis.RunTimeAutoScale, true
TestParameter, AutoAnalysis.Interpolation, false
TestParameter, AutoAnalysis.Var2StepCount, 1
TestParameter, AutoAnalysis.Var2StepScript, 
TestParameter, AutoAnalysis.Line1.Enabled, false
TestParameter, AutoAnalysis.Line1.Type, 1
TestParameter, AutoAnalysis.Line1.Fix, True
TestParameter, AutoAnalysis.Line1.YAxis, 0
TestParameter, AutoAnalysis.Line1.Point1.Type, 0
TestParameter, AutoAnalysis.Line1.Point1.XY.X, 
TestParameter, AutoAnalysis.Line1.Point1.XY.Y, 
TestParameter, AutoAnalysis.Line1.Point1.Data.Var, 
TestParameter, AutoAnalysis.Line1.Point1.Data.Condition, 
TestParameter, AutoAnalysis.Line1.Point1.Data.Start, false
TestParameter, AutoAnalysis.Line1.Point1.Data.StartVar, 
TestParameter, AutoAnalysis.Line1.Point1.Data.StartCondition, 
TestParameter, AutoAnalysis.Line1.Point2.Type, 0
TestParameter, AutoAnalysis.Line1.Point2.XY.X, 
TestParameter, AutoAnalysis.Line1.Point2.XY.Y, 
TestParameter, AutoAnalysis.Line1.Point2.Data.Var, 
TestParameter, AutoAnalysis.Line1.Point2.Data.Condition, 
TestParameter, AutoAnalysis.Line1.Point2.Data.Start, false
TestParameter, AutoAnalysis.Line1.Point2.Data.StartVar, 
TestParameter, AutoAnalysis.Line1.Point2.Data.StartCondition, 
TestParameter, AutoAnalysis.Line1.GradientExpr, 0
TestParameter, AutoAnalysis.Line2.Enabled, false
TestParameter, AutoAnalysis.Line2.Type, 1
TestParameter, AutoAnalysis.Line2.Fix, True
TestParameter, AutoAnalysis.Line2.YAxis, 0
TestParameter, AutoAnalysis.Line2.Point1.Type, 0
TestParameter, AutoAnalysis.Line2.Point1.XY.X, 
TestParameter, AutoAnalysis.Line2.Point1.XY.Y, 
TestParameter, AutoAnalysis.Line2.Point1.Data.Var, 
TestParameter, AutoAnalysis.Line2.Point1.Data.Condition, 
TestParameter, AutoAnalysis.Line2.Point1.Data.Start, false
TestParameter, AutoAnalysis.Line2.Point1.Data.StartVar, 
TestParameter, AutoAnalysis.Line2.Point1.Data.StartCondition, 
TestParameter, AutoAnalysis.Line2.Point2.Type, 0
TestParameter, AutoAnalysis.Line2.Point2.XY.X, 
TestParameter, AutoAnalysis.Line2.Point2.XY.Y, 
TestParameter, AutoAnalysis.Line2.Point2.Data.Var, 
TestParameter, AutoAnalysis.Line2.Point2.Data.Condition, 
TestParameter, AutoAnalysis.Line2.Point2.Data.Start, false
TestParameter, AutoAnalysis.Line2.Point2.Data.StartVar, 
TestParameter, AutoAnalysis.Line2.Point2.Data.StartCondition, 
TestParameter, AutoAnalysis.Line2.GradientExpr, 0
TestParameter, AutoAnalysis.Marker.Enabled, false
TestParameter, AutoAnalysis.Marker.Data.Var, 
TestParameter, AutoAnalysis.Marker.Data.Condition, 
TestParameter, AutoAnalysis.Marker.Data.Start, false
TestParameter, AutoAnalysis.Marker.Data.StartVar, 
TestParameter, AutoAnalysis.Marker.Data.StartCondition, 
MetaData, TestRecord.EntryPoint, true
MetaData, TestRecord.RecordTime, 10/19/2022 15:29:04
MetaData, TestRecord.TestTarget, 
MetaData, TestRecord.IterationIndex, 65
MetaData, TestRecord.Preservation, true
MetaData, TestRecord.Flag, 
MetaData, TestRecord.Remarks, 
MetaData, TestRecord.LinkKey, a39d2f4c-0f10-4194-af59-3623efd81d32
MetaData, TestRecord.Parameters, 
Dimension1, 101, 101
Dimension2, 1, 1
DataName, V, I
DataValue, -2, -0.089828
DataValue, -1.9600000000000002, -0.08705800000000001
DataValue, -1.9200000000000002, -0.08429
DataValue, -1.8800000000000001, -0.081508000000000011
DataValue, -1.84, -0.078760000000000011
DataValue, -1.8, -0.075972000000000012
DataValue, -1.76, -0.073174
DataValue, -1.72, -0.070346
DataValue, -1.6800000000000002, -0.067526
DataValue, -1.6400000000000001, -0.064674000000000009
DataValue, -1.6, -0.061820000000000007
DataValue, -1.56, -0.058948000000000007
DataValue, -1.52, -0.056072000000000004
DataValue, -1.48, -0.053182000000000007
DataValue, -1.4400000000000002, -0.050296000000000007
DataValue, -1.4000000000000001, -0.047418
DataValue, -1.36, -0.044538
DataValue, -1.32, -0.041664000000000007
DataValue, -1.28, -0.038790000000000005
DataValue, -1.24, -0.035942
DataValue, -1.2, -0.03311
DataValue, -1.1600000000000001, -0.030304
DataValue, -1.12, -0.027522
DataValue, -1.08, -0.024782000000000002
DataValue, -1.04, -0.0221
DataValue, -1, -0.019476
DataValue, -0.96000000000000008, -0.016934
DataValue, -0.92, -0.014484000000000002
DataValue, -0.88, -0.01216
DataValue, -0.84000000000000008, -0.0100092
DataValue, -0.8, -0.0079764
DataValue, -0.76, -0.0061796
DataValue, -0.72000000000000008, -0.0046338
DataValue, -0.68, -0.0033486
DataValue, -0.64, -0.0023532
DataValue, -0.6, -0.0016344
DataValue, -0.56, -0.0011426000000000001
DataValue, -0.52, -0.00081892
DataValue, -0.48000000000000004, -0.00059640000000000008
DataValue, -0.44, -0.00042252
DataValue, -0.4, -0.0002812
DataValue, -0.36000000000000004, -0.0001666
DataValue, -0.32, -8.2412E-05
DataValue, -0.28, -3.196E-05
DataValue, -0.24000000000000002, -9.694900000000001E-06
DataValue, -0.2, -2.4856000000000004E-06
DataValue, -0.16, -5.774E-07
DataValue, -0.12000000000000001, -1.2741999999999999E-07
DataValue, -0.08, -2.7032799999999997E-08
DataValue, -0.04, -4.9845E-09
DataValue, 0, -1.683E-11
DataValue, 0.04, 1.9532E-09
DataValue, 0.08, 5.5511E-09
DataValue, 0.12000000000000001, 2.03214E-08
DataValue, 0.16, 8.4973799999999993E-08
DataValue, 0.2, 3.739E-07
DataValue, 0.24000000000000002, 1.6543000000000002E-06
DataValue, 0.28, 7.2035000000000006E-06
DataValue, 0.32, 2.9776E-05
DataValue, 0.36000000000000004, 0.000110588
DataValue, 0.4, 0.00032758
DataValue, 0.44, 0.00073314000000000007
DataValue, 0.48000000000000004, 0.0012994
DataValue, 0.52, 0.0019334
DataValue, 0.56, 0.0025164000000000002
DataValue, 0.6, 0.0029432
DataValue, 0.64, 0.0039494000000000005
DataValue, 0.68, 0.0040642000000000005
DataValue, 0.72000000000000008, 0.004397
DataValue, 0.76, 0.00478
DataValue, 0.8, 0.0048118
DataValue, 0.84000000000000008, 0.0053366
DataValue, 0.88, 0.0059614
DataValue, 0.92, 0.0066502
DataValue, 0.96000000000000008, 0.0074386
DataValue, 1, 0.0083362
DataValue, 1.04, 0.0093418
DataValue, 1.08, 0.010443000000000001
DataValue, 1.12, 0.011632000000000002
DataValue, 1.1600000000000001, 0.012896000000000001
DataValue, 1.2, 0.014218000000000002
DataValue, 1.24, 0.015602000000000001
DataValue, 1.28, 0.01703
DataValue, 1.32, 0.018500000000000003
DataValue, 1.36, 0.020006000000000003
DataValue, 1.4000000000000001, 0.021546000000000003
DataValue, 1.4400000000000002, 0.023106
DataValue, 1.48, 0.024698
DataValue, 1.52, 0.026312000000000002
DataValue, 1.56, 0.027946000000000002
DataValue, 1.6, 0.029596000000000004
DataValue, 1.6400000000000001, 0.031266
DataValue, 1.6800000000000002, 0.032944
DataValue, 1.72, 0.034642000000000006
DataValue, 1.76, 0.036366
DataValue, 1.8, 0.038088000000000004
DataValue, 1.84, 0.039818000000000006
DataValue, 1.8800000000000001, 0.041556
DataValue, 1.9200000000000002, 0.043302000000000007
DataValue, 1.9600000000000002, 0.045124000000000004
DataValue, 2, 0.046876