
SetupTitle, I/V Sweep
PrimitiveTest, I/V Sweep
TestParameter, Context.MainFrame, B1500A
TestParameter, Channel.UnitType, SMU, SMU, SMU, SMU
TestParameter, Channel.Unit, SMU1:HP, SMU2:MP, SMU3:MP, SMU4:MP
TestParameter, Channel.IName, I, IDD1, IDD2, II
TestParameter, Channel.VName, V, VDD1, VDD2, VV
TestParameter, Channel.Mode, V, V, V, V
TestParameter, Channel.Func, VAR1, CONST, CONST, CONST
TestParameter, Channel.Index, 
TestParameter, Channel.Time, 
TestParameter, Measurement.Port.Unit, SMU1:HP, SMU2:MP, SMU3:MP, SMU4:MP
TestParameter, Measurement.Port.SeriesResistor, NONE, NONE, NONE, NONE
TestParameter, Measurement.Port.Filter, ON, ON, ON, ON
TestParameter, Measurement.Port.OutputVoltageComparison, 0, 0, 0, 0
TestParameter, Measurement.Primary.Locus, Single
TestParameter, Measurement.Primary.Scale, LINEAR
TestParameter, Measurement.Primary.Start, -2
TestParameter, Measurement.Primary.Stop, 2
TestParameter, Measurement.Primary.Step, 0.04
TestParameter, Measurement.Primary.Compliance, 0.1
TestParameter, Measurement.Primary.PowerCompliance, 0
TestParameter, Measurement.Aborting.Condition, CONTINUE AT ANY
TestParameter, Measurement.PostOutput.Value, START
TestParameter, Measurement.PostOutput.Retention, OFF
TestParameter, Measurement.Bias.Source, -2, 1.8, 1.1, 0
TestParameter, Measurement.Bias.Compliance, 0.1, 0.1, 0.1, 0.1
TestParameter, Measurement.Monitor.Unit, SMU1:HP, SMU2:MP, SMU3:MP, SMU4:MP
TestParameter, Measurement.Monitor.Adc, HR ADC, HR ADC, HR ADC, HR ADC
TestParameter, Measurement.Monitor.Measurement, Compliance Side, Compliance Side, Compliance Side, Compliance Side
TestParameter, Measurement.Monitor.RangingMode, LIMITED, LIMITED, LIMITED, LIMITED
TestParameter, Measurement.Monitor.RangeBoundary, 1nA, 1nA, 1nA, 1nA
TestParameter, Measurement.Monitor.RangeRating, BY FULL RANGE, BY FULL RANGE, BY FULL RANGE, BY FULL RANGE
TestParameter, Measurement.Monitor.RangeRatingCoeff, 50, 50, 50, 50
TestParameter, Measurement.Timing.Hold, 0
TestParameter, Measurement.Timing.Delay, 0
TestParameter, Measurement.Adc.HighSpeed.Mode, AUTO
TestParameter, Measurement.Adc.HighSpeed.Coeff, 1
TestParameter, Measurement.Adc.HighResolution.AutoZero, OFF
TestParameter, Measurement.Adc.HighResolution.Mode, AUTO
TestParameter, Measurement.Adc.HighResolution.Coeff, 6
TestParameter, Measurement.WaitTime.Source.Coeff, 1
TestParameter, Measurement.WaitTime.Source.Offset, 0
TestParameter, Measurement.WaitTime.Monitor.Coeff, 1
TestParameter, Measurement.WaitTime.Monitor.Offset, 0
TestParameter, Output.Graph.Enabled, true
TestParameter, Output.Graph.AutoScaling, false
TestParameter, Output.Graph.XAxis.Data, V
TestParameter, Output.Graph.XAxis.Scale, Linear
TestParameter, Output.Graph.XAxis.Left, -2
TestParameter, Output.Graph.XAxis.Right, 2
TestParameter, Output.Graph.XAxis.RunTimeAutoScale, true
TestParameter, Output.Graph.YAxis.Data, I
TestParameter, Output.Graph.YAxis.Scale, Linear
TestParameter, Output.Graph.YAxis.Bottom, -0.1
TestParameter, Output.Graph.YAxis.Top, 0.1
TestParameter, Output.Graph.YAxis.Group, 
TestParameter, Output.Graph.YAxis.RunTimeAutoScale, true
TestParameter, AutoAnalysis.Interpolation, false
TestParameter, AutoAnalysis.Var2StepCount, 1
TestParameter, AutoAnalysis.Var2StepScript, 
TestParameter, AutoAnalysis.Line1.Enabled, false
TestParameter, AutoAnalysis.Line1.Type, 1
TestParameter, AutoAnalysis.Line1.Fix, True
TestParameter, AutoAnalysis.Line1.YAxis, 0
TestParameter, AutoAnalysis.Line1.Point1.Type, 0
TestParameter, AutoAnalysis.Line1.Point1.XY.X, 
TestParameter, AutoAnalysis.Line1.Point1.XY.Y, 
TestParameter, AutoAnalysis.Line1.Point1.Data.Var, 
TestParameter, AutoAnalysis.Line1.Point1.Data.Condition, 
TestParameter, AutoAnalysis.Line1.Point1.Data.Start, false
TestParameter, AutoAnalysis.Line1.Point1.Data.StartVar, 
TestParameter, AutoAnalysis.Line1.Point1.Data.StartCondition, 
TestParameter, AutoAnalysis.Line1.Point2.Type, 0
TestParameter, AutoAnalysis.Line1.Point2.XY.X, 
TestParameter, AutoAnalysis.Line1.Point2.XY.Y, 
TestParameter, AutoAnalysis.Line1.Point2.Data.Var, 
TestParameter, AutoAnalysis.Line1.Point2.Data.Condition, 
TestParameter, AutoAnalysis.Line1.Point2.Data.Start, false
TestParameter, AutoAnalysis.Line1.Point2.Data.StartVar, 
TestParameter, AutoAnalysis.Line1.Point2.Data.StartCondition, 
TestParameter, AutoAnalysis.Line1.GradientExpr, 0
TestParameter, AutoAnalysis.Line2.Enabled, false
TestParameter, AutoAnalysis.Line2.Type, 1
TestParameter, AutoAnalysis.Line2.Fix, True
TestParameter, AutoAnalysis.Line2.YAxis, 0
TestParameter, AutoAnalysis.Line2.Point1.Type, 0
TestParameter, AutoAnalysis.Line2.Point1.XY.X, 
TestParameter, AutoAnalysis.Line2.Point1.XY.Y, 
TestParameter, AutoAnalysis.Line2.Point1.Data.Var, 
TestParameter, AutoAnalysis.Line2.Point1.Data.Condition, 
TestParameter, AutoAnalysis.Line2.Point1.Data.Start, false
TestParameter, AutoAnalysis.Line2.Point1.Data.StartVar, 
TestParameter, AutoAnalysis.Line2.Point1.Data.StartCondition, 
TestParameter, AutoAnalysis.Line2.Point2.Type, 0
TestParameter, AutoAnalysis.Line2.Point2.XY.X, 
TestParameter, AutoAnalysis.Line2.Point2.XY.Y, 
TestParameter, AutoAnalysis.Line2.Point2.Data.Var, 
TestParameter, AutoAnalysis.Line2.Point2.Data.Condition, 
TestParameter, AutoAnalysis.Line2.Point2.Data.Start, false
TestParameter, AutoAnalysis.Line2.Point2.Data.StartVar, 
TestParameter, AutoAnalysis.Line2.Point2.Data.StartCondition, 
TestParameter, AutoAnalysis.Line2.GradientExpr, 0
TestParameter, AutoAnalysis.Marker.Enabled, false
TestParameter, AutoAnalysis.Marker.Data.Var, 
TestParameter, AutoAnalysis.Marker.Data.Condition, 
TestParameter, AutoAnalysis.Marker.Data.Start, false
TestParameter, AutoAnalysis.Marker.Data.StartVar, 
TestParameter, AutoAnalysis.Marker.Data.StartCondition, 
MetaData, TestRecord.EntryPoint, true
MetaData, TestRecord.RecordTime, 10/19/2022 15:40:46
MetaData, TestRecord.TestTarget, 
MetaData, TestRecord.IterationIndex, 83
MetaData, TestRecord.Preservation, true
MetaData, TestRecord.Flag, 
MetaData, TestRecord.Remarks, 
MetaData, TestRecord.LinkKey, 6ad57efc-2400-4b04-ac6e-c1e3e18377a5
MetaData, TestRecord.Parameters, 
Dimension1, 101, 101
Dimension2, 1, 1
DataName, V, I
DataValue, -2, -0.056318000000000007
DataValue, -1.9600000000000002, -0.054862000000000008
DataValue, -1.9200000000000002, -0.053470000000000004
DataValue, -1.8800000000000001, -0.052306000000000005
DataValue, -1.84, -0.051422
DataValue, -1.8, -0.050452000000000004
DataValue, -1.76, -0.049350000000000005
DataValue, -1.72, -0.048328
DataValue, -1.6800000000000002, -0.04723
DataValue, -1.6400000000000001, -0.04617
DataValue, -1.6, -0.045056000000000006
DataValue, -1.56, -0.044000000000000004
DataValue, -1.52, -0.042886
DataValue, -1.48, -0.041802000000000006
DataValue, -1.4400000000000002, -0.040684000000000005
DataValue, -1.4000000000000001, -0.039614
DataValue, -1.36, -0.038498000000000004
DataValue, -1.32, -0.037392
DataValue, -1.28, -0.036282
DataValue, -1.24, -0.035172
DataValue, -1.2, -0.034042
DataValue, -1.1600000000000001, -0.032940000000000004
DataValue, -1.12, -0.031816000000000004
DataValue, -1.08, -0.030704000000000002
DataValue, -1.04, -0.029566000000000002
DataValue, -1, -0.028450000000000003
DataValue, -0.96000000000000008, -0.027324
DataValue, -0.92, -0.026198000000000003
DataValue, -0.88, -0.025066
DataValue, -0.84000000000000008, -0.023948
DataValue, -0.8, -0.022812000000000002
DataValue, -0.76, -0.021688000000000002
DataValue, -0.72000000000000008, -0.020548
DataValue, -0.68, -0.019426000000000002
DataValue, -0.64, -0.018296000000000003
DataValue, -0.6, -0.017164000000000002
DataValue, -0.56, -0.016034000000000003
DataValue, -0.52, -0.014900000000000002
DataValue, -0.48000000000000004, -0.013760000000000001
DataValue, -0.44, -0.012628
DataValue, -0.4, -0.011492
DataValue, -0.36000000000000004, -0.010354
DataValue, -0.32, -0.0092206
DataValue, -0.28, -0.0080766
DataValue, -0.24000000000000002, -0.0069316000000000004
DataValue, -0.2, -0.0057842
DataValue, -0.16, -0.0046352
DataValue, -0.12000000000000001, -0.0034822
DataValue, -0.08, -0.002326
DataValue, -0.04, -0.001168
DataValue, 0, -7.6123000000000008E-06
DataValue, 0.04, 0.0011568
DataValue, 0.08, 0.0023228
DataValue, 0.12000000000000001, 0.0034928
DataValue, 0.16, 0.0046628
DataValue, 0.2, 0.005837
DataValue, 0.24000000000000002, 0.0070122000000000006
DataValue, 0.28, 0.0081888
DataValue, 0.32, 0.0093668
DataValue, 0.36000000000000004, 0.0105446
DataValue, 0.4, 0.011732000000000001
DataValue, 0.44, 0.012914000000000002
DataValue, 0.48000000000000004, 0.014102000000000002
DataValue, 0.52, 0.015278000000000002
DataValue, 0.56, 0.016456000000000002
DataValue, 0.6, 0.017640000000000003
DataValue, 0.64, 0.018826000000000002
DataValue, 0.68, 0.020002000000000002
DataValue, 0.72000000000000008, 0.021188000000000002
DataValue, 0.76, 0.02237
DataValue, 0.8, 0.023548000000000003
DataValue, 0.84000000000000008, 0.024722
DataValue, 0.88, 0.025902
DataValue, 0.92, 0.027086000000000002
DataValue, 0.96000000000000008, 0.028256000000000003
DataValue, 1, 0.029438000000000002
DataValue, 1.04, 0.030618000000000003
DataValue, 1.08, 0.031812
DataValue, 1.12, 0.032998
DataValue, 1.1600000000000001, 0.034178
DataValue, 1.2, 0.035386
DataValue, 1.24, 0.036568
DataValue, 1.28, 0.037792000000000006
DataValue, 1.32, 0.039026000000000005
DataValue, 1.36, 0.040272
DataValue, 1.4000000000000001, 0.041528
DataValue, 1.4400000000000002, 0.042846
DataValue, 1.48, 0.044184
DataValue, 1.52, 0.045558
DataValue, 1.56, 0.046926
DataValue, 1.6, 0.048324000000000006
DataValue, 1.6400000000000001, 0.049708
DataValue, 1.6800000000000002, 0.052136
DataValue, 1.72, 0.054454
DataValue, 1.76, 0.056580000000000005
DataValue, 1.8, 0.058756
DataValue, 1.84, 0.060972000000000005
DataValue, 1.8800000000000001, 0.063404
DataValue, 1.9200000000000002, 0.065912000000000012
DataValue, 1.9600000000000002, 0.068258
DataValue, 2, 0.070696000000000009