
SetupTitle, I/V Sweep
PrimitiveTest, I/V Sweep
TestParameter, Context.MainFrame, B1500A
TestParameter, Channel.UnitType, SMU, SMU, SMU, SMU
TestParameter, Channel.Unit, SMU1:HP, SMU2:MP, SMU3:MP, SMU4:MP
TestParameter, Channel.IName, I, IDD1, IDD2, II
TestParameter, Channel.VName, V, VDD1, VDD2, VV
TestParameter, Channel.Mode, V, V, V, V
TestParameter, Channel.Func, VAR1, CONST, CONST, CONST
TestParameter, Channel.Index, 
TestParameter, Channel.Time, 
TestParameter, Measurement.Port.Unit, SMU1:HP, SMU2:MP, SMU3:MP, SMU4:MP
TestParameter, Measurement.Port.SeriesResistor, NONE, NONE, NONE, NONE
TestParameter, Measurement.Port.Filter, ON, ON, ON, ON
TestParameter, Measurement.Port.OutputVoltageComparison, 0, 0, 0, 0
TestParameter, Measurement.Primary.Locus, Single
TestParameter, Measurement.Primary.Scale, LINEAR
TestParameter, Measurement.Primary.Start, -2
TestParameter, Measurement.Primary.Stop, 2
TestParameter, Measurement.Primary.Step, 0.04
TestParameter, Measurement.Primary.Compliance, 0.1
TestParameter, Measurement.Primary.PowerCompliance, 0
TestParameter, Measurement.Aborting.Condition, CONTINUE AT ANY
TestParameter, Measurement.PostOutput.Value, START
TestParameter, Measurement.PostOutput.Retention, OFF
TestParameter, Measurement.Bias.Source, -2, 1.8, 1.1, 0
TestParameter, Measurement.Bias.Compliance, 0.1, 0.1, 0.1, 0.1
TestParameter, Measurement.Monitor.Unit, SMU1:HP, SMU2:MP, SMU3:MP, SMU4:MP
TestParameter, Measurement.Monitor.Adc, HR ADC, HR ADC, HR ADC, HR ADC
TestParameter, Measurement.Monitor.Measurement, Compliance Side, Compliance Side, Compliance Side, Compliance Side
TestParameter, Measurement.Monitor.RangingMode, LIMITED, LIMITED, LIMITED, LIMITED
TestParameter, Measurement.Monitor.RangeBoundary, 1nA, 1nA, 1nA, 1nA
TestParameter, Measurement.Monitor.RangeRating, BY FULL RANGE, BY FULL RANGE, BY FULL RANGE, BY FULL RANGE
TestParameter, Measurement.Monitor.RangeRatingCoeff, 50, 50, 50, 50
TestParameter, Measurement.Timing.Hold, 0
TestParameter, Measurement.Timing.Delay, 0
TestParameter, Measurement.Adc.HighSpeed.Mode, AUTO
TestParameter, Measurement.Adc.HighSpeed.Coeff, 1
TestParameter, Measurement.Adc.HighResolution.AutoZero, OFF
TestParameter, Measurement.Adc.HighResolution.Mode, AUTO
TestParameter, Measurement.Adc.HighResolution.Coeff, 6
TestParameter, Measurement.WaitTime.Source.Coeff, 1
TestParameter, Measurement.WaitTime.Source.Offset, 0
TestParameter, Measurement.WaitTime.Monitor.Coeff, 1
TestParameter, Measurement.WaitTime.Monitor.Offset, 0
TestParameter, Output.Graph.Enabled, true
TestParameter, Output.Graph.AutoScaling, false
TestParameter, Output.Graph.XAxis.Data, V
TestParameter, Output.Graph.XAxis.Scale, Linear
TestParameter, Output.Graph.XAxis.Left, -2
TestParameter, Output.Graph.XAxis.Right, 2
TestParameter, Output.Graph.XAxis.RunTimeAutoScale, true
TestParameter, Output.Graph.YAxis.Data, I
TestParameter, Output.Graph.YAxis.Scale, Linear
TestParameter, Output.Graph.YAxis.Bottom, -0.1
TestParameter, Output.Graph.YAxis.Top, 0.1
TestParameter, Output.Graph.YAxis.Group, 
TestParameter, Output.Graph.YAxis.RunTimeAutoScale, true
TestParameter, AutoAnalysis.Interpolation, false
TestParameter, AutoAnalysis.Var2StepCount, 1
TestParameter, AutoAnalysis.Var2StepScript, 
TestParameter, AutoAnalysis.Line1.Enabled, false
TestParameter, AutoAnalysis.Line1.Type, 1
TestParameter, AutoAnalysis.Line1.Fix, True
TestParameter, AutoAnalysis.Line1.YAxis, 0
TestParameter, AutoAnalysis.Line1.Point1.Type, 0
TestParameter, AutoAnalysis.Line1.Point1.XY.X, 
TestParameter, AutoAnalysis.Line1.Point1.XY.Y, 
TestParameter, AutoAnalysis.Line1.Point1.Data.Var, 
TestParameter, AutoAnalysis.Line1.Point1.Data.Condition, 
TestParameter, AutoAnalysis.Line1.Point1.Data.Start, false
TestParameter, AutoAnalysis.Line1.Point1.Data.StartVar, 
TestParameter, AutoAnalysis.Line1.Point1.Data.StartCondition, 
TestParameter, AutoAnalysis.Line1.Point2.Type, 0
TestParameter, AutoAnalysis.Line1.Point2.XY.X, 
TestParameter, AutoAnalysis.Line1.Point2.XY.Y, 
TestParameter, AutoAnalysis.Line1.Point2.Data.Var, 
TestParameter, AutoAnalysis.Line1.Point2.Data.Condition, 
TestParameter, AutoAnalysis.Line1.Point2.Data.Start, false
TestParameter, AutoAnalysis.Line1.Point2.Data.StartVar, 
TestParameter, AutoAnalysis.Line1.Point2.Data.StartCondition, 
TestParameter, AutoAnalysis.Line1.GradientExpr, 0
TestParameter, AutoAnalysis.Line2.Enabled, false
TestParameter, AutoAnalysis.Line2.Type, 1
TestParameter, AutoAnalysis.Line2.Fix, True
TestParameter, AutoAnalysis.Line2.YAxis, 0
TestParameter, AutoAnalysis.Line2.Point1.Type, 0
TestParameter, AutoAnalysis.Line2.Point1.XY.X, 
TestParameter, AutoAnalysis.Line2.Point1.XY.Y, 
TestParameter, AutoAnalysis.Line2.Point1.Data.Var, 
TestParameter, AutoAnalysis.Line2.Point1.Data.Condition, 
TestParameter, AutoAnalysis.Line2.Point1.Data.Start, false
TestParameter, AutoAnalysis.Line2.Point1.Data.StartVar, 
TestParameter, AutoAnalysis.Line2.Point1.Data.StartCondition, 
TestParameter, AutoAnalysis.Line2.Point2.Type, 0
TestParameter, AutoAnalysis.Line2.Point2.XY.X, 
TestParameter, AutoAnalysis.Line2.Point2.XY.Y, 
TestParameter, AutoAnalysis.Line2.Point2.Data.Var, 
TestParameter, AutoAnalysis.Line2.Point2.Data.Condition, 
TestParameter, AutoAnalysis.Line2.Point2.Data.Start, false
TestParameter, AutoAnalysis.Line2.Point2.Data.StartVar, 
TestParameter, AutoAnalysis.Line2.Point2.Data.StartCondition, 
TestParameter, AutoAnalysis.Line2.GradientExpr, 0
TestParameter, AutoAnalysis.Marker.Enabled, false
TestParameter, AutoAnalysis.Marker.Data.Var, 
TestParameter, AutoAnalysis.Marker.Data.Condition, 
TestParameter, AutoAnalysis.Marker.Data.Start, false
TestParameter, AutoAnalysis.Marker.Data.StartVar, 
TestParameter, AutoAnalysis.Marker.Data.StartCondition, 
MetaData, TestRecord.EntryPoint, true
MetaData, TestRecord.RecordTime, 10/19/2022 15:25:29
MetaData, TestRecord.TestTarget, 
MetaData, TestRecord.IterationIndex, 54
MetaData, TestRecord.Preservation, true
MetaData, TestRecord.Flag, 
MetaData, TestRecord.Remarks, 
MetaData, TestRecord.LinkKey, 2d1dd007-a4fb-423b-96a5-5b26c81d844e
MetaData, TestRecord.Parameters, 
Dimension1, 101, 101
Dimension2, 1, 1
DataName, V, I
DataValue, -2, -0.051176000000000006
DataValue, -1.9600000000000002, -0.049246000000000005
DataValue, -1.9200000000000002, -0.047806
DataValue, -1.8800000000000001, -0.045736000000000006
DataValue, -1.84, -0.045866000000000004
DataValue, -1.8, -0.04435
DataValue, -1.76, -0.042572000000000006
DataValue, -1.72, -0.041052000000000005
DataValue, -1.6800000000000002, -0.039566000000000004
DataValue, -1.6400000000000001, -0.038066
DataValue, -1.6, -0.036554
DataValue, -1.56, -0.034994000000000004
DataValue, -1.52, -0.03343
DataValue, -1.48, -0.031838000000000005
DataValue, -1.4400000000000002, -0.030254000000000003
DataValue, -1.4000000000000001, -0.028654000000000002
DataValue, -1.36, -0.027064
DataValue, -1.32, -0.025472
DataValue, -1.28, -0.0239
DataValue, -1.24, -0.022352
DataValue, -1.2, -0.02083
DataValue, -1.1600000000000001, -0.019346000000000002
DataValue, -1.12, -0.017894
DataValue, -1.08, -0.016472
DataValue, -1.04, -0.015070000000000002
DataValue, -1, -0.013694000000000001
DataValue, -0.96000000000000008, -0.012334000000000001
DataValue, -0.92, -0.010984
DataValue, -0.88, -0.009666000000000001
DataValue, -0.84000000000000008, -0.0083638
DataValue, -0.8, -0.007085
DataValue, -0.76, -0.0058464
DataValue, -0.72000000000000008, -0.0046532
DataValue, -0.68, -0.0035254
DataValue, -0.64, -0.002481
DataValue, -0.6, -0.0015616
DataValue, -0.56, -0.00082068000000000006
DataValue, -0.52, -0.00032784000000000003
DataValue, -0.48000000000000004, -9.683E-05
DataValue, -0.44, -2.3944E-05
DataValue, -0.4, -5.735000000000001E-06
DataValue, -0.36000000000000004, -1.4374000000000002E-06
DataValue, -0.32, -4.1058E-07
DataValue, -0.28, -1.4165999999999999E-07
DataValue, -0.24000000000000002, -6.36574E-08
DataValue, -0.2, -3.32788E-08
DataValue, -0.16, -1.8015E-08
DataValue, -0.12000000000000001, -9.5171E-09
DataValue, -0.08, -1.6335E-09
DataValue, -0.04, 8.8533E-09
DataValue, 0, 3.4909E-08
DataValue, 0.04, 1.2866E-07
DataValue, 0.08, 3.931E-07
DataValue, 0.12000000000000001, 6.5268E-07
DataValue, 0.16, 1.4002000000000002E-06
DataValue, 0.2, 1.2939000000000002E-06
DataValue, 0.24000000000000002, 1.5892000000000002E-06
DataValue, 0.28, 1.7929000000000002E-06
DataValue, 0.32, 2.1006000000000003E-06
DataValue, 0.36000000000000004, 2.5523E-06
DataValue, 0.4, 3.3104000000000005E-06
DataValue, 0.44, 4.5188000000000007E-06
DataValue, 0.48000000000000004, 6.3097000000000008E-06
DataValue, 0.52, 8.7304E-06
DataValue, 0.56, 1.1876000000000001E-05
DataValue, 0.6, 1.5910000000000002E-05
DataValue, 0.64, 2.0176E-05
DataValue, 0.68, 2.4986E-05
DataValue, 0.72000000000000008, 3.0606E-05
DataValue, 0.76, 3.723E-05
DataValue, 0.8, 4.557E-05
DataValue, 0.84000000000000008, 5.576E-05
DataValue, 0.88, 0.00022278
DataValue, 0.92, 0.00044614000000000003
DataValue, 0.96000000000000008, 0.00053496
DataValue, 1, 0.0006378
DataValue, 1.04, 0.00076218
DataValue, 1.08, 0.00092234
DataValue, 1.12, 0.00114186
DataValue, 1.1600000000000001, 0.001385
DataValue, 1.2, 0.0017698
DataValue, 1.24, 0.0022716
DataValue, 1.28, 0.0028722
DataValue, 1.32, 0.0036052000000000002
DataValue, 1.36, 0.0043786
DataValue, 1.4000000000000001, 0.0045604
DataValue, 1.4400000000000002, 0.0054032
DataValue, 1.48, 0.0062898
DataValue, 1.52, 0.0072062
DataValue, 1.56, 0.0081556
DataValue, 1.6, 0.009132
DataValue, 1.6400000000000001, 0.0101376
DataValue, 1.6800000000000002, 0.0111642
DataValue, 1.72, 0.012220000000000002
DataValue, 1.76, 0.013288000000000001
DataValue, 1.8, 0.01438
DataValue, 1.84, 0.015490000000000002
DataValue, 1.8800000000000001, 0.01661
DataValue, 1.9200000000000002, 0.017750000000000002
DataValue, 1.9600000000000002, 0.018898
DataValue, 2, 0.020062000000000003