
SetupTitle, I/V Sweep
PrimitiveTest, I/V Sweep
TestParameter, Context.MainFrame, B1500A
TestParameter, Channel.UnitType, SMU, SMU, SMU, SMU, SMU
TestParameter, Channel.Unit, SMU1:HP, SMU2:MP, SMU3:MP, SMU4:MP, SMU5:MP
TestParameter, Channel.IName, I, IDD1, IDD2, ISS, IPP
TestParameter, Channel.VName, V, VDD1, VDD2, VSS, VPP
TestParameter, Channel.Mode, V, V, V, V, V
TestParameter, Channel.Func, CONST, VAR1, CONST, CONST, CONST
TestParameter, Channel.Index, 
TestParameter, Channel.Time, 
TestParameter, Measurement.Port.Unit, SMU1:HP, SMU2:MP, SMU3:MP, SMU4:MP, SMU5:MP
TestParameter, Measurement.Port.SeriesResistor, NONE, NONE, NONE, NONE, NONE
TestParameter, Measurement.Port.Filter, ON, ON, ON, ON, ON
TestParameter, Measurement.Port.OutputVoltageComparison, 0, 0, 0, 0, 0
TestParameter, Measurement.Primary.Locus, Single
TestParameter, Measurement.Primary.Scale, LINEAR
TestParameter, Measurement.Primary.Start, -2
TestParameter, Measurement.Primary.Stop, 2
TestParameter, Measurement.Primary.Step, 0.04
TestParameter, Measurement.Primary.Compliance, 0.1
TestParameter, Measurement.Primary.PowerCompliance, 0
TestParameter, Measurement.Aborting.Condition, CONTINUE AT ANY
TestParameter, Measurement.PostOutput.Value, START
TestParameter, Measurement.PostOutput.Retention, OFF
TestParameter, Measurement.Bias.Source, 0, -2, 0, 0, 0
TestParameter, Measurement.Bias.Compliance, 0.1, 0.1, 0.1, 0.1, 0.1
TestParameter, Measurement.Monitor.Unit, SMU1:HP, SMU2:MP, SMU3:MP, SMU4:MP, SMU5:MP
TestParameter, Measurement.Monitor.Adc, HR ADC, HR ADC, HR ADC, HR ADC, HR ADC
TestParameter, Measurement.Monitor.Measurement, Compliance Side, Compliance Side, Compliance Side, Compliance Side, Compliance Side
TestParameter, Measurement.Monitor.RangingMode, LIMITED, LIMITED, LIMITED, LIMITED, LIMITED
TestParameter, Measurement.Monitor.RangeBoundary, 1nA, 1nA, 1nA, 1nA, 1nA
TestParameter, Measurement.Monitor.RangeRating, BY FULL RANGE, BY FULL RANGE, BY FULL RANGE, BY FULL RANGE, BY FULL RANGE
TestParameter, Measurement.Monitor.RangeRatingCoeff, 50, 50, 50, 50, 50
TestParameter, Measurement.Timing.Hold, 0
TestParameter, Measurement.Timing.Delay, 0
TestParameter, Measurement.Adc.HighSpeed.Mode, AUTO
TestParameter, Measurement.Adc.HighSpeed.Coeff, 1
TestParameter, Measurement.Adc.HighResolution.AutoZero, OFF
TestParameter, Measurement.Adc.HighResolution.Mode, AUTO
TestParameter, Measurement.Adc.HighResolution.Coeff, 6
TestParameter, Measurement.WaitTime.Source.Coeff, 1
TestParameter, Measurement.WaitTime.Source.Offset, 0
TestParameter, Measurement.WaitTime.Monitor.Coeff, 1
TestParameter, Measurement.WaitTime.Monitor.Offset, 0
TestParameter, Output.Graph.Enabled, true
TestParameter, Output.Graph.AutoScaling, false
TestParameter, Output.Graph.XAxis.Data, VDD1
TestParameter, Output.Graph.XAxis.Scale, Linear
TestParameter, Output.Graph.XAxis.Left, -2
TestParameter, Output.Graph.XAxis.Right, 2
TestParameter, Output.Graph.XAxis.RunTimeAutoScale, true
TestParameter, Output.Graph.YAxis.Data, IDD1
TestParameter, Output.Graph.YAxis.Scale, Linear
TestParameter, Output.Graph.YAxis.Bottom, -0.1
TestParameter, Output.Graph.YAxis.Top, 0.1
TestParameter, Output.Graph.YAxis.Group, 
TestParameter, Output.Graph.YAxis.RunTimeAutoScale, true
TestParameter, AutoAnalysis.Interpolation, false
TestParameter, AutoAnalysis.Var2StepCount, 1
TestParameter, AutoAnalysis.Var2StepScript, 
TestParameter, AutoAnalysis.Line1.Enabled, false
TestParameter, AutoAnalysis.Line1.Type, 1
TestParameter, AutoAnalysis.Line1.Fix, True
TestParameter, AutoAnalysis.Line1.YAxis, 0
TestParameter, AutoAnalysis.Line1.Point1.Type, 0
TestParameter, AutoAnalysis.Line1.Point1.XY.X, 
TestParameter, AutoAnalysis.Line1.Point1.XY.Y, 
TestParameter, AutoAnalysis.Line1.Point1.Data.Var, 
TestParameter, AutoAnalysis.Line1.Point1.Data.Condition, 
TestParameter, AutoAnalysis.Line1.Point1.Data.Start, false
TestParameter, AutoAnalysis.Line1.Point1.Data.StartVar, 
TestParameter, AutoAnalysis.Line1.Point1.Data.StartCondition, 
TestParameter, AutoAnalysis.Line1.Point2.Type, 0
TestParameter, AutoAnalysis.Line1.Point2.XY.X, 
TestParameter, AutoAnalysis.Line1.Point2.XY.Y, 
TestParameter, AutoAnalysis.Line1.Point2.Data.Var, 
TestParameter, AutoAnalysis.Line1.Point2.Data.Condition, 
TestParameter, AutoAnalysis.Line1.Point2.Data.Start, false
TestParameter, AutoAnalysis.Line1.Point2.Data.StartVar, 
TestParameter, AutoAnalysis.Line1.Point2.Data.StartCondition, 
TestParameter, AutoAnalysis.Line1.GradientExpr, 0
TestParameter, AutoAnalysis.Line2.Enabled, false
TestParameter, AutoAnalysis.Line2.Type, 1
TestParameter, AutoAnalysis.Line2.Fix, True
TestParameter, AutoAnalysis.Line2.YAxis, 0
TestParameter, AutoAnalysis.Line2.Point1.Type, 0
TestParameter, AutoAnalysis.Line2.Point1.XY.X, 
TestParameter, AutoAnalysis.Line2.Point1.XY.Y, 
TestParameter, AutoAnalysis.Line2.Point1.Data.Var, 
TestParameter, AutoAnalysis.Line2.Point1.Data.Condition, 
TestParameter, AutoAnalysis.Line2.Point1.Data.Start, false
TestParameter, AutoAnalysis.Line2.Point1.Data.StartVar, 
TestParameter, AutoAnalysis.Line2.Point1.Data.StartCondition, 
TestParameter, AutoAnalysis.Line2.Point2.Type, 0
TestParameter, AutoAnalysis.Line2.Point2.XY.X, 
TestParameter, AutoAnalysis.Line2.Point2.XY.Y, 
TestParameter, AutoAnalysis.Line2.Point2.Data.Var, 
TestParameter, AutoAnalysis.Line2.Point2.Data.Condition, 
TestParameter, AutoAnalysis.Line2.Point2.Data.Start, false
TestParameter, AutoAnalysis.Line2.Point2.Data.StartVar, 
TestParameter, AutoAnalysis.Line2.Point2.Data.StartCondition, 
TestParameter, AutoAnalysis.Line2.GradientExpr, 0
TestParameter, AutoAnalysis.Marker.Enabled, false
TestParameter, AutoAnalysis.Marker.Data.Var, 
TestParameter, AutoAnalysis.Marker.Data.Condition, 
TestParameter, AutoAnalysis.Marker.Data.Start, false
TestParameter, AutoAnalysis.Marker.Data.StartVar, 
TestParameter, AutoAnalysis.Marker.Data.StartCondition, 
MetaData, TestRecord.EntryPoint, true
MetaData, TestRecord.RecordTime, 10/19/2022 11:12:17
MetaData, TestRecord.TestTarget, 
MetaData, TestRecord.IterationIndex, 167
MetaData, TestRecord.Preservation, true
MetaData, TestRecord.Flag, 
MetaData, TestRecord.Remarks, 
MetaData, TestRecord.LinkKey, 3a7605e1-4ba5-4a80-bbae-042d30f998e8
MetaData, TestRecord.Parameters, 
Dimension1, 101, 101
Dimension2, 1, 1
DataName, VDD1, IDD1
DataValue, -2, -0.02672
DataValue, -1.9600000000000002, -0.027408000000000002
DataValue, -1.9200000000000002, -0.027410000000000004
DataValue, -1.8800000000000001, -0.026788000000000003
DataValue, -1.84, -0.026124
DataValue, -1.8, -0.026062000000000002
DataValue, -1.76, -0.025358000000000002
DataValue, -1.72, -0.024622
DataValue, -1.6800000000000002, -0.023876
DataValue, -1.6400000000000001, -0.023138000000000002
DataValue, -1.6, -0.022406000000000002
DataValue, -1.56, -0.021668000000000003
DataValue, -1.52, -0.020944
DataValue, -1.48, -0.020216
DataValue, -1.4400000000000002, -0.019546
DataValue, -1.4000000000000001, -0.01888
DataValue, -1.36, -0.018228
DataValue, -1.32, -0.01761
DataValue, -1.28, -0.01701
DataValue, -1.24, -0.016444
DataValue, -1.2, -0.015882
DataValue, -1.1600000000000001, -0.015342000000000002
DataValue, -1.12, -0.014810000000000002
DataValue, -1.08, -0.014288000000000002
DataValue, -1.04, -0.013756
DataValue, -1, -0.013242
DataValue, -0.96000000000000008, -0.01271
DataValue, -0.92, -0.012190000000000001
DataValue, -0.88, -0.011668000000000001
DataValue, -0.84000000000000008, -0.01115
DataValue, -0.8, -0.010620000000000001
DataValue, -0.76, -0.010106
DataValue, -0.72000000000000008, -0.0095888
DataValue, -0.68, -0.0090612
DataValue, -0.64, -0.0085468
DataValue, -0.6, -0.00801
DataValue, -0.56, -0.007477
DataValue, -0.52, -0.0069514
DataValue, -0.48000000000000004, -0.0064102000000000004
DataValue, -0.44, -0.0058850000000000005
DataValue, -0.4, -0.0053542
DataValue, -0.36000000000000004, -0.0048212
DataValue, -0.32, -0.0042868
DataValue, -0.28, -0.0037508
DataValue, -0.24000000000000002, -0.0032172
DataValue, -0.2, -0.0026816
DataValue, -0.16, -0.0021468
DataValue, -0.12000000000000001, -0.0016112000000000001
DataValue, -0.08, -0.0010738
DataValue, -0.04, -0.00053768
DataValue, 0, -1.5267000000000001E-06
DataValue, 0.04, 0.00053602
DataValue, 0.08, 0.00107212
DataValue, 0.12000000000000001, 0.0016096
DataValue, 0.16, 0.0021454
DataValue, 0.2, 0.0026826000000000003
DataValue, 0.24000000000000002, 0.0032188
DataValue, 0.28, 0.0037536
DataValue, 0.32, 0.0042868
DataValue, 0.36000000000000004, 0.0048214
DataValue, 0.4, 0.0053588
DataValue, 0.44, 0.0058918
DataValue, 0.48000000000000004, 0.0064258
DataValue, 0.52, 0.0069598
DataValue, 0.56, 0.0074936000000000004
DataValue, 0.6, 0.0080222
DataValue, 0.64, 0.0085524
DataValue, 0.68, 0.009087
DataValue, 0.72000000000000008, 0.009617800000000001
DataValue, 0.76, 0.0101474
DataValue, 0.8, 0.0106756
DataValue, 0.84000000000000008, 0.0111936
DataValue, 0.88, 0.011744000000000001
DataValue, 0.92, 0.012268000000000001
DataValue, 0.96000000000000008, 0.012792000000000001
DataValue, 1, 0.013314000000000001
DataValue, 1.04, 0.013828000000000002
DataValue, 1.08, 0.014350000000000002
DataValue, 1.12, 0.014876000000000002
DataValue, 1.1600000000000001, 0.015388
DataValue, 1.2, 0.015916000000000003
DataValue, 1.24, 0.016436000000000003
DataValue, 1.28, 0.016954
DataValue, 1.32, 0.017466000000000002
DataValue, 1.36, 0.017990000000000003
DataValue, 1.4000000000000001, 0.018508
DataValue, 1.4400000000000002, 0.019032
DataValue, 1.48, 0.019548000000000003
DataValue, 1.52, 0.020072000000000003
DataValue, 1.56, 0.020596000000000003
DataValue, 1.6, 0.021108000000000002
DataValue, 1.6400000000000001, 0.021606
DataValue, 1.6800000000000002, 0.022148
DataValue, 1.72, 0.022658
DataValue, 1.76, 0.023186000000000002
DataValue, 1.8, 0.023678
DataValue, 1.84, 0.024192
DataValue, 1.8800000000000001, 0.024678000000000002
DataValue, 1.9200000000000002, 0.025212000000000002
DataValue, 1.9600000000000002, 0.025968
DataValue, 2, 0.026606