
SetupTitle, I/V Sweep
PrimitiveTest, I/V Sweep
TestParameter, Context.MainFrame, B1500A
TestParameter, Channel.UnitType, SMU, SMU, SMU, SMU, SMU
TestParameter, Channel.Unit, SMU1:HP, SMU2:MP, SMU3:MP, SMU4:MP, SMU5:MP
TestParameter, Channel.IName, I, IDD1, IDD2, ISS, IPP
TestParameter, Channel.VName, V, VDD1, VDD2, VSS, VPP
TestParameter, Channel.Mode, V, V, V, V, V
TestParameter, Channel.Func, VAR1, CONST, CONST, CONST, CONST
TestParameter, Channel.Index, 
TestParameter, Channel.Time, 
TestParameter, Measurement.Port.Unit, SMU1:HP, SMU2:MP, SMU3:MP, SMU4:MP, SMU5:MP
TestParameter, Measurement.Port.SeriesResistor, NONE, NONE, NONE, NONE, NONE
TestParameter, Measurement.Port.Filter, ON, ON, ON, ON, ON
TestParameter, Measurement.Port.OutputVoltageComparison, 0, 0, 0, 0, 0
TestParameter, Measurement.Primary.Locus, Single
TestParameter, Measurement.Primary.Scale, LINEAR
TestParameter, Measurement.Primary.Start, -2
TestParameter, Measurement.Primary.Stop, 2
TestParameter, Measurement.Primary.Step, 0.04
TestParameter, Measurement.Primary.Compliance, 0.1
TestParameter, Measurement.Primary.PowerCompliance, 0
TestParameter, Measurement.Aborting.Condition, CONTINUE AT ANY
TestParameter, Measurement.PostOutput.Value, START
TestParameter, Measurement.PostOutput.Retention, OFF
TestParameter, Measurement.Bias.Source, -2, 1.8, 1.1, 0, 0
TestParameter, Measurement.Bias.Compliance, 0.1, 0.1, 0.1, 0.1, 0.1
TestParameter, Measurement.Monitor.Unit, SMU1:HP, SMU2:MP, SMU3:MP, SMU4:MP, SMU5:MP
TestParameter, Measurement.Monitor.Adc, HR ADC, HR ADC, HR ADC, HR ADC, HR ADC
TestParameter, Measurement.Monitor.Measurement, Compliance Side, Compliance Side, Compliance Side, Compliance Side, Compliance Side
TestParameter, Measurement.Monitor.RangingMode, LIMITED, LIMITED, LIMITED, LIMITED, LIMITED
TestParameter, Measurement.Monitor.RangeBoundary, 1nA, 1nA, 1nA, 1nA, 1nA
TestParameter, Measurement.Monitor.RangeRating, BY FULL RANGE, BY FULL RANGE, BY FULL RANGE, BY FULL RANGE, BY FULL RANGE
TestParameter, Measurement.Monitor.RangeRatingCoeff, 50, 50, 50, 50, 50
TestParameter, Measurement.Timing.Hold, 0
TestParameter, Measurement.Timing.Delay, 0
TestParameter, Measurement.Adc.HighSpeed.Mode, AUTO
TestParameter, Measurement.Adc.HighSpeed.Coeff, 1
TestParameter, Measurement.Adc.HighResolution.AutoZero, OFF
TestParameter, Measurement.Adc.HighResolution.Mode, AUTO
TestParameter, Measurement.Adc.HighResolution.Coeff, 6
TestParameter, Measurement.WaitTime.Source.Coeff, 1
TestParameter, Measurement.WaitTime.Source.Offset, 0
TestParameter, Measurement.WaitTime.Monitor.Coeff, 1
TestParameter, Measurement.WaitTime.Monitor.Offset, 0
TestParameter, Output.Graph.Enabled, true
TestParameter, Output.Graph.AutoScaling, false
TestParameter, Output.Graph.XAxis.Data, V
TestParameter, Output.Graph.XAxis.Scale, Linear
TestParameter, Output.Graph.XAxis.Left, -2
TestParameter, Output.Graph.XAxis.Right, 2
TestParameter, Output.Graph.XAxis.RunTimeAutoScale, true
TestParameter, Output.Graph.YAxis.Data, I
TestParameter, Output.Graph.YAxis.Scale, Linear
TestParameter, Output.Graph.YAxis.Bottom, -0.1
TestParameter, Output.Graph.YAxis.Top, 0.1
TestParameter, Output.Graph.YAxis.Group, 
TestParameter, Output.Graph.YAxis.RunTimeAutoScale, true
TestParameter, AutoAnalysis.Interpolation, false
TestParameter, AutoAnalysis.Var2StepCount, 1
TestParameter, AutoAnalysis.Var2StepScript, 
TestParameter, AutoAnalysis.Line1.Enabled, false
TestParameter, AutoAnalysis.Line1.Type, 1
TestParameter, AutoAnalysis.Line1.Fix, True
TestParameter, AutoAnalysis.Line1.YAxis, 0
TestParameter, AutoAnalysis.Line1.Point1.Type, 0
TestParameter, AutoAnalysis.Line1.Point1.XY.X, 
TestParameter, AutoAnalysis.Line1.Point1.XY.Y, 
TestParameter, AutoAnalysis.Line1.Point1.Data.Var, 
TestParameter, AutoAnalysis.Line1.Point1.Data.Condition, 
TestParameter, AutoAnalysis.Line1.Point1.Data.Start, false
TestParameter, AutoAnalysis.Line1.Point1.Data.StartVar, 
TestParameter, AutoAnalysis.Line1.Point1.Data.StartCondition, 
TestParameter, AutoAnalysis.Line1.Point2.Type, 0
TestParameter, AutoAnalysis.Line1.Point2.XY.X, 
TestParameter, AutoAnalysis.Line1.Point2.XY.Y, 
TestParameter, AutoAnalysis.Line1.Point2.Data.Var, 
TestParameter, AutoAnalysis.Line1.Point2.Data.Condition, 
TestParameter, AutoAnalysis.Line1.Point2.Data.Start, false
TestParameter, AutoAnalysis.Line1.Point2.Data.StartVar, 
TestParameter, AutoAnalysis.Line1.Point2.Data.StartCondition, 
TestParameter, AutoAnalysis.Line1.GradientExpr, 0
TestParameter, AutoAnalysis.Line2.Enabled, false
TestParameter, AutoAnalysis.Line2.Type, 1
TestParameter, AutoAnalysis.Line2.Fix, True
TestParameter, AutoAnalysis.Line2.YAxis, 0
TestParameter, AutoAnalysis.Line2.Point1.Type, 0
TestParameter, AutoAnalysis.Line2.Point1.XY.X, 
TestParameter, AutoAnalysis.Line2.Point1.XY.Y, 
TestParameter, AutoAnalysis.Line2.Point1.Data.Var, 
TestParameter, AutoAnalysis.Line2.Point1.Data.Condition, 
TestParameter, AutoAnalysis.Line2.Point1.Data.Start, false
TestParameter, AutoAnalysis.Line2.Point1.Data.StartVar, 
TestParameter, AutoAnalysis.Line2.Point1.Data.StartCondition, 
TestParameter, AutoAnalysis.Line2.Point2.Type, 0
TestParameter, AutoAnalysis.Line2.Point2.XY.X, 
TestParameter, AutoAnalysis.Line2.Point2.XY.Y, 
TestParameter, AutoAnalysis.Line2.Point2.Data.Var, 
TestParameter, AutoAnalysis.Line2.Point2.Data.Condition, 
TestParameter, AutoAnalysis.Line2.Point2.Data.Start, false
TestParameter, AutoAnalysis.Line2.Point2.Data.StartVar, 
TestParameter, AutoAnalysis.Line2.Point2.Data.StartCondition, 
TestParameter, AutoAnalysis.Line2.GradientExpr, 0
TestParameter, AutoAnalysis.Marker.Enabled, false
TestParameter, AutoAnalysis.Marker.Data.Var, 
TestParameter, AutoAnalysis.Marker.Data.Condition, 
TestParameter, AutoAnalysis.Marker.Data.Start, false
TestParameter, AutoAnalysis.Marker.Data.StartVar, 
TestParameter, AutoAnalysis.Marker.Data.StartCondition, 
MetaData, TestRecord.EntryPoint, true
MetaData, TestRecord.RecordTime, 10/19/2022 11:20:06
MetaData, TestRecord.TestTarget, 
MetaData, TestRecord.IterationIndex, 180
MetaData, TestRecord.Preservation, true
MetaData, TestRecord.Flag, 
MetaData, TestRecord.Remarks, 
MetaData, TestRecord.LinkKey, 28e04e36-1d29-4da0-a773-170f6f0592c2
MetaData, TestRecord.Parameters, 
Dimension1, 101, 101
Dimension2, 1, 1
DataName, V, I
DataValue, -2, 5.1359599999999996E-08
DataValue, -1.9600000000000002, -5.6061199999999992E-08
DataValue, -1.9200000000000002, 5.7629399999999995E-08
DataValue, -1.8800000000000001, -5.8973199999999992E-08
DataValue, -1.84, 5.1855199999999994E-08
DataValue, -1.8, -5.5901399999999994E-08
DataValue, -1.76, 6.0201399999999993E-08
DataValue, -1.72, -5.6239199999999996E-08
DataValue, -1.6800000000000002, 4.85634E-08
DataValue, -1.6400000000000001, -3.8511999999999994E-08
DataValue, -1.6, 6.02708E-08
DataValue, -1.56, -5.5376399999999994E-08
DataValue, -1.52, 4.8459E-08
DataValue, -1.48, -2.9550999999999998E-08
DataValue, -1.4400000000000002, -2.7195799999999997E-08
DataValue, -1.4000000000000001, 4.3784199999999994E-08
DataValue, -1.36, -5.4415199999999992E-08
DataValue, -1.32, 5.2604199999999997E-08
DataValue, -1.28, -5.6107999999999995E-08
DataValue, -1.24, 5.9507799999999995E-08
DataValue, -1.2, -5.9688599999999991E-08
DataValue, -1.1600000000000001, 5.6338399999999993E-08
DataValue, -1.12, -4.54228E-08
DataValue, -1.08, 3.74476E-08
DataValue, -1.04, -1.92034E-08
DataValue, -1, -3.4374999999999995E-08
DataValue, -0.96000000000000008, 5.0199799999999995E-08
DataValue, -0.92, -5.5324599999999992E-08
DataValue, -0.88, 5.3791999999999996E-08
DataValue, -0.84000000000000008, -5.6065599999999992E-08
DataValue, -0.8, 5.86906E-08
DataValue, -0.76, -5.8168199999999993E-08
DataValue, -0.72000000000000008, 5.9007399999999995E-08
DataValue, -0.68, -5.8532799999999995E-08
DataValue, -0.64, 5.2926599999999993E-08
DataValue, -0.6, -4.2272599999999996E-08
DataValue, -0.56, 5.9387599999999994E-08
DataValue, -0.52, -5.63102E-08
DataValue, -0.48000000000000004, 4.3525399999999996E-08
DataValue, -0.44, -3.4017E-08
DataValue, -0.4, -2.3824599999999998E-08
DataValue, -0.36000000000000004, 3.9852399999999994E-08
DataValue, -0.32, -5.3327799999999995E-08
DataValue, -0.28, 5.5842999999999993E-08
DataValue, -0.24000000000000002, -5.96586E-08
DataValue, -0.2, 5.96332E-08
DataValue, -0.16, -5.58552E-08
DataValue, -0.12000000000000001, 4.2011399999999993E-08
DataValue, -0.08, -3.1490399999999995E-08
DataValue, -0.04, 5.9383799999999993E-08
DataValue, 0, -4.5673199999999992E-08
DataValue, 0.04, 3.7731199999999993E-08
DataValue, 0.08, -3.9700799999999995E-08
DataValue, 0.12000000000000001, 6.0260799999999989E-08
DataValue, 0.16, -5.5814599999999992E-08
DataValue, 0.2, 5.11096E-08
DataValue, 0.24000000000000002, -5.01466E-08
DataValue, 0.28, 4.0630399999999996E-08
DataValue, 0.32, -2.5028799999999998E-08
DataValue, 0.36000000000000004, -3.76422E-08
DataValue, 0.4, 5.00722E-08
DataValue, 0.44, -5.5950799999999992E-08
DataValue, 0.48000000000000004, 5.5823199999999994E-08
DataValue, 0.52, -5.5924399999999994E-08
DataValue, 0.56, 5.9008799999999992E-08
DataValue, 0.6, -5.9078799999999992E-08
DataValue, 0.64, 5.8221599999999995E-08
DataValue, 0.68, -6.00654E-08
DataValue, 0.72000000000000008, 6.02762E-08
DataValue, 0.76, -5.9679799999999992E-08
DataValue, 0.8, 4.9942999999999993E-08
DataValue, 0.84000000000000008, -5.2332999999999996E-08
DataValue, 0.88, 5.4365399999999993E-08
DataValue, 0.92, -5.48156E-08
DataValue, 0.96000000000000008, 5.6484199999999996E-08
DataValue, 1, -5.6142999999999995E-08
DataValue, 1.04, 5.970399999999999E-08
DataValue, 1.08, -5.8968599999999995E-08
DataValue, 1.12, 6.02954E-08
DataValue, 1.1600000000000001, -3.0356199999999995E-08
DataValue, 1.2, -2.64254E-08
DataValue, 1.24, 4.48044E-08
DataValue, 1.28, -5.48178E-08
DataValue, 1.32, 5.6666999999999994E-08
DataValue, 1.36, -5.9638E-08
DataValue, 1.4000000000000001, 6.0285999999999988E-08
DataValue, 1.4400000000000002, -5.5585399999999993E-08
DataValue, 1.48, 4.6509799999999993E-08
DataValue, 1.52, -1.2840199999999999E-08
DataValue, 1.56, -5.5950399999999997E-08
DataValue, 1.6, 6.0492399999999992E-08
DataValue, 1.6400000000000001, -5.97714E-08
DataValue, 1.6800000000000002, 4.3780199999999997E-08
DataValue, 1.72, -3.2260799999999996E-08
DataValue, 1.76, -2.3349199999999997E-08
DataValue, 1.8, 3.94994E-08
DataValue, 1.84, -5.3139E-08
DataValue, 1.8800000000000001, 5.5809599999999993E-08
DataValue, 1.9200000000000002, -5.9477999999999992E-08
DataValue, 1.9600000000000002, 5.9652399999999992E-08
DataValue, 2, -5.8118999999999993E-08