
SetupTitle, I/V Sweep
PrimitiveTest, I/V Sweep
TestParameter, Context.MainFrame, B1500A
TestParameter, Channel.UnitType, SMU, SMU, SMU, SMU, SMU
TestParameter, Channel.Unit, SMU1:HP, SMU2:MP, SMU3:MP, SMU4:MP, SMU5:MP
TestParameter, Channel.IName, I, IDD1, IDD2, ISS, IPP
TestParameter, Channel.VName, V, VDD1, VDD2, VSS, VPP
TestParameter, Channel.Mode, V, V, V, V, V
TestParameter, Channel.Func, VAR1, CONST, CONST, CONST, CONST
TestParameter, Channel.Index, 
TestParameter, Channel.Time, 
TestParameter, Measurement.Port.Unit, SMU1:HP, SMU2:MP, SMU3:MP, SMU4:MP, SMU5:MP
TestParameter, Measurement.Port.SeriesResistor, NONE, NONE, NONE, NONE, NONE
TestParameter, Measurement.Port.Filter, ON, ON, ON, ON, ON
TestParameter, Measurement.Port.OutputVoltageComparison, 0, 0, 0, 0, 0
TestParameter, Measurement.Primary.Locus, Single
TestParameter, Measurement.Primary.Scale, LINEAR
TestParameter, Measurement.Primary.Start, -2
TestParameter, Measurement.Primary.Stop, 2
TestParameter, Measurement.Primary.Step, 0.04
TestParameter, Measurement.Primary.Compliance, 0.1
TestParameter, Measurement.Primary.PowerCompliance, 0
TestParameter, Measurement.Aborting.Condition, CONTINUE AT ANY
TestParameter, Measurement.PostOutput.Value, START
TestParameter, Measurement.PostOutput.Retention, OFF
TestParameter, Measurement.Bias.Source, -2, 1.8, 1.1, 0, 0
TestParameter, Measurement.Bias.Compliance, 0.1, 0.1, 0.1, 0.1, 0.1
TestParameter, Measurement.Monitor.Unit, SMU1:HP, SMU2:MP, SMU3:MP, SMU4:MP, SMU5:MP
TestParameter, Measurement.Monitor.Adc, HR ADC, HR ADC, HR ADC, HR ADC, HR ADC
TestParameter, Measurement.Monitor.Measurement, Compliance Side, Compliance Side, Compliance Side, Compliance Side, Compliance Side
TestParameter, Measurement.Monitor.RangingMode, LIMITED, LIMITED, LIMITED, LIMITED, LIMITED
TestParameter, Measurement.Monitor.RangeBoundary, 1nA, 1nA, 1nA, 1nA, 1nA
TestParameter, Measurement.Monitor.RangeRating, BY FULL RANGE, BY FULL RANGE, BY FULL RANGE, BY FULL RANGE, BY FULL RANGE
TestParameter, Measurement.Monitor.RangeRatingCoeff, 50, 50, 50, 50, 50
TestParameter, Measurement.Timing.Hold, 0
TestParameter, Measurement.Timing.Delay, 0
TestParameter, Measurement.Adc.HighSpeed.Mode, AUTO
TestParameter, Measurement.Adc.HighSpeed.Coeff, 1
TestParameter, Measurement.Adc.HighResolution.AutoZero, OFF
TestParameter, Measurement.Adc.HighResolution.Mode, AUTO
TestParameter, Measurement.Adc.HighResolution.Coeff, 6
TestParameter, Measurement.WaitTime.Source.Coeff, 1
TestParameter, Measurement.WaitTime.Source.Offset, 0
TestParameter, Measurement.WaitTime.Monitor.Coeff, 1
TestParameter, Measurement.WaitTime.Monitor.Offset, 0
TestParameter, Output.Graph.Enabled, true
TestParameter, Output.Graph.AutoScaling, false
TestParameter, Output.Graph.XAxis.Data, V
TestParameter, Output.Graph.XAxis.Scale, Linear
TestParameter, Output.Graph.XAxis.Left, -2
TestParameter, Output.Graph.XAxis.Right, 2
TestParameter, Output.Graph.XAxis.RunTimeAutoScale, true
TestParameter, Output.Graph.YAxis.Data, I
TestParameter, Output.Graph.YAxis.Scale, Linear
TestParameter, Output.Graph.YAxis.Bottom, -0.1
TestParameter, Output.Graph.YAxis.Top, 0.1
TestParameter, Output.Graph.YAxis.Group, 
TestParameter, Output.Graph.YAxis.RunTimeAutoScale, true
TestParameter, AutoAnalysis.Interpolation, false
TestParameter, AutoAnalysis.Var2StepCount, 1
TestParameter, AutoAnalysis.Var2StepScript, 
TestParameter, AutoAnalysis.Line1.Enabled, false
TestParameter, AutoAnalysis.Line1.Type, 1
TestParameter, AutoAnalysis.Line1.Fix, True
TestParameter, AutoAnalysis.Line1.YAxis, 0
TestParameter, AutoAnalysis.Line1.Point1.Type, 0
TestParameter, AutoAnalysis.Line1.Point1.XY.X, 
TestParameter, AutoAnalysis.Line1.Point1.XY.Y, 
TestParameter, AutoAnalysis.Line1.Point1.Data.Var, 
TestParameter, AutoAnalysis.Line1.Point1.Data.Condition, 
TestParameter, AutoAnalysis.Line1.Point1.Data.Start, false
TestParameter, AutoAnalysis.Line1.Point1.Data.StartVar, 
TestParameter, AutoAnalysis.Line1.Point1.Data.StartCondition, 
TestParameter, AutoAnalysis.Line1.Point2.Type, 0
TestParameter, AutoAnalysis.Line1.Point2.XY.X, 
TestParameter, AutoAnalysis.Line1.Point2.XY.Y, 
TestParameter, AutoAnalysis.Line1.Point2.Data.Var, 
TestParameter, AutoAnalysis.Line1.Point2.Data.Condition, 
TestParameter, AutoAnalysis.Line1.Point2.Data.Start, false
TestParameter, AutoAnalysis.Line1.Point2.Data.StartVar, 
TestParameter, AutoAnalysis.Line1.Point2.Data.StartCondition, 
TestParameter, AutoAnalysis.Line1.GradientExpr, 0
TestParameter, AutoAnalysis.Line2.Enabled, false
TestParameter, AutoAnalysis.Line2.Type, 1
TestParameter, AutoAnalysis.Line2.Fix, True
TestParameter, AutoAnalysis.Line2.YAxis, 0
TestParameter, AutoAnalysis.Line2.Point1.Type, 0
TestParameter, AutoAnalysis.Line2.Point1.XY.X, 
TestParameter, AutoAnalysis.Line2.Point1.XY.Y, 
TestParameter, AutoAnalysis.Line2.Point1.Data.Var, 
TestParameter, AutoAnalysis.Line2.Point1.Data.Condition, 
TestParameter, AutoAnalysis.Line2.Point1.Data.Start, false
TestParameter, AutoAnalysis.Line2.Point1.Data.StartVar, 
TestParameter, AutoAnalysis.Line2.Point1.Data.StartCondition, 
TestParameter, AutoAnalysis.Line2.Point2.Type, 0
TestParameter, AutoAnalysis.Line2.Point2.XY.X, 
TestParameter, AutoAnalysis.Line2.Point2.XY.Y, 
TestParameter, AutoAnalysis.Line2.Point2.Data.Var, 
TestParameter, AutoAnalysis.Line2.Point2.Data.Condition, 
TestParameter, AutoAnalysis.Line2.Point2.Data.Start, false
TestParameter, AutoAnalysis.Line2.Point2.Data.StartVar, 
TestParameter, AutoAnalysis.Line2.Point2.Data.StartCondition, 
TestParameter, AutoAnalysis.Line2.GradientExpr, 0
TestParameter, AutoAnalysis.Marker.Enabled, false
TestParameter, AutoAnalysis.Marker.Data.Var, 
TestParameter, AutoAnalysis.Marker.Data.Condition, 
TestParameter, AutoAnalysis.Marker.Data.Start, false
TestParameter, AutoAnalysis.Marker.Data.StartVar, 
TestParameter, AutoAnalysis.Marker.Data.StartCondition, 
MetaData, TestRecord.EntryPoint, true
MetaData, TestRecord.RecordTime, 10/19/2022 11:24:37
MetaData, TestRecord.TestTarget, 
MetaData, TestRecord.IterationIndex, 183
MetaData, TestRecord.Preservation, true
MetaData, TestRecord.Flag, 
MetaData, TestRecord.Remarks, 
MetaData, TestRecord.LinkKey, 8259fecc-670c-4159-97de-fa6a41f1c7d2
MetaData, TestRecord.Parameters, 
Dimension1, 101, 101
Dimension2, 1, 1
DataName, V, I
DataValue, -2, 5.9267599999999997E-08
DataValue, -1.9600000000000002, -5.9574999999999996E-08
DataValue, -1.9200000000000002, 5.3732199999999992E-08
DataValue, -1.8800000000000001, -4.3168999999999994E-08
DataValue, -1.84, 5.9286599999999992E-08
DataValue, -1.8, -5.7585799999999993E-08
DataValue, -1.76, 5.4272999999999992E-08
DataValue, -1.72, -5.2588999999999995E-08
DataValue, -1.6800000000000002, 4.3085999999999993E-08
DataValue, -1.6400000000000001, -2.95028E-08
DataValue, -1.6, -2.6768199999999996E-08
DataValue, -1.56, 4.31174E-08
DataValue, -1.52, -5.4420999999999995E-08
DataValue, -1.48, 5.5999999999999992E-08
DataValue, -1.4400000000000002, -5.9478399999999993E-08
DataValue, -1.4000000000000001, 5.9173799999999994E-08
DataValue, -1.36, -5.9599199999999994E-08
DataValue, -1.32, 5.4170599999999994E-08
DataValue, -1.28, -5.4845199999999997E-08
DataValue, -1.24, 5.5158199999999994E-08
DataValue, -1.2, -5.4278E-08
DataValue, -1.1600000000000001, 5.4410199999999993E-08
DataValue, -1.12, -5.6788399999999994E-08
DataValue, -1.08, 5.5780199999999991E-08
DataValue, -1.04, -5.7811399999999996E-08
DataValue, -1, 5.5515999999999992E-08
DataValue, -0.96000000000000008, -4.4521E-08
DataValue, -0.92, 3.3975199999999996E-08
DataValue, -0.88, -1.5198599999999998E-08
DataValue, -0.84000000000000008, -3.75766E-08
DataValue, -0.8, 5.4101799999999993E-08
DataValue, -0.76, -5.6954999999999996E-08
DataValue, -0.72000000000000008, 5.9533399999999996E-08
DataValue, -0.68, -5.9568799999999991E-08
DataValue, -0.64, 5.8409599999999996E-08
DataValue, -0.6, -5.9368799999999996E-08
DataValue, -0.56, 5.3524599999999996E-08
DataValue, -0.52, -5.6149799999999992E-08
DataValue, -0.48000000000000004, 5.8336599999999993E-08
DataValue, -0.44, -5.8438599999999996E-08
DataValue, -0.4, 5.9286599999999992E-08
DataValue, -0.36000000000000004, -5.8376599999999992E-08
DataValue, -0.32, 5.25954E-08
DataValue, -0.28, -4.25278E-08
DataValue, -0.24000000000000002, 5.4682799999999996E-08
DataValue, -0.2, -4.3792399999999994E-08
DataValue, -0.16, 3.39504E-08
DataValue, -0.12000000000000001, -4.8515999999999993E-09
DataValue, -0.08, 3.1943199999999994E-08
DataValue, -0.04, -1.80492E-08
DataValue, 0, -2.3205399999999997E-08
DataValue, 0.04, 3.6520399999999994E-08
DataValue, 0.08, -5.6217999999999994E-08
DataValue, 0.12000000000000001, 5.8006E-08
DataValue, 0.16, -5.9090599999999994E-08
DataValue, 0.2, 5.2298199999999994E-08
DataValue, 0.24000000000000002, -5.6136399999999996E-08
DataValue, 0.28, 5.7805999999999995E-08
DataValue, 0.32, -5.7672199999999993E-08
DataValue, 0.36000000000000004, 5.9331599999999996E-08
DataValue, 0.4, -6.0127399999999988E-08
DataValue, 0.44, 5.43978E-08
DataValue, 0.48000000000000004, -4.33224E-08
DataValue, 0.52, 3.30804E-08
DataValue, 0.56, -1.4161599999999998E-08
DataValue, 0.6, -3.8487999999999994E-08
DataValue, 0.64, 5.4389399999999993E-08
DataValue, 0.68, -5.6545399999999996E-08
DataValue, 0.72000000000000008, 5.8742799999999994E-08
DataValue, 0.76, -5.8287999999999992E-08
DataValue, 0.8, 5.96116E-08
DataValue, 0.84000000000000008, -5.9253199999999992E-08
DataValue, 0.88, 6.04974E-08
DataValue, 0.92, -5.3013399999999995E-08
DataValue, 0.96000000000000008, 5.4982599999999995E-08
DataValue, 1, -5.3192999999999992E-08
DataValue, 1.04, 3.76844E-08
DataValue, 1.08, -4.0317199999999994E-08
DataValue, 1.12, 3.7340599999999995E-08
DataValue, 1.1600000000000001, -4.01364E-08
DataValue, 1.2, 4.2608399999999995E-08
DataValue, 1.24, -2.9257399999999997E-08
DataValue, 1.28, 3.3422E-08
DataValue, 1.32, -3.6364599999999993E-08
DataValue, 1.36, 3.1992999999999994E-08
DataValue, 1.4000000000000001, -3.52288E-08
DataValue, 1.4400000000000002, 3.5352799999999995E-08
DataValue, 1.48, -8.8756E-09
DataValue, 1.52, -4.54988E-08
DataValue, 1.56, 3.96662E-08
DataValue, 1.6, -5.5975599999999996E-08
DataValue, 1.6400000000000001, 4.98896E-08
DataValue, 1.6800000000000002, -3.9610199999999993E-08
DataValue, 1.72, 6.03922E-08
DataValue, 1.76, -5.56676E-08
DataValue, 1.8, 4.72636E-08
DataValue, 1.84, -3.9316E-08
DataValue, 1.8800000000000001, 4.1973599999999994E-08
DataValue, 1.9200000000000002, -2.6400999999999996E-08
DataValue, 1.9600000000000002, -2.8104999999999996E-08
DataValue, 2, 4.7865199999999996E-08