
SetupTitle, I/V Sweep
PrimitiveTest, I/V Sweep
TestParameter, Context.MainFrame, B1500A
TestParameter, Channel.UnitType, SMU, SMU, SMU, SMU, SMU
TestParameter, Channel.Unit, SMU1:HP, SMU2:MP, SMU3:MP, SMU4:MP, SMU5:MP
TestParameter, Channel.IName, I, IDD1, IDD2, ISS, IPP
TestParameter, Channel.VName, V, VDD1, VDD2, VSS, VPP
TestParameter, Channel.Mode, V, V, V, V, V
TestParameter, Channel.Func, VAR1, CONST, CONST, CONST, CONST
TestParameter, Channel.Index, 
TestParameter, Channel.Time, 
TestParameter, Measurement.Port.Unit, SMU1:HP, SMU2:MP, SMU3:MP, SMU4:MP, SMU5:MP
TestParameter, Measurement.Port.SeriesResistor, NONE, NONE, NONE, NONE, NONE
TestParameter, Measurement.Port.Filter, ON, ON, ON, ON, ON
TestParameter, Measurement.Port.OutputVoltageComparison, 0, 0, 0, 0, 0
TestParameter, Measurement.Primary.Locus, Single
TestParameter, Measurement.Primary.Scale, LINEAR
TestParameter, Measurement.Primary.Start, -2
TestParameter, Measurement.Primary.Stop, 2
TestParameter, Measurement.Primary.Step, 0.04
TestParameter, Measurement.Primary.Compliance, 0.1
TestParameter, Measurement.Primary.PowerCompliance, 0
TestParameter, Measurement.Aborting.Condition, CONTINUE AT ANY
TestParameter, Measurement.PostOutput.Value, START
TestParameter, Measurement.PostOutput.Retention, OFF
TestParameter, Measurement.Bias.Source, -2, 1.8, 1.1, 0, 0
TestParameter, Measurement.Bias.Compliance, 0.1, 0.1, 0.1, 0.1, 0.1
TestParameter, Measurement.Monitor.Unit, SMU1:HP, SMU2:MP, SMU3:MP, SMU4:MP, SMU5:MP
TestParameter, Measurement.Monitor.Adc, HR ADC, HR ADC, HR ADC, HR ADC, HR ADC
TestParameter, Measurement.Monitor.Measurement, Compliance Side, Compliance Side, Compliance Side, Compliance Side, Compliance Side
TestParameter, Measurement.Monitor.RangingMode, LIMITED, LIMITED, LIMITED, LIMITED, LIMITED
TestParameter, Measurement.Monitor.RangeBoundary, 1nA, 1nA, 1nA, 1nA, 1nA
TestParameter, Measurement.Monitor.RangeRating, BY FULL RANGE, BY FULL RANGE, BY FULL RANGE, BY FULL RANGE, BY FULL RANGE
TestParameter, Measurement.Monitor.RangeRatingCoeff, 50, 50, 50, 50, 50
TestParameter, Measurement.Timing.Hold, 0
TestParameter, Measurement.Timing.Delay, 0
TestParameter, Measurement.Adc.HighSpeed.Mode, AUTO
TestParameter, Measurement.Adc.HighSpeed.Coeff, 1
TestParameter, Measurement.Adc.HighResolution.AutoZero, OFF
TestParameter, Measurement.Adc.HighResolution.Mode, AUTO
TestParameter, Measurement.Adc.HighResolution.Coeff, 6
TestParameter, Measurement.WaitTime.Source.Coeff, 1
TestParameter, Measurement.WaitTime.Source.Offset, 0
TestParameter, Measurement.WaitTime.Monitor.Coeff, 1
TestParameter, Measurement.WaitTime.Monitor.Offset, 0
TestParameter, Output.Graph.Enabled, true
TestParameter, Output.Graph.AutoScaling, false
TestParameter, Output.Graph.XAxis.Data, V
TestParameter, Output.Graph.XAxis.Scale, Linear
TestParameter, Output.Graph.XAxis.Left, -2
TestParameter, Output.Graph.XAxis.Right, 2
TestParameter, Output.Graph.XAxis.RunTimeAutoScale, true
TestParameter, Output.Graph.YAxis.Data, I
TestParameter, Output.Graph.YAxis.Scale, Linear
TestParameter, Output.Graph.YAxis.Bottom, -0.1
TestParameter, Output.Graph.YAxis.Top, 0.1
TestParameter, Output.Graph.YAxis.Group, 
TestParameter, Output.Graph.YAxis.RunTimeAutoScale, true
TestParameter, AutoAnalysis.Interpolation, false
TestParameter, AutoAnalysis.Var2StepCount, 1
TestParameter, AutoAnalysis.Var2StepScript, 
TestParameter, AutoAnalysis.Line1.Enabled, false
TestParameter, AutoAnalysis.Line1.Type, 1
TestParameter, AutoAnalysis.Line1.Fix, True
TestParameter, AutoAnalysis.Line1.YAxis, 0
TestParameter, AutoAnalysis.Line1.Point1.Type, 0
TestParameter, AutoAnalysis.Line1.Point1.XY.X, 
TestParameter, AutoAnalysis.Line1.Point1.XY.Y, 
TestParameter, AutoAnalysis.Line1.Point1.Data.Var, 
TestParameter, AutoAnalysis.Line1.Point1.Data.Condition, 
TestParameter, AutoAnalysis.Line1.Point1.Data.Start, false
TestParameter, AutoAnalysis.Line1.Point1.Data.StartVar, 
TestParameter, AutoAnalysis.Line1.Point1.Data.StartCondition, 
TestParameter, AutoAnalysis.Line1.Point2.Type, 0
TestParameter, AutoAnalysis.Line1.Point2.XY.X, 
TestParameter, AutoAnalysis.Line1.Point2.XY.Y, 
TestParameter, AutoAnalysis.Line1.Point2.Data.Var, 
TestParameter, AutoAnalysis.Line1.Point2.Data.Condition, 
TestParameter, AutoAnalysis.Line1.Point2.Data.Start, false
TestParameter, AutoAnalysis.Line1.Point2.Data.StartVar, 
TestParameter, AutoAnalysis.Line1.Point2.Data.StartCondition, 
TestParameter, AutoAnalysis.Line1.GradientExpr, 0
TestParameter, AutoAnalysis.Line2.Enabled, false
TestParameter, AutoAnalysis.Line2.Type, 1
TestParameter, AutoAnalysis.Line2.Fix, True
TestParameter, AutoAnalysis.Line2.YAxis, 0
TestParameter, AutoAnalysis.Line2.Point1.Type, 0
TestParameter, AutoAnalysis.Line2.Point1.XY.X, 
TestParameter, AutoAnalysis.Line2.Point1.XY.Y, 
TestParameter, AutoAnalysis.Line2.Point1.Data.Var, 
TestParameter, AutoAnalysis.Line2.Point1.Data.Condition, 
TestParameter, AutoAnalysis.Line2.Point1.Data.Start, false
TestParameter, AutoAnalysis.Line2.Point1.Data.StartVar, 
TestParameter, AutoAnalysis.Line2.Point1.Data.StartCondition, 
TestParameter, AutoAnalysis.Line2.Point2.Type, 0
TestParameter, AutoAnalysis.Line2.Point2.XY.X, 
TestParameter, AutoAnalysis.Line2.Point2.XY.Y, 
TestParameter, AutoAnalysis.Line2.Point2.Data.Var, 
TestParameter, AutoAnalysis.Line2.Point2.Data.Condition, 
TestParameter, AutoAnalysis.Line2.Point2.Data.Start, false
TestParameter, AutoAnalysis.Line2.Point2.Data.StartVar, 
TestParameter, AutoAnalysis.Line2.Point2.Data.StartCondition, 
TestParameter, AutoAnalysis.Line2.GradientExpr, 0
TestParameter, AutoAnalysis.Marker.Enabled, false
TestParameter, AutoAnalysis.Marker.Data.Var, 
TestParameter, AutoAnalysis.Marker.Data.Condition, 
TestParameter, AutoAnalysis.Marker.Data.Start, false
TestParameter, AutoAnalysis.Marker.Data.StartVar, 
TestParameter, AutoAnalysis.Marker.Data.StartCondition, 
MetaData, TestRecord.EntryPoint, true
MetaData, TestRecord.RecordTime, 10/19/2022 11:17:02
MetaData, TestRecord.TestTarget, 
MetaData, TestRecord.IterationIndex, 173
MetaData, TestRecord.Preservation, true
MetaData, TestRecord.Flag, 
MetaData, TestRecord.Remarks, 
MetaData, TestRecord.LinkKey, b33ef7c1-0114-47e1-b0de-261c156365af
MetaData, TestRecord.Parameters, 
Dimension1, 101, 101
Dimension2, 1, 1
DataName, V, I
DataValue, -2, 5.4388599999999996E-08
DataValue, -1.9600000000000002, -5.6858999999999993E-08
DataValue, -1.9200000000000002, 5.8607999999999991E-08
DataValue, -1.8800000000000001, -5.984179999999999E-08
DataValue, -1.84, 5.5756599999999993E-08
DataValue, -1.8, -4.0592799999999994E-08
DataValue, -1.76, 5.9309399999999994E-08
DataValue, -1.72, -5.58606E-08
DataValue, -1.6800000000000002, 4.67512E-08
DataValue, -1.6400000000000001, -3.7110799999999996E-08
DataValue, -1.6, 5.977399999999999E-08
DataValue, -1.56, -5.52252E-08
DataValue, -1.52, 4.4269E-08
DataValue, -1.48, -3.37016E-08
DataValue, -1.4400000000000002, -2.2809E-08
DataValue, -1.4000000000000001, 3.8235399999999993E-08
DataValue, -1.36, -5.4216999999999995E-08
DataValue, -1.32, 5.8741599999999996E-08
DataValue, -1.28, -5.9582799999999994E-08
DataValue, -1.24, 5.4312199999999994E-08
DataValue, -1.2, -1.9247999999999998E-08
DataValue, -1.1600000000000001, -3.0923E-08
DataValue, -1.12, 4.8438999999999995E-08
DataValue, -1.08, -5.5689399999999992E-08
DataValue, -1.04, 5.7179399999999994E-08
DataValue, -1, -5.91538E-08
DataValue, -0.96000000000000008, 5.9573599999999993E-08
DataValue, -0.92, -5.9175399999999994E-08
DataValue, -0.88, 5.6696599999999993E-08
DataValue, -0.84000000000000008, -4.8614999999999996E-08
DataValue, -0.8, 3.96278E-08
DataValue, -0.76, -2.4373799999999996E-08
DataValue, -0.72000000000000008, -3.0374799999999995E-08
DataValue, -0.68, 4.8018599999999993E-08
DataValue, -0.64, -5.3928399999999993E-08
DataValue, -0.6, 5.6614399999999995E-08
DataValue, -0.56, -5.9225799999999993E-08
DataValue, -0.52, 6.0225799999999989E-08
DataValue, -0.48000000000000004, -5.5539999999999993E-08
DataValue, -0.44, 5.97678E-08
DataValue, -0.4, -5.33282E-08
DataValue, -0.36000000000000004, 4.32168E-08
DataValue, -0.32, -2.98988E-08
DataValue, -0.28, -2.5941999999999998E-08
DataValue, -0.24000000000000002, 4.1511999999999995E-08
DataValue, -0.2, -5.5831399999999994E-08
DataValue, -0.16, 5.72786E-08
DataValue, -0.12000000000000001, -5.8840599999999996E-08
DataValue, -0.08, 5.1693399999999994E-08
DataValue, -0.04, -5.5874799999999992E-08
DataValue, 0, 5.9518199999999995E-08
DataValue, 0.04, -5.5847799999999994E-08
DataValue, 0.08, 4.7347399999999996E-08
DataValue, 0.12000000000000001, -3.74848E-08
DataValue, 0.16, 6.02352E-08
DataValue, 0.2, -5.5275599999999996E-08
DataValue, 0.24000000000000002, 4.5187999999999994E-08
DataValue, 0.28, -3.4517E-08
DataValue, 0.32, 5.9548199999999996E-08
DataValue, 0.36000000000000004, -5.2874399999999996E-08
DataValue, 0.4, 4.29112E-08
DataValue, 0.44, -3.09696E-08
DataValue, 0.48000000000000004, -2.4304199999999998E-08
DataValue, 0.52, 4.03852E-08
DataValue, 0.56, -5.45794E-08
DataValue, 0.6, 5.6449199999999996E-08
DataValue, 0.64, -5.9439199999999991E-08
DataValue, 0.68, 6.0175E-08
DataValue, 0.72000000000000008, -5.5010999999999995E-08
DataValue, 0.76, 4.44888E-08
DataValue, 0.8, -3.49648E-08
DataValue, 0.84000000000000008, 5.1987599999999994E-08
DataValue, 0.88, -5.56988E-08
DataValue, 0.92, 6.0051599999999992E-08
DataValue, 0.96000000000000008, -5.3022599999999996E-08
DataValue, 1, 4.36362E-08
DataValue, 1.04, -3.0766399999999994E-08
DataValue, 1.08, -2.39418E-08
DataValue, 1.12, 4.0383799999999995E-08
DataValue, 1.1600000000000001, -5.4477999999999993E-08
DataValue, 1.2, 5.9401399999999992E-08
DataValue, 1.24, -5.9528199999999993E-08
DataValue, 1.28, 5.6209799999999994E-08
DataValue, 1.32, -4.72352E-08
DataValue, 1.36, 4.2008599999999994E-08
DataValue, 1.4000000000000001, -4.27614E-08
DataValue, 1.4400000000000002, 4.5112399999999996E-08
DataValue, 1.48, -3.39208E-08
DataValue, 1.52, 3.84062E-08
DataValue, 1.56, -4.0285399999999995E-08
DataValue, 1.6, 1.4075999999999998E-08
DataValue, 1.6400000000000001, -1.7611599999999997E-08
DataValue, 1.6800000000000002, 5.5788799999999993E-08
DataValue, 1.72, -5.5869799999999992E-08
DataValue, 1.76, 5.5632399999999993E-08
DataValue, 1.8, -5.6496799999999995E-08
DataValue, 1.84, 5.6507199999999995E-08
DataValue, 1.8800000000000001, -5.5736799999999994E-08
DataValue, 1.9200000000000002, 5.9171599999999994E-08
DataValue, 1.9600000000000002, -5.8946599999999997E-08
DataValue, 2, 5.9580199999999992E-08