
SetupTitle, I/V Sweep
PrimitiveTest, I/V Sweep
TestParameter, Context.MainFrame, B1500A
TestParameter, Channel.UnitType, SMU, SMU, SMU, SMU, SMU
TestParameter, Channel.Unit, SMU1:HP, SMU2:MP, SMU3:MP, SMU4:MP, SMU5:MP
TestParameter, Channel.IName, I, IDD1, IDD2, ISS, IPP
TestParameter, Channel.VName, V, VDD1, VDD2, VSS, VPP
TestParameter, Channel.Mode, V, V, V, V, V
TestParameter, Channel.Func, VAR1, CONST, CONST, CONST, CONST
TestParameter, Channel.Index, 
TestParameter, Channel.Time, 
TestParameter, Measurement.Port.Unit, SMU1:HP, SMU2:MP, SMU3:MP, SMU4:MP, SMU5:MP
TestParameter, Measurement.Port.SeriesResistor, NONE, NONE, NONE, NONE, NONE
TestParameter, Measurement.Port.Filter, ON, ON, ON, ON, ON
TestParameter, Measurement.Port.OutputVoltageComparison, 0, 0, 0, 0, 0
TestParameter, Measurement.Primary.Locus, Single
TestParameter, Measurement.Primary.Scale, LINEAR
TestParameter, Measurement.Primary.Start, -2
TestParameter, Measurement.Primary.Stop, 2
TestParameter, Measurement.Primary.Step, 0.04
TestParameter, Measurement.Primary.Compliance, 0.1
TestParameter, Measurement.Primary.PowerCompliance, 0
TestParameter, Measurement.Aborting.Condition, CONTINUE AT ANY
TestParameter, Measurement.PostOutput.Value, START
TestParameter, Measurement.PostOutput.Retention, OFF
TestParameter, Measurement.Bias.Source, -2, 1.8, 1.1, 0, 0
TestParameter, Measurement.Bias.Compliance, 0.1, 0.1, 0.1, 0.1, 0.1
TestParameter, Measurement.Monitor.Unit, SMU1:HP, SMU2:MP, SMU3:MP, SMU4:MP, SMU5:MP
TestParameter, Measurement.Monitor.Adc, HR ADC, HR ADC, HR ADC, HR ADC, HR ADC
TestParameter, Measurement.Monitor.Measurement, Compliance Side, Compliance Side, Compliance Side, Compliance Side, Compliance Side
TestParameter, Measurement.Monitor.RangingMode, LIMITED, LIMITED, LIMITED, LIMITED, LIMITED
TestParameter, Measurement.Monitor.RangeBoundary, 1nA, 1nA, 1nA, 1nA, 1nA
TestParameter, Measurement.Monitor.RangeRating, BY FULL RANGE, BY FULL RANGE, BY FULL RANGE, BY FULL RANGE, BY FULL RANGE
TestParameter, Measurement.Monitor.RangeRatingCoeff, 50, 50, 50, 50, 50
TestParameter, Measurement.Timing.Hold, 0
TestParameter, Measurement.Timing.Delay, 0
TestParameter, Measurement.Adc.HighSpeed.Mode, AUTO
TestParameter, Measurement.Adc.HighSpeed.Coeff, 1
TestParameter, Measurement.Adc.HighResolution.AutoZero, OFF
TestParameter, Measurement.Adc.HighResolution.Mode, AUTO
TestParameter, Measurement.Adc.HighResolution.Coeff, 6
TestParameter, Measurement.WaitTime.Source.Coeff, 1
TestParameter, Measurement.WaitTime.Source.Offset, 0
TestParameter, Measurement.WaitTime.Monitor.Coeff, 1
TestParameter, Measurement.WaitTime.Monitor.Offset, 0
TestParameter, Output.Graph.Enabled, true
TestParameter, Output.Graph.AutoScaling, false
TestParameter, Output.Graph.XAxis.Data, V
TestParameter, Output.Graph.XAxis.Scale, Linear
TestParameter, Output.Graph.XAxis.Left, -2
TestParameter, Output.Graph.XAxis.Right, 2
TestParameter, Output.Graph.XAxis.RunTimeAutoScale, true
TestParameter, Output.Graph.YAxis.Data, I
TestParameter, Output.Graph.YAxis.Scale, Linear
TestParameter, Output.Graph.YAxis.Bottom, -0.1
TestParameter, Output.Graph.YAxis.Top, 0.1
TestParameter, Output.Graph.YAxis.Group, 
TestParameter, Output.Graph.YAxis.RunTimeAutoScale, true
TestParameter, AutoAnalysis.Interpolation, false
TestParameter, AutoAnalysis.Var2StepCount, 1
TestParameter, AutoAnalysis.Var2StepScript, 
TestParameter, AutoAnalysis.Line1.Enabled, false
TestParameter, AutoAnalysis.Line1.Type, 1
TestParameter, AutoAnalysis.Line1.Fix, True
TestParameter, AutoAnalysis.Line1.YAxis, 0
TestParameter, AutoAnalysis.Line1.Point1.Type, 0
TestParameter, AutoAnalysis.Line1.Point1.XY.X, 
TestParameter, AutoAnalysis.Line1.Point1.XY.Y, 
TestParameter, AutoAnalysis.Line1.Point1.Data.Var, 
TestParameter, AutoAnalysis.Line1.Point1.Data.Condition, 
TestParameter, AutoAnalysis.Line1.Point1.Data.Start, false
TestParameter, AutoAnalysis.Line1.Point1.Data.StartVar, 
TestParameter, AutoAnalysis.Line1.Point1.Data.StartCondition, 
TestParameter, AutoAnalysis.Line1.Point2.Type, 0
TestParameter, AutoAnalysis.Line1.Point2.XY.X, 
TestParameter, AutoAnalysis.Line1.Point2.XY.Y, 
TestParameter, AutoAnalysis.Line1.Point2.Data.Var, 
TestParameter, AutoAnalysis.Line1.Point2.Data.Condition, 
TestParameter, AutoAnalysis.Line1.Point2.Data.Start, false
TestParameter, AutoAnalysis.Line1.Point2.Data.StartVar, 
TestParameter, AutoAnalysis.Line1.Point2.Data.StartCondition, 
TestParameter, AutoAnalysis.Line1.GradientExpr, 0
TestParameter, AutoAnalysis.Line2.Enabled, false
TestParameter, AutoAnalysis.Line2.Type, 1
TestParameter, AutoAnalysis.Line2.Fix, True
TestParameter, AutoAnalysis.Line2.YAxis, 0
TestParameter, AutoAnalysis.Line2.Point1.Type, 0
TestParameter, AutoAnalysis.Line2.Point1.XY.X, 
TestParameter, AutoAnalysis.Line2.Point1.XY.Y, 
TestParameter, AutoAnalysis.Line2.Point1.Data.Var, 
TestParameter, AutoAnalysis.Line2.Point1.Data.Condition, 
TestParameter, AutoAnalysis.Line2.Point1.Data.Start, false
TestParameter, AutoAnalysis.Line2.Point1.Data.StartVar, 
TestParameter, AutoAnalysis.Line2.Point1.Data.StartCondition, 
TestParameter, AutoAnalysis.Line2.Point2.Type, 0
TestParameter, AutoAnalysis.Line2.Point2.XY.X, 
TestParameter, AutoAnalysis.Line2.Point2.XY.Y, 
TestParameter, AutoAnalysis.Line2.Point2.Data.Var, 
TestParameter, AutoAnalysis.Line2.Point2.Data.Condition, 
TestParameter, AutoAnalysis.Line2.Point2.Data.Start, false
TestParameter, AutoAnalysis.Line2.Point2.Data.StartVar, 
TestParameter, AutoAnalysis.Line2.Point2.Data.StartCondition, 
TestParameter, AutoAnalysis.Line2.GradientExpr, 0
TestParameter, AutoAnalysis.Marker.Enabled, false
TestParameter, AutoAnalysis.Marker.Data.Var, 
TestParameter, AutoAnalysis.Marker.Data.Condition, 
TestParameter, AutoAnalysis.Marker.Data.Start, false
TestParameter, AutoAnalysis.Marker.Data.StartVar, 
TestParameter, AutoAnalysis.Marker.Data.StartCondition, 
MetaData, TestRecord.EntryPoint, true
MetaData, TestRecord.RecordTime, 10/19/2022 11:33:21
MetaData, TestRecord.TestTarget, 
MetaData, TestRecord.IterationIndex, 202
MetaData, TestRecord.Preservation, true
MetaData, TestRecord.Flag, 
MetaData, TestRecord.Remarks, 
MetaData, TestRecord.LinkKey, 87efd4ae-8dfa-4797-91c4-e3ae561e2e31
MetaData, TestRecord.Parameters, 
Dimension1, 101, 101
Dimension2, 1, 1
DataName, V, I
DataValue, -2, -0.10000200000000001
DataValue, -1.9600000000000002, -0.1
DataValue, -1.9200000000000002, -0.1
DataValue, -1.8800000000000001, -0.10000200000000001
DataValue, -1.84, -0.10000200000000001
DataValue, -1.8, -0.10000200000000001
DataValue, -1.76, -0.10000200000000001
DataValue, -1.72, -0.10000200000000001
DataValue, -1.6800000000000002, -0.10000200000000001
DataValue, -1.6400000000000001, -0.1
DataValue, -1.6, -0.10000200000000001
DataValue, -1.56, -0.1
DataValue, -1.52, -0.1
DataValue, -1.48, -0.098916
DataValue, -1.4400000000000002, -0.097036000000000011
DataValue, -1.4000000000000001, -0.095052000000000011
DataValue, -1.36, -0.092824
DataValue, -1.32, -0.090902000000000011
DataValue, -1.28, -0.088944000000000009
DataValue, -1.24, -0.08705
DataValue, -1.2, -0.084878000000000009
DataValue, -1.1600000000000001, -0.082878000000000007
DataValue, -1.12, -0.080916
DataValue, -1.08, -0.078736
DataValue, -1.04, -0.076652000000000012
DataValue, -1, -0.07466
DataValue, -0.96000000000000008, -0.072554000000000007
DataValue, -0.92, -0.070240000000000011
DataValue, -0.88, -0.068296000000000009
DataValue, -0.84000000000000008, -0.066206
DataValue, -0.8, -0.064206
DataValue, -0.76, -0.061964000000000005
DataValue, -0.72000000000000008, -0.060026
DataValue, -0.68, -0.057836000000000005
DataValue, -0.64, -0.05578
DataValue, -0.6, -0.053574000000000004
DataValue, -0.56, -0.051636
DataValue, -0.52, -0.049474000000000004
DataValue, -0.48000000000000004, -0.047212000000000004
DataValue, -0.44, -0.045214000000000004
DataValue, -0.4, -0.043092000000000005
DataValue, -0.36000000000000004, -0.041088000000000006
DataValue, -0.32, -0.038918
DataValue, -0.28, -0.036984
DataValue, -0.24000000000000002, -0.034812
DataValue, -0.2, -0.032712000000000005
DataValue, -0.16, -0.025906000000000002
DataValue, -0.12000000000000001, -0.02425
DataValue, -0.08, -0.02229
DataValue, -0.04, -0.020560000000000002
DataValue, 0, -0.011500000000000002
DataValue, 0.04, -0.010158
DataValue, 0.08, -0.0085758
DataValue, 0.12000000000000001, -0.0079498
DataValue, 0.16, -0.0061896
DataValue, 0.2, -0.0055818000000000005
DataValue, 0.24000000000000002, -0.0048906
DataValue, 0.28, -0.0043536
DataValue, 0.32, -0.0036682
DataValue, 0.36000000000000004, -0.003229
DataValue, 0.4, -0.0026486
DataValue, 0.44, -0.0022362000000000003
DataValue, 0.48000000000000004, -0.001874
DataValue, 0.52, -0.0015928000000000001
DataValue, 0.56, -0.0013486
DataValue, 0.6, -0.0011672
DataValue, 0.64, -0.0010098
DataValue, 0.68, -0.00086716000000000007
DataValue, 0.72000000000000008, -0.00073252000000000007
DataValue, 0.76, -0.00059560000000000006
DataValue, 0.8, -0.0004735
DataValue, 0.84000000000000008, -0.00035638
DataValue, 0.88, -0.00024616000000000004
DataValue, 0.92, -0.00015188000000000002
DataValue, 0.96000000000000008, -7.7764E-05
DataValue, 1, -3.0220000000000002E-05
DataValue, 1.04, -8.9109000000000014E-06
DataValue, 1.08, -2.0559E-06
DataValue, 1.12, 5.0776799999999994E-08
DataValue, 1.1600000000000001, 9.4124E-07
DataValue, 1.2, 1.6010000000000002E-06
DataValue, 1.24, 2.1966000000000003E-06
DataValue, 1.28, 2.7720000000000003E-06
DataValue, 1.32, 3.5850000000000004E-06
DataValue, 1.36, 5.1835000000000004E-06
DataValue, 1.4000000000000001, 8.8417E-06
DataValue, 1.4400000000000002, 1.5702E-05
DataValue, 1.48, 2.2948E-05
DataValue, 1.52, 2.7418E-05
DataValue, 1.56, 3.125E-05
DataValue, 1.6, 3.5454E-05
DataValue, 1.6400000000000001, 4.0856E-05
DataValue, 1.6800000000000002, 4.8208E-05
DataValue, 1.72, 5.812E-05
DataValue, 1.76, 7.1862E-05
DataValue, 1.8, 9.2598E-05
DataValue, 1.84, 0.00012594
DataValue, 1.8800000000000001, 0.00018054
DataValue, 1.9200000000000002, 0.00027008
DataValue, 1.9600000000000002, 0.0004062
DataValue, 2, 0.00058872