
SetupTitle, I/V Sweep
PrimitiveTest, I/V Sweep
TestParameter, Context.MainFrame, B1500A
TestParameter, Channel.UnitType, SMU, SMU, SMU, SMU, SMU
TestParameter, Channel.Unit, SMU1:HP, SMU2:MP, SMU3:MP, SMU4:MP, SMU5:MP
TestParameter, Channel.IName, I, IDD1, IDD2, ISS, IPP
TestParameter, Channel.VName, V, VDD1, VDD2, VSS, VPP
TestParameter, Channel.Mode, V, V, V, V, V
TestParameter, Channel.Func, VAR1, CONST, CONST, CONST, CONST
TestParameter, Channel.Index, 
TestParameter, Channel.Time, 
TestParameter, Measurement.Port.Unit, SMU1:HP, SMU2:MP, SMU3:MP, SMU4:MP, SMU5:MP
TestParameter, Measurement.Port.SeriesResistor, NONE, NONE, NONE, NONE, NONE
TestParameter, Measurement.Port.Filter, ON, ON, ON, ON, ON
TestParameter, Measurement.Port.OutputVoltageComparison, 0, 0, 0, 0, 0
TestParameter, Measurement.Primary.Locus, Single
TestParameter, Measurement.Primary.Scale, LINEAR
TestParameter, Measurement.Primary.Start, -2
TestParameter, Measurement.Primary.Stop, 2
TestParameter, Measurement.Primary.Step, 0.04
TestParameter, Measurement.Primary.Compliance, 0.1
TestParameter, Measurement.Primary.PowerCompliance, 0
TestParameter, Measurement.Aborting.Condition, CONTINUE AT ANY
TestParameter, Measurement.PostOutput.Value, START
TestParameter, Measurement.PostOutput.Retention, OFF
TestParameter, Measurement.Bias.Source, -2, 1.8, 1.1, 0, 0
TestParameter, Measurement.Bias.Compliance, 0.1, 0.1, 0.1, 0.1, 0.1
TestParameter, Measurement.Monitor.Unit, SMU1:HP, SMU2:MP, SMU3:MP, SMU4:MP, SMU5:MP
TestParameter, Measurement.Monitor.Adc, HR ADC, HR ADC, HR ADC, HR ADC, HR ADC
TestParameter, Measurement.Monitor.Measurement, Compliance Side, Compliance Side, Compliance Side, Compliance Side, Compliance Side
TestParameter, Measurement.Monitor.RangingMode, LIMITED, LIMITED, LIMITED, LIMITED, LIMITED
TestParameter, Measurement.Monitor.RangeBoundary, 1nA, 1nA, 1nA, 1nA, 1nA
TestParameter, Measurement.Monitor.RangeRating, BY FULL RANGE, BY FULL RANGE, BY FULL RANGE, BY FULL RANGE, BY FULL RANGE
TestParameter, Measurement.Monitor.RangeRatingCoeff, 50, 50, 50, 50, 50
TestParameter, Measurement.Timing.Hold, 0
TestParameter, Measurement.Timing.Delay, 0
TestParameter, Measurement.Adc.HighSpeed.Mode, AUTO
TestParameter, Measurement.Adc.HighSpeed.Coeff, 1
TestParameter, Measurement.Adc.HighResolution.AutoZero, OFF
TestParameter, Measurement.Adc.HighResolution.Mode, AUTO
TestParameter, Measurement.Adc.HighResolution.Coeff, 6
TestParameter, Measurement.WaitTime.Source.Coeff, 1
TestParameter, Measurement.WaitTime.Source.Offset, 0
TestParameter, Measurement.WaitTime.Monitor.Coeff, 1
TestParameter, Measurement.WaitTime.Monitor.Offset, 0
TestParameter, Output.Graph.Enabled, true
TestParameter, Output.Graph.AutoScaling, false
TestParameter, Output.Graph.XAxis.Data, V
TestParameter, Output.Graph.XAxis.Scale, Linear
TestParameter, Output.Graph.XAxis.Left, -2
TestParameter, Output.Graph.XAxis.Right, 2
TestParameter, Output.Graph.XAxis.RunTimeAutoScale, true
TestParameter, Output.Graph.YAxis.Data, I
TestParameter, Output.Graph.YAxis.Scale, Linear
TestParameter, Output.Graph.YAxis.Bottom, -0.1
TestParameter, Output.Graph.YAxis.Top, 0.1
TestParameter, Output.Graph.YAxis.Group, 
TestParameter, Output.Graph.YAxis.RunTimeAutoScale, true
TestParameter, AutoAnalysis.Interpolation, false
TestParameter, AutoAnalysis.Var2StepCount, 1
TestParameter, AutoAnalysis.Var2StepScript, 
TestParameter, AutoAnalysis.Line1.Enabled, false
TestParameter, AutoAnalysis.Line1.Type, 1
TestParameter, AutoAnalysis.Line1.Fix, True
TestParameter, AutoAnalysis.Line1.YAxis, 0
TestParameter, AutoAnalysis.Line1.Point1.Type, 0
TestParameter, AutoAnalysis.Line1.Point1.XY.X, 
TestParameter, AutoAnalysis.Line1.Point1.XY.Y, 
TestParameter, AutoAnalysis.Line1.Point1.Data.Var, 
TestParameter, AutoAnalysis.Line1.Point1.Data.Condition, 
TestParameter, AutoAnalysis.Line1.Point1.Data.Start, false
TestParameter, AutoAnalysis.Line1.Point1.Data.StartVar, 
TestParameter, AutoAnalysis.Line1.Point1.Data.StartCondition, 
TestParameter, AutoAnalysis.Line1.Point2.Type, 0
TestParameter, AutoAnalysis.Line1.Point2.XY.X, 
TestParameter, AutoAnalysis.Line1.Point2.XY.Y, 
TestParameter, AutoAnalysis.Line1.Point2.Data.Var, 
TestParameter, AutoAnalysis.Line1.Point2.Data.Condition, 
TestParameter, AutoAnalysis.Line1.Point2.Data.Start, false
TestParameter, AutoAnalysis.Line1.Point2.Data.StartVar, 
TestParameter, AutoAnalysis.Line1.Point2.Data.StartCondition, 
TestParameter, AutoAnalysis.Line1.GradientExpr, 0
TestParameter, AutoAnalysis.Line2.Enabled, false
TestParameter, AutoAnalysis.Line2.Type, 1
TestParameter, AutoAnalysis.Line2.Fix, True
TestParameter, AutoAnalysis.Line2.YAxis, 0
TestParameter, AutoAnalysis.Line2.Point1.Type, 0
TestParameter, AutoAnalysis.Line2.Point1.XY.X, 
TestParameter, AutoAnalysis.Line2.Point1.XY.Y, 
TestParameter, AutoAnalysis.Line2.Point1.Data.Var, 
TestParameter, AutoAnalysis.Line2.Point1.Data.Condition, 
TestParameter, AutoAnalysis.Line2.Point1.Data.Start, false
TestParameter, AutoAnalysis.Line2.Point1.Data.StartVar, 
TestParameter, AutoAnalysis.Line2.Point1.Data.StartCondition, 
TestParameter, AutoAnalysis.Line2.Point2.Type, 0
TestParameter, AutoAnalysis.Line2.Point2.XY.X, 
TestParameter, AutoAnalysis.Line2.Point2.XY.Y, 
TestParameter, AutoAnalysis.Line2.Point2.Data.Var, 
TestParameter, AutoAnalysis.Line2.Point2.Data.Condition, 
TestParameter, AutoAnalysis.Line2.Point2.Data.Start, false
TestParameter, AutoAnalysis.Line2.Point2.Data.StartVar, 
TestParameter, AutoAnalysis.Line2.Point2.Data.StartCondition, 
TestParameter, AutoAnalysis.Line2.GradientExpr, 0
TestParameter, AutoAnalysis.Marker.Enabled, false
TestParameter, AutoAnalysis.Marker.Data.Var, 
TestParameter, AutoAnalysis.Marker.Data.Condition, 
TestParameter, AutoAnalysis.Marker.Data.Start, false
TestParameter, AutoAnalysis.Marker.Data.StartVar, 
TestParameter, AutoAnalysis.Marker.Data.StartCondition, 
MetaData, TestRecord.EntryPoint, true
MetaData, TestRecord.RecordTime, 10/19/2022 11:30:36
MetaData, TestRecord.TestTarget, 
MetaData, TestRecord.IterationIndex, 194
MetaData, TestRecord.Preservation, true
MetaData, TestRecord.Flag, 
MetaData, TestRecord.Remarks, 
MetaData, TestRecord.LinkKey, 0a698579-85eb-40c0-ae3c-f2d0e1b74011
MetaData, TestRecord.Parameters, 
Dimension1, 101, 101
Dimension2, 1, 1
DataName, V, I
DataValue, -2, -0.10000200000000001
DataValue, -1.9600000000000002, -0.10000200000000001
DataValue, -1.9200000000000002, -0.1
DataValue, -1.8800000000000001, -0.1
DataValue, -1.84, -0.10000200000000001
DataValue, -1.8, -0.10000200000000001
DataValue, -1.76, -0.10000200000000001
DataValue, -1.72, -0.10000200000000001
DataValue, -1.6800000000000002, -0.10000200000000001
DataValue, -1.6400000000000001, -0.098788000000000015
DataValue, -1.6, -0.097004
DataValue, -1.56, -0.095048000000000007
DataValue, -1.52, -0.093224
DataValue, -1.48, -0.091438
DataValue, -1.4400000000000002, -0.089518000000000014
DataValue, -1.4000000000000001, -0.087686000000000014
DataValue, -1.36, -0.085754000000000011
DataValue, -1.32, -0.083938000000000013
DataValue, -1.28, -0.081918
DataValue, -1.24, -0.08006400000000001
DataValue, -1.2, -0.078238
DataValue, -1.1600000000000001, -0.076390000000000013
DataValue, -1.12, -0.073666000000000009
DataValue, -1.08, -0.071916000000000008
DataValue, -1.04, -0.070002000000000009
DataValue, -1, -0.068046000000000009
DataValue, -0.96000000000000008, -0.066
DataValue, -0.92, -0.064090000000000008
DataValue, -0.88, -0.062038
DataValue, -0.84000000000000008, -0.060054
DataValue, -0.8, -0.058028
DataValue, -0.76, -0.056020000000000007
DataValue, -0.72000000000000008, -0.053934
DataValue, -0.68, -0.051744000000000005
DataValue, -0.64, -0.049706000000000007
DataValue, -0.6, -0.047672000000000006
DataValue, -0.56, -0.045592
DataValue, -0.52, -0.043464
DataValue, -0.48000000000000004, -0.04134
DataValue, -0.44, -0.039208000000000007
DataValue, -0.4, -0.0371
DataValue, -0.36000000000000004, -0.034878000000000006
DataValue, -0.32, -0.032772
DataValue, -0.28, -0.030616000000000004
DataValue, -0.24000000000000002, -0.028430000000000004
DataValue, -0.2, -0.025832
DataValue, -0.16, -0.023736000000000004
DataValue, -0.12000000000000001, -0.021556000000000002
DataValue, -0.08, -0.019318000000000002
DataValue, -0.04, -0.017066
DataValue, 0, -0.014680000000000002
DataValue, 0.04, -0.012366
DataValue, 0.08, -0.0099454
DataValue, 0.12000000000000001, -0.0077038
DataValue, 0.16, -0.0055542000000000005
DataValue, 0.2, -0.0035932
DataValue, 0.24000000000000002, -0.0019528
DataValue, 0.28, -0.0008195600000000001
DataValue, 0.32, -0.00027192000000000004
DataValue, 0.36000000000000004, -9.3212E-05
DataValue, 0.4, -4.062E-05
DataValue, 0.44, -2.1392E-05
DataValue, 0.48000000000000004, -1.1592E-05
DataValue, 0.52, -5.9116E-06
DataValue, 0.56, -2.8826E-06
DataValue, 0.6, -1.3574000000000001E-06
DataValue, 0.64, -5.823E-07
DataValue, 0.68, -2.3702E-07
DataValue, 0.72000000000000008, -7.8861599999999987E-08
DataValue, 0.76, -2.62944E-08
DataValue, 0.8, -6.593E-09
DataValue, 0.84000000000000008, -2.0787E-09
DataValue, 0.88, -8.4423000000000009E-10
DataValue, 0.92, -5.3219E-10
DataValue, 0.96000000000000008, -4.4380000000000006E-10
DataValue, 1, -3.57E-10
DataValue, 1.04, -3.0675E-10
DataValue, 1.08, -1.4812E-10
DataValue, 1.12, 1.615E-10
DataValue, 1.1600000000000001, 9.4501E-10
DataValue, 1.2, 2.4241E-09
DataValue, 1.24, 5.1457E-09
DataValue, 1.28, 9.4927E-09
DataValue, 1.32, 1.6538399999999997E-08
DataValue, 1.36, 2.7311799999999996E-08
DataValue, 1.4000000000000001, 4.30866E-08
DataValue, 1.4400000000000002, 6.54816E-08
DataValue, 1.48, 9.64136E-08
DataValue, 1.52, 1.3846E-07
DataValue, 1.56, 1.9508E-07
DataValue, 1.6, 2.7462E-07
DataValue, 1.6400000000000001, 4.0182E-07
DataValue, 1.6800000000000002, 6.6616E-07
DataValue, 1.72, 1.3621E-06
DataValue, 1.76, 3.6462000000000003E-06
DataValue, 1.8, 1.2964E-05
DataValue, 1.84, 5.009E-05
DataValue, 1.8800000000000001, 0.00018690000000000002
DataValue, 1.9200000000000002, 0.00058878
DataValue, 1.9600000000000002, 0.0014172
DataValue, 2, 0.0026136