
SetupTitle, I/V Sweep
PrimitiveTest, I/V Sweep
TestParameter, Context.MainFrame, B1500A
TestParameter, Channel.UnitType, SMU, SMU, SMU, SMU, SMU
TestParameter, Channel.Unit, SMU1:HP, SMU2:MP, SMU3:MP, SMU4:MP, SMU5:MP
TestParameter, Channel.IName, I, IDD1, IDD2, ISS, IPP
TestParameter, Channel.VName, V, VDD1, VDD2, VSS, VPP
TestParameter, Channel.Mode, V, V, V, V, V
TestParameter, Channel.Func, VAR1, CONST, CONST, CONST, CONST
TestParameter, Channel.Index, 
TestParameter, Channel.Time, 
TestParameter, Measurement.Port.Unit, SMU1:HP, SMU2:MP, SMU3:MP, SMU4:MP, SMU5:MP
TestParameter, Measurement.Port.SeriesResistor, NONE, NONE, NONE, NONE, NONE
TestParameter, Measurement.Port.Filter, ON, ON, ON, ON, ON
TestParameter, Measurement.Port.OutputVoltageComparison, 0, 0, 0, 0, 0
TestParameter, Measurement.Primary.Locus, Single
TestParameter, Measurement.Primary.Scale, LINEAR
TestParameter, Measurement.Primary.Start, -2
TestParameter, Measurement.Primary.Stop, 2
TestParameter, Measurement.Primary.Step, 0.04
TestParameter, Measurement.Primary.Compliance, 0.1
TestParameter, Measurement.Primary.PowerCompliance, 0
TestParameter, Measurement.Aborting.Condition, CONTINUE AT ANY
TestParameter, Measurement.PostOutput.Value, START
TestParameter, Measurement.PostOutput.Retention, OFF
TestParameter, Measurement.Bias.Source, -2, 1.8, 1.1, 0, 0
TestParameter, Measurement.Bias.Compliance, 0.1, 0.1, 0.1, 0.1, 0.1
TestParameter, Measurement.Monitor.Unit, SMU1:HP, SMU2:MP, SMU3:MP, SMU4:MP, SMU5:MP
TestParameter, Measurement.Monitor.Adc, HR ADC, HR ADC, HR ADC, HR ADC, HR ADC
TestParameter, Measurement.Monitor.Measurement, Compliance Side, Compliance Side, Compliance Side, Compliance Side, Compliance Side
TestParameter, Measurement.Monitor.RangingMode, LIMITED, LIMITED, LIMITED, LIMITED, LIMITED
TestParameter, Measurement.Monitor.RangeBoundary, 1nA, 1nA, 1nA, 1nA, 1nA
TestParameter, Measurement.Monitor.RangeRating, BY FULL RANGE, BY FULL RANGE, BY FULL RANGE, BY FULL RANGE, BY FULL RANGE
TestParameter, Measurement.Monitor.RangeRatingCoeff, 50, 50, 50, 50, 50
TestParameter, Measurement.Timing.Hold, 0
TestParameter, Measurement.Timing.Delay, 0
TestParameter, Measurement.Adc.HighSpeed.Mode, AUTO
TestParameter, Measurement.Adc.HighSpeed.Coeff, 1
TestParameter, Measurement.Adc.HighResolution.AutoZero, OFF
TestParameter, Measurement.Adc.HighResolution.Mode, AUTO
TestParameter, Measurement.Adc.HighResolution.Coeff, 6
TestParameter, Measurement.WaitTime.Source.Coeff, 1
TestParameter, Measurement.WaitTime.Source.Offset, 0
TestParameter, Measurement.WaitTime.Monitor.Coeff, 1
TestParameter, Measurement.WaitTime.Monitor.Offset, 0
TestParameter, Output.Graph.Enabled, true
TestParameter, Output.Graph.AutoScaling, false
TestParameter, Output.Graph.XAxis.Data, V
TestParameter, Output.Graph.XAxis.Scale, Linear
TestParameter, Output.Graph.XAxis.Left, -2
TestParameter, Output.Graph.XAxis.Right, 2
TestParameter, Output.Graph.XAxis.RunTimeAutoScale, true
TestParameter, Output.Graph.YAxis.Data, I
TestParameter, Output.Graph.YAxis.Scale, Linear
TestParameter, Output.Graph.YAxis.Bottom, -0.1
TestParameter, Output.Graph.YAxis.Top, 0.1
TestParameter, Output.Graph.YAxis.Group, 
TestParameter, Output.Graph.YAxis.RunTimeAutoScale, true
TestParameter, AutoAnalysis.Interpolation, false
TestParameter, AutoAnalysis.Var2StepCount, 1
TestParameter, AutoAnalysis.Var2StepScript, 
TestParameter, AutoAnalysis.Line1.Enabled, false
TestParameter, AutoAnalysis.Line1.Type, 1
TestParameter, AutoAnalysis.Line1.Fix, True
TestParameter, AutoAnalysis.Line1.YAxis, 0
TestParameter, AutoAnalysis.Line1.Point1.Type, 0
TestParameter, AutoAnalysis.Line1.Point1.XY.X, 
TestParameter, AutoAnalysis.Line1.Point1.XY.Y, 
TestParameter, AutoAnalysis.Line1.Point1.Data.Var, 
TestParameter, AutoAnalysis.Line1.Point1.Data.Condition, 
TestParameter, AutoAnalysis.Line1.Point1.Data.Start, false
TestParameter, AutoAnalysis.Line1.Point1.Data.StartVar, 
TestParameter, AutoAnalysis.Line1.Point1.Data.StartCondition, 
TestParameter, AutoAnalysis.Line1.Point2.Type, 0
TestParameter, AutoAnalysis.Line1.Point2.XY.X, 
TestParameter, AutoAnalysis.Line1.Point2.XY.Y, 
TestParameter, AutoAnalysis.Line1.Point2.Data.Var, 
TestParameter, AutoAnalysis.Line1.Point2.Data.Condition, 
TestParameter, AutoAnalysis.Line1.Point2.Data.Start, false
TestParameter, AutoAnalysis.Line1.Point2.Data.StartVar, 
TestParameter, AutoAnalysis.Line1.Point2.Data.StartCondition, 
TestParameter, AutoAnalysis.Line1.GradientExpr, 0
TestParameter, AutoAnalysis.Line2.Enabled, false
TestParameter, AutoAnalysis.Line2.Type, 1
TestParameter, AutoAnalysis.Line2.Fix, True
TestParameter, AutoAnalysis.Line2.YAxis, 0
TestParameter, AutoAnalysis.Line2.Point1.Type, 0
TestParameter, AutoAnalysis.Line2.Point1.XY.X, 
TestParameter, AutoAnalysis.Line2.Point1.XY.Y, 
TestParameter, AutoAnalysis.Line2.Point1.Data.Var, 
TestParameter, AutoAnalysis.Line2.Point1.Data.Condition, 
TestParameter, AutoAnalysis.Line2.Point1.Data.Start, false
TestParameter, AutoAnalysis.Line2.Point1.Data.StartVar, 
TestParameter, AutoAnalysis.Line2.Point1.Data.StartCondition, 
TestParameter, AutoAnalysis.Line2.Point2.Type, 0
TestParameter, AutoAnalysis.Line2.Point2.XY.X, 
TestParameter, AutoAnalysis.Line2.Point2.XY.Y, 
TestParameter, AutoAnalysis.Line2.Point2.Data.Var, 
TestParameter, AutoAnalysis.Line2.Point2.Data.Condition, 
TestParameter, AutoAnalysis.Line2.Point2.Data.Start, false
TestParameter, AutoAnalysis.Line2.Point2.Data.StartVar, 
TestParameter, AutoAnalysis.Line2.Point2.Data.StartCondition, 
TestParameter, AutoAnalysis.Line2.GradientExpr, 0
TestParameter, AutoAnalysis.Marker.Enabled, false
TestParameter, AutoAnalysis.Marker.Data.Var, 
TestParameter, AutoAnalysis.Marker.Data.Condition, 
TestParameter, AutoAnalysis.Marker.Data.Start, false
TestParameter, AutoAnalysis.Marker.Data.StartVar, 
TestParameter, AutoAnalysis.Marker.Data.StartCondition, 
MetaData, TestRecord.EntryPoint, true
MetaData, TestRecord.RecordTime, 10/19/2022 11:28:18
MetaData, TestRecord.TestTarget, 
MetaData, TestRecord.IterationIndex, 190
MetaData, TestRecord.Preservation, true
MetaData, TestRecord.Flag, 
MetaData, TestRecord.Remarks, 
MetaData, TestRecord.LinkKey, 714c9e01-c303-4de9-9573-f8d637384153
MetaData, TestRecord.Parameters, 
Dimension1, 101, 101
Dimension2, 1, 1
DataName, V, I
DataValue, -2, -0.095190000000000011
DataValue, -1.9600000000000002, -0.094148000000000009
DataValue, -1.9200000000000002, -0.093076
DataValue, -1.8800000000000001, -0.091946000000000014
DataValue, -1.84, -0.090960000000000013
DataValue, -1.8, -0.089804000000000009
DataValue, -1.76, -0.088646
DataValue, -1.72, -0.087554
DataValue, -1.6800000000000002, -0.086320000000000008
DataValue, -1.6400000000000001, -0.08515
DataValue, -1.6, -0.083910000000000012
DataValue, -1.56, -0.082760000000000014
DataValue, -1.52, -0.081626
DataValue, -1.48, -0.080496000000000012
DataValue, -1.4400000000000002, -0.07935
DataValue, -1.4000000000000001, -0.078226
DataValue, -1.36, -0.077084000000000014
DataValue, -1.32, -0.075902000000000011
DataValue, -1.28, -0.074790000000000009
DataValue, -1.24, -0.073638000000000009
DataValue, -1.2, -0.072500000000000009
DataValue, -1.1600000000000001, -0.071326
DataValue, -1.12, -0.070204
DataValue, -1.08, -0.069030000000000008
DataValue, -1.04, -0.067892000000000008
DataValue, -1, -0.066722
DataValue, -0.96000000000000008, -0.065576000000000009
DataValue, -0.92, -0.064406
DataValue, -0.88, -0.063252
DataValue, -0.84000000000000008, -0.062098000000000007
DataValue, -0.8, -0.060936000000000004
DataValue, -0.76, -0.059782
DataValue, -0.72000000000000008, -0.058598000000000004
DataValue, -0.68, -0.057462000000000006
DataValue, -0.64, -0.056284000000000008
DataValue, -0.6, -0.05514
DataValue, -0.56, -0.053974000000000008
DataValue, -0.52, -0.052814000000000007
DataValue, -0.48000000000000004, -0.051652
DataValue, -0.44, -0.050474000000000005
DataValue, -0.4, -0.04932
DataValue, -0.36000000000000004, -0.048128000000000004
DataValue, -0.32, -0.046982
DataValue, -0.28, -0.045798000000000005
DataValue, -0.24000000000000002, -0.044642
DataValue, -0.2, -0.043466000000000005
DataValue, -0.16, -0.042304
DataValue, -0.12000000000000001, -0.041068
DataValue, -0.08, -0.039898
DataValue, -0.04, -0.038720000000000004
DataValue, 0, -0.037538
DataValue, 0.04, -0.036392
DataValue, 0.08, -0.03522
DataValue, 0.12000000000000001, -0.034064000000000004
DataValue, 0.16, -0.032902
DataValue, 0.2, -0.031744
DataValue, 0.24000000000000002, -0.030562000000000002
DataValue, 0.28, -0.029404000000000003
DataValue, 0.32, -0.028248000000000002
DataValue, 0.36000000000000004, -0.027080000000000003
DataValue, 0.4, -0.025918000000000004
DataValue, 0.44, -0.024744000000000002
DataValue, 0.48000000000000004, -0.023588
DataValue, 0.52, -0.022424000000000003
DataValue, 0.56, -0.021262000000000003
DataValue, 0.6, -0.020096000000000003
DataValue, 0.64, -0.018928
DataValue, 0.68, -0.017766
DataValue, 0.72000000000000008, -0.016598
DataValue, 0.76, -0.015432000000000001
DataValue, 0.8, -0.014268000000000001
DataValue, 0.84000000000000008, -0.0131
DataValue, 0.88, -0.011934000000000002
DataValue, 0.92, -0.010766000000000001
DataValue, 0.96000000000000008, -0.0096044
DataValue, 1, -0.0084372
DataValue, 1.04, -0.0072770000000000005
DataValue, 1.08, -0.0061434
DataValue, 1.12, -0.0049846000000000005
DataValue, 1.1600000000000001, -0.0038188000000000002
DataValue, 1.2, -0.0026566
DataValue, 1.24, -0.0014894
DataValue, 1.28, -0.0003299
DataValue, 1.32, 0.0008432
DataValue, 1.36, 0.0020032
DataValue, 1.4000000000000001, 0.0031676
DataValue, 1.4400000000000002, 0.0043332
DataValue, 1.48, 0.0055032
DataValue, 1.52, 0.0066668000000000005
DataValue, 1.56, 0.0078124000000000006
DataValue, 1.6, 0.0089996
DataValue, 1.6400000000000001, 0.010176000000000001
DataValue, 1.6800000000000002, 0.0113428
DataValue, 1.72, 0.012514
DataValue, 1.76, 0.013682000000000002
DataValue, 1.8, 0.014828000000000001
DataValue, 1.84, 0.016026000000000002
DataValue, 1.8800000000000001, 0.01719
DataValue, 1.9200000000000002, 0.018364000000000002
DataValue, 1.9600000000000002, 0.019532
DataValue, 2, 0.020714000000000003