
SetupTitle, I/V Sweep
PrimitiveTest, I/V Sweep
TestParameter, Context.MainFrame, B1500A
TestParameter, Channel.UnitType, SMU, SMU, SMU, SMU, SMU
TestParameter, Channel.Unit, SMU1:HP, SMU2:MP, SMU3:MP, SMU4:MP, SMU5:MP
TestParameter, Channel.IName, I, IDD1, IDD2, ISS, IPP
TestParameter, Channel.VName, V, VDD1, VDD2, VSS, VPP
TestParameter, Channel.Mode, V, V, V, V, V
TestParameter, Channel.Func, VAR1, CONST, CONST, CONST, CONST
TestParameter, Channel.Index, 
TestParameter, Channel.Time, 
TestParameter, Measurement.Port.Unit, SMU1:HP, SMU2:MP, SMU3:MP, SMU4:MP, SMU5:MP
TestParameter, Measurement.Port.SeriesResistor, NONE, NONE, NONE, NONE, NONE
TestParameter, Measurement.Port.Filter, ON, ON, ON, ON, ON
TestParameter, Measurement.Port.OutputVoltageComparison, 0, 0, 0, 0, 0
TestParameter, Measurement.Primary.Locus, Single
TestParameter, Measurement.Primary.Scale, LINEAR
TestParameter, Measurement.Primary.Start, -2
TestParameter, Measurement.Primary.Stop, 2
TestParameter, Measurement.Primary.Step, 0.04
TestParameter, Measurement.Primary.Compliance, 0.1
TestParameter, Measurement.Primary.PowerCompliance, 0
TestParameter, Measurement.Aborting.Condition, CONTINUE AT ANY
TestParameter, Measurement.PostOutput.Value, START
TestParameter, Measurement.PostOutput.Retention, OFF
TestParameter, Measurement.Bias.Source, -2, 1.8, 1.1, 0, 0
TestParameter, Measurement.Bias.Compliance, 0.1, 0.1, 0.1, 0.1, 0.1
TestParameter, Measurement.Monitor.Unit, SMU1:HP, SMU2:MP, SMU3:MP, SMU4:MP, SMU5:MP
TestParameter, Measurement.Monitor.Adc, HR ADC, HR ADC, HR ADC, HR ADC, HR ADC
TestParameter, Measurement.Monitor.Measurement, Compliance Side, Compliance Side, Compliance Side, Compliance Side, Compliance Side
TestParameter, Measurement.Monitor.RangingMode, LIMITED, LIMITED, LIMITED, LIMITED, LIMITED
TestParameter, Measurement.Monitor.RangeBoundary, 1nA, 1nA, 1nA, 1nA, 1nA
TestParameter, Measurement.Monitor.RangeRating, BY FULL RANGE, BY FULL RANGE, BY FULL RANGE, BY FULL RANGE, BY FULL RANGE
TestParameter, Measurement.Monitor.RangeRatingCoeff, 50, 50, 50, 50, 50
TestParameter, Measurement.Timing.Hold, 0
TestParameter, Measurement.Timing.Delay, 0
TestParameter, Measurement.Adc.HighSpeed.Mode, AUTO
TestParameter, Measurement.Adc.HighSpeed.Coeff, 1
TestParameter, Measurement.Adc.HighResolution.AutoZero, OFF
TestParameter, Measurement.Adc.HighResolution.Mode, AUTO
TestParameter, Measurement.Adc.HighResolution.Coeff, 6
TestParameter, Measurement.WaitTime.Source.Coeff, 1
TestParameter, Measurement.WaitTime.Source.Offset, 0
TestParameter, Measurement.WaitTime.Monitor.Coeff, 1
TestParameter, Measurement.WaitTime.Monitor.Offset, 0
TestParameter, Output.Graph.Enabled, true
TestParameter, Output.Graph.AutoScaling, false
TestParameter, Output.Graph.XAxis.Data, V
TestParameter, Output.Graph.XAxis.Scale, Linear
TestParameter, Output.Graph.XAxis.Left, -2
TestParameter, Output.Graph.XAxis.Right, 2
TestParameter, Output.Graph.XAxis.RunTimeAutoScale, true
TestParameter, Output.Graph.YAxis.Data, I
TestParameter, Output.Graph.YAxis.Scale, Linear
TestParameter, Output.Graph.YAxis.Bottom, -0.1
TestParameter, Output.Graph.YAxis.Top, 0.1
TestParameter, Output.Graph.YAxis.Group, 
TestParameter, Output.Graph.YAxis.RunTimeAutoScale, true
TestParameter, AutoAnalysis.Interpolation, false
TestParameter, AutoAnalysis.Var2StepCount, 1
TestParameter, AutoAnalysis.Var2StepScript, 
TestParameter, AutoAnalysis.Line1.Enabled, false
TestParameter, AutoAnalysis.Line1.Type, 1
TestParameter, AutoAnalysis.Line1.Fix, True
TestParameter, AutoAnalysis.Line1.YAxis, 0
TestParameter, AutoAnalysis.Line1.Point1.Type, 0
TestParameter, AutoAnalysis.Line1.Point1.XY.X, 
TestParameter, AutoAnalysis.Line1.Point1.XY.Y, 
TestParameter, AutoAnalysis.Line1.Point1.Data.Var, 
TestParameter, AutoAnalysis.Line1.Point1.Data.Condition, 
TestParameter, AutoAnalysis.Line1.Point1.Data.Start, false
TestParameter, AutoAnalysis.Line1.Point1.Data.StartVar, 
TestParameter, AutoAnalysis.Line1.Point1.Data.StartCondition, 
TestParameter, AutoAnalysis.Line1.Point2.Type, 0
TestParameter, AutoAnalysis.Line1.Point2.XY.X, 
TestParameter, AutoAnalysis.Line1.Point2.XY.Y, 
TestParameter, AutoAnalysis.Line1.Point2.Data.Var, 
TestParameter, AutoAnalysis.Line1.Point2.Data.Condition, 
TestParameter, AutoAnalysis.Line1.Point2.Data.Start, false
TestParameter, AutoAnalysis.Line1.Point2.Data.StartVar, 
TestParameter, AutoAnalysis.Line1.Point2.Data.StartCondition, 
TestParameter, AutoAnalysis.Line1.GradientExpr, 0
TestParameter, AutoAnalysis.Line2.Enabled, false
TestParameter, AutoAnalysis.Line2.Type, 1
TestParameter, AutoAnalysis.Line2.Fix, True
TestParameter, AutoAnalysis.Line2.YAxis, 0
TestParameter, AutoAnalysis.Line2.Point1.Type, 0
TestParameter, AutoAnalysis.Line2.Point1.XY.X, 
TestParameter, AutoAnalysis.Line2.Point1.XY.Y, 
TestParameter, AutoAnalysis.Line2.Point1.Data.Var, 
TestParameter, AutoAnalysis.Line2.Point1.Data.Condition, 
TestParameter, AutoAnalysis.Line2.Point1.Data.Start, false
TestParameter, AutoAnalysis.Line2.Point1.Data.StartVar, 
TestParameter, AutoAnalysis.Line2.Point1.Data.StartCondition, 
TestParameter, AutoAnalysis.Line2.Point2.Type, 0
TestParameter, AutoAnalysis.Line2.Point2.XY.X, 
TestParameter, AutoAnalysis.Line2.Point2.XY.Y, 
TestParameter, AutoAnalysis.Line2.Point2.Data.Var, 
TestParameter, AutoAnalysis.Line2.Point2.Data.Condition, 
TestParameter, AutoAnalysis.Line2.Point2.Data.Start, false
TestParameter, AutoAnalysis.Line2.Point2.Data.StartVar, 
TestParameter, AutoAnalysis.Line2.Point2.Data.StartCondition, 
TestParameter, AutoAnalysis.Line2.GradientExpr, 0
TestParameter, AutoAnalysis.Marker.Enabled, false
TestParameter, AutoAnalysis.Marker.Data.Var, 
TestParameter, AutoAnalysis.Marker.Data.Condition, 
TestParameter, AutoAnalysis.Marker.Data.Start, false
TestParameter, AutoAnalysis.Marker.Data.StartVar, 
TestParameter, AutoAnalysis.Marker.Data.StartCondition, 
MetaData, TestRecord.EntryPoint, true
MetaData, TestRecord.RecordTime, 10/19/2022 11:29:52
MetaData, TestRecord.TestTarget, 
MetaData, TestRecord.IterationIndex, 193
MetaData, TestRecord.Preservation, true
MetaData, TestRecord.Flag, 
MetaData, TestRecord.Remarks, 
MetaData, TestRecord.LinkKey, c7cb3c1d-fac7-43cc-b040-2b0dff906024
MetaData, TestRecord.Parameters, 
Dimension1, 101, 101
Dimension2, 1, 1
DataName, V, I
DataValue, -2, -0.057104
DataValue, -1.9600000000000002, -0.056396
DataValue, -1.9200000000000002, -0.05571
DataValue, -1.8800000000000001, -0.055004000000000004
DataValue, -1.84, -0.054372000000000004
DataValue, -1.8, -0.053654000000000007
DataValue, -1.76, -0.052848000000000006
DataValue, -1.72, -0.052118000000000005
DataValue, -1.6800000000000002, -0.051356000000000006
DataValue, -1.6400000000000001, -0.050644
DataValue, -1.6, -0.049908
DataValue, -1.56, -0.049198000000000006
DataValue, -1.52, -0.048474
DataValue, -1.48, -0.047762000000000006
DataValue, -1.4400000000000002, -0.047046000000000004
DataValue, -1.4000000000000001, -0.046326000000000006
DataValue, -1.36, -0.045582000000000004
DataValue, -1.32, -0.044844
DataValue, -1.28, -0.04413
DataValue, -1.24, -0.043426000000000006
DataValue, -1.2, -0.042690000000000006
DataValue, -1.1600000000000001, -0.041966
DataValue, -1.12, -0.041156000000000005
DataValue, -1.08, -0.040312
DataValue, -1.04, -0.039604
DataValue, -1, -0.038952
DataValue, -0.96000000000000008, -0.03821
DataValue, -0.92, -0.037454
DataValue, -0.88, -0.036730000000000006
DataValue, -0.84000000000000008, -0.035928
DataValue, -0.8, -0.035224000000000005
DataValue, -0.76, -0.034496000000000006
DataValue, -0.72000000000000008, -0.033768000000000006
DataValue, -0.68, -0.033030000000000004
DataValue, -0.64, -0.032286
DataValue, -0.6, -0.031542
DataValue, -0.56, -0.030838000000000004
DataValue, -0.52, -0.030096
DataValue, -0.48000000000000004, -0.029362000000000003
DataValue, -0.44, -0.028624000000000004
DataValue, -0.4, -0.027894000000000002
DataValue, -0.36000000000000004, -0.027158
DataValue, -0.32, -0.026424000000000003
DataValue, -0.28, -0.025688000000000002
DataValue, -0.24000000000000002, -0.024956000000000002
DataValue, -0.2, -0.024216
DataValue, -0.16, -0.023458000000000003
DataValue, -0.12000000000000001, -0.022608000000000003
DataValue, -0.08, -0.021908
DataValue, -0.04, -0.021172000000000003
DataValue, 0, -0.020444
DataValue, 0.04, -0.019706
DataValue, 0.08, -0.018972000000000003
DataValue, 0.12000000000000001, -0.018116
DataValue, 0.16, -0.017392
DataValue, 0.2, -0.016698
DataValue, 0.24000000000000002, -0.015962
DataValue, 0.28, -0.015226000000000002
DataValue, 0.32, -0.014488000000000001
DataValue, 0.36000000000000004, -0.013760000000000001
DataValue, 0.4, -0.013004000000000002
DataValue, 0.44, -0.012274000000000002
DataValue, 0.48000000000000004, -0.011546
DataValue, 0.52, -0.01081
DataValue, 0.56, -0.010072000000000001
DataValue, 0.6, -0.0093096
DataValue, 0.64, -0.0085832000000000009
DataValue, 0.68, -0.0078462
DataValue, 0.72000000000000008, -0.0071134
DataValue, 0.76, -0.0063698
DataValue, 0.8, -0.005642
DataValue, 0.84000000000000008, -0.0049086
DataValue, 0.88, -0.0041772
DataValue, 0.92, -0.0034368000000000003
DataValue, 0.96000000000000008, -0.0027058
DataValue, 1, -0.0019718
DataValue, 1.04, -0.0012382
DataValue, 1.08, -0.00050338
DataValue, 1.12, 0.00022946000000000002
DataValue, 1.1600000000000001, 0.0009642
DataValue, 1.2, 0.0017006
DataValue, 1.24, 0.0024346
DataValue, 1.28, 0.0031672000000000002
DataValue, 1.32, 0.0039000000000000003
DataValue, 1.36, 0.0046392000000000004
DataValue, 1.4000000000000001, 0.0053716
DataValue, 1.4400000000000002, 0.0061
DataValue, 1.48, 0.0068206000000000004
DataValue, 1.52, 0.0075556
DataValue, 1.56, 0.0082906
DataValue, 1.6, 0.0090236
DataValue, 1.6400000000000001, 0.0097604
DataValue, 1.6800000000000002, 0.0105002
DataValue, 1.72, 0.011215000000000001
DataValue, 1.76, 0.011972000000000002
DataValue, 1.8, 0.012686000000000001
DataValue, 1.84, 0.013424000000000002
DataValue, 1.8800000000000001, 0.014150000000000001
DataValue, 1.9200000000000002, 0.014900000000000002
DataValue, 1.9600000000000002, 0.015626
DataValue, 2, 0.016374000000000003