
SetupTitle, I/V Sweep
PrimitiveTest, I/V Sweep
TestParameter, Context.MainFrame, B1500A
TestParameter, Channel.UnitType, SMU, SMU, SMU, SMU, SMU
TestParameter, Channel.Unit, SMU1:HP, SMU2:MP, SMU3:MP, SMU4:MP, SMU5:MP
TestParameter, Channel.IName, I, IDD1, IDD2, ISS, IPP
TestParameter, Channel.VName, V, VDD1, VDD2, VSS, VPP
TestParameter, Channel.Mode, V, V, V, V, V
TestParameter, Channel.Func, VAR1, CONST, CONST, CONST, CONST
TestParameter, Channel.Index, 
TestParameter, Channel.Time, 
TestParameter, Measurement.Port.Unit, SMU1:HP, SMU2:MP, SMU3:MP, SMU4:MP, SMU5:MP
TestParameter, Measurement.Port.SeriesResistor, NONE, NONE, NONE, NONE, NONE
TestParameter, Measurement.Port.Filter, ON, ON, ON, ON, ON
TestParameter, Measurement.Port.OutputVoltageComparison, 0, 0, 0, 0, 0
TestParameter, Measurement.Primary.Locus, Single
TestParameter, Measurement.Primary.Scale, LINEAR
TestParameter, Measurement.Primary.Start, -2
TestParameter, Measurement.Primary.Stop, 2
TestParameter, Measurement.Primary.Step, 0.04
TestParameter, Measurement.Primary.Compliance, 0.1
TestParameter, Measurement.Primary.PowerCompliance, 0
TestParameter, Measurement.Aborting.Condition, CONTINUE AT ANY
TestParameter, Measurement.PostOutput.Value, START
TestParameter, Measurement.PostOutput.Retention, OFF
TestParameter, Measurement.Bias.Source, -2, 1.8, 1.1, 0, 0
TestParameter, Measurement.Bias.Compliance, 0.1, 0.1, 0.1, 0.1, 0.1
TestParameter, Measurement.Monitor.Unit, SMU1:HP, SMU2:MP, SMU3:MP, SMU4:MP, SMU5:MP
TestParameter, Measurement.Monitor.Adc, HR ADC, HR ADC, HR ADC, HR ADC, HR ADC
TestParameter, Measurement.Monitor.Measurement, Compliance Side, Compliance Side, Compliance Side, Compliance Side, Compliance Side
TestParameter, Measurement.Monitor.RangingMode, LIMITED, LIMITED, LIMITED, LIMITED, LIMITED
TestParameter, Measurement.Monitor.RangeBoundary, 1nA, 1nA, 1nA, 1nA, 1nA
TestParameter, Measurement.Monitor.RangeRating, BY FULL RANGE, BY FULL RANGE, BY FULL RANGE, BY FULL RANGE, BY FULL RANGE
TestParameter, Measurement.Monitor.RangeRatingCoeff, 50, 50, 50, 50, 50
TestParameter, Measurement.Timing.Hold, 0
TestParameter, Measurement.Timing.Delay, 0
TestParameter, Measurement.Adc.HighSpeed.Mode, AUTO
TestParameter, Measurement.Adc.HighSpeed.Coeff, 1
TestParameter, Measurement.Adc.HighResolution.AutoZero, OFF
TestParameter, Measurement.Adc.HighResolution.Mode, AUTO
TestParameter, Measurement.Adc.HighResolution.Coeff, 6
TestParameter, Measurement.WaitTime.Source.Coeff, 1
TestParameter, Measurement.WaitTime.Source.Offset, 0
TestParameter, Measurement.WaitTime.Monitor.Coeff, 1
TestParameter, Measurement.WaitTime.Monitor.Offset, 0
TestParameter, Output.Graph.Enabled, true
TestParameter, Output.Graph.AutoScaling, false
TestParameter, Output.Graph.XAxis.Data, V
TestParameter, Output.Graph.XAxis.Scale, Linear
TestParameter, Output.Graph.XAxis.Left, -2
TestParameter, Output.Graph.XAxis.Right, 2
TestParameter, Output.Graph.XAxis.RunTimeAutoScale, true
TestParameter, Output.Graph.YAxis.Data, I
TestParameter, Output.Graph.YAxis.Scale, Linear
TestParameter, Output.Graph.YAxis.Bottom, -0.1
TestParameter, Output.Graph.YAxis.Top, 0.1
TestParameter, Output.Graph.YAxis.Group, 
TestParameter, Output.Graph.YAxis.RunTimeAutoScale, true
TestParameter, AutoAnalysis.Interpolation, false
TestParameter, AutoAnalysis.Var2StepCount, 1
TestParameter, AutoAnalysis.Var2StepScript, 
TestParameter, AutoAnalysis.Line1.Enabled, false
TestParameter, AutoAnalysis.Line1.Type, 1
TestParameter, AutoAnalysis.Line1.Fix, True
TestParameter, AutoAnalysis.Line1.YAxis, 0
TestParameter, AutoAnalysis.Line1.Point1.Type, 0
TestParameter, AutoAnalysis.Line1.Point1.XY.X, 
TestParameter, AutoAnalysis.Line1.Point1.XY.Y, 
TestParameter, AutoAnalysis.Line1.Point1.Data.Var, 
TestParameter, AutoAnalysis.Line1.Point1.Data.Condition, 
TestParameter, AutoAnalysis.Line1.Point1.Data.Start, false
TestParameter, AutoAnalysis.Line1.Point1.Data.StartVar, 
TestParameter, AutoAnalysis.Line1.Point1.Data.StartCondition, 
TestParameter, AutoAnalysis.Line1.Point2.Type, 0
TestParameter, AutoAnalysis.Line1.Point2.XY.X, 
TestParameter, AutoAnalysis.Line1.Point2.XY.Y, 
TestParameter, AutoAnalysis.Line1.Point2.Data.Var, 
TestParameter, AutoAnalysis.Line1.Point2.Data.Condition, 
TestParameter, AutoAnalysis.Line1.Point2.Data.Start, false
TestParameter, AutoAnalysis.Line1.Point2.Data.StartVar, 
TestParameter, AutoAnalysis.Line1.Point2.Data.StartCondition, 
TestParameter, AutoAnalysis.Line1.GradientExpr, 0
TestParameter, AutoAnalysis.Line2.Enabled, false
TestParameter, AutoAnalysis.Line2.Type, 1
TestParameter, AutoAnalysis.Line2.Fix, True
TestParameter, AutoAnalysis.Line2.YAxis, 0
TestParameter, AutoAnalysis.Line2.Point1.Type, 0
TestParameter, AutoAnalysis.Line2.Point1.XY.X, 
TestParameter, AutoAnalysis.Line2.Point1.XY.Y, 
TestParameter, AutoAnalysis.Line2.Point1.Data.Var, 
TestParameter, AutoAnalysis.Line2.Point1.Data.Condition, 
TestParameter, AutoAnalysis.Line2.Point1.Data.Start, false
TestParameter, AutoAnalysis.Line2.Point1.Data.StartVar, 
TestParameter, AutoAnalysis.Line2.Point1.Data.StartCondition, 
TestParameter, AutoAnalysis.Line2.Point2.Type, 0
TestParameter, AutoAnalysis.Line2.Point2.XY.X, 
TestParameter, AutoAnalysis.Line2.Point2.XY.Y, 
TestParameter, AutoAnalysis.Line2.Point2.Data.Var, 
TestParameter, AutoAnalysis.Line2.Point2.Data.Condition, 
TestParameter, AutoAnalysis.Line2.Point2.Data.Start, false
TestParameter, AutoAnalysis.Line2.Point2.Data.StartVar, 
TestParameter, AutoAnalysis.Line2.Point2.Data.StartCondition, 
TestParameter, AutoAnalysis.Line2.GradientExpr, 0
TestParameter, AutoAnalysis.Marker.Enabled, false
TestParameter, AutoAnalysis.Marker.Data.Var, 
TestParameter, AutoAnalysis.Marker.Data.Condition, 
TestParameter, AutoAnalysis.Marker.Data.Start, false
TestParameter, AutoAnalysis.Marker.Data.StartVar, 
TestParameter, AutoAnalysis.Marker.Data.StartCondition, 
MetaData, TestRecord.EntryPoint, true
MetaData, TestRecord.RecordTime, 10/19/2022 11:14:52
MetaData, TestRecord.TestTarget, 
MetaData, TestRecord.IterationIndex, 170
MetaData, TestRecord.Preservation, true
MetaData, TestRecord.Flag, 
MetaData, TestRecord.Remarks, 
MetaData, TestRecord.LinkKey, d68deba0-e055-477d-baaa-ff1d7b78ef0e
MetaData, TestRecord.Parameters, 
Dimension1, 101, 101
Dimension2, 1, 1
DataName, V, I
DataValue, -2, -0.10000200000000001
DataValue, -1.9600000000000002, -0.10000200000000001
DataValue, -1.9200000000000002, -0.10000200000000001
DataValue, -1.8800000000000001, -0.10000200000000001
DataValue, -1.84, -0.099138
DataValue, -1.8, -0.097218000000000013
DataValue, -1.76, -0.095298000000000008
DataValue, -1.72, -0.093332000000000012
DataValue, -1.6800000000000002, -0.091280000000000014
DataValue, -1.6400000000000001, -0.088890000000000011
DataValue, -1.6, -0.086534000000000014
DataValue, -1.56, -0.084550000000000014
DataValue, -1.52, -0.082466000000000012
DataValue, -1.48, -0.080440000000000011
DataValue, -1.4400000000000002, -0.078408
DataValue, -1.4000000000000001, -0.076376000000000013
DataValue, -1.36, -0.074336000000000013
DataValue, -1.32, -0.07227
DataValue, -1.28, -0.070226000000000011
DataValue, -1.24, -0.068174000000000012
DataValue, -1.2, -0.066120000000000012
DataValue, -1.1600000000000001, -0.06406
DataValue, -1.12, -0.062002000000000008
DataValue, -1.08, -0.059956
DataValue, -1.04, -0.057902
DataValue, -1, -0.055862
DataValue, -0.96000000000000008, -0.053828000000000008
DataValue, -0.92, -0.051802000000000008
DataValue, -0.88, -0.04979
DataValue, -0.84000000000000008, -0.047804000000000006
DataValue, -0.8, -0.045834000000000007
DataValue, -0.76, -0.0439
DataValue, -0.72000000000000008, -0.041960000000000004
DataValue, -0.68, -0.040096000000000007
DataValue, -0.64, -0.038276000000000004
DataValue, -0.6, -0.03653
DataValue, -0.56, -0.034872
DataValue, -0.52, -0.033302000000000005
DataValue, -0.48000000000000004, -0.031824000000000005
DataValue, -0.44, -0.030422
DataValue, -0.4, -0.029116000000000003
DataValue, -0.36000000000000004, -0.027866000000000002
DataValue, -0.32, -0.026688000000000003
DataValue, -0.28, -0.025552000000000002
DataValue, -0.24000000000000002, -0.024484000000000002
DataValue, -0.2, -0.023462000000000004
DataValue, -0.16, -0.022466000000000003
DataValue, -0.12000000000000001, -0.021486
DataValue, -0.08, -0.020514
DataValue, -0.04, -0.019548000000000003
DataValue, 0, -0.018584000000000003
DataValue, 0.04, -0.017616000000000003
DataValue, 0.08, -0.01665
DataValue, 0.12000000000000001, -0.015690000000000003
DataValue, 0.16, -0.01472
DataValue, 0.2, -0.013754
DataValue, 0.24000000000000002, -0.012788
DataValue, 0.28, -0.011822000000000001
DataValue, 0.32, -0.010854
DataValue, 0.36000000000000004, -0.0098914
DataValue, 0.4, -0.0089252
DataValue, 0.44, -0.007956
DataValue, 0.48000000000000004, -0.0069896
DataValue, 0.52, -0.0060172
DataValue, 0.56, -0.0050518
DataValue, 0.6, -0.0040812
DataValue, 0.64, -0.0031134
DataValue, 0.68, -0.0021444
DataValue, 0.72000000000000008, -0.0011690000000000001
DataValue, 0.76, -0.00018904000000000002
DataValue, 0.8, 0.00079338
DataValue, 0.84000000000000008, 0.0017664
DataValue, 0.88, 0.002735
DataValue, 0.92, 0.003706
DataValue, 0.96000000000000008, 0.0046708
DataValue, 1, 0.0056388
DataValue, 1.04, 0.0066082
DataValue, 1.08, 0.0075784
DataValue, 1.12, 0.0085442
DataValue, 1.1600000000000001, 0.009514
DataValue, 1.2, 0.0104818
DataValue, 1.24, 0.0114506
DataValue, 1.28, 0.012428000000000002
DataValue, 1.32, 0.013396000000000002
DataValue, 1.36, 0.014366000000000002
DataValue, 1.4000000000000001, 0.015338000000000001
DataValue, 1.4400000000000002, 0.016306
DataValue, 1.48, 0.017286000000000003
DataValue, 1.52, 0.018276
DataValue, 1.56, 0.019296
DataValue, 1.6, 0.020382
DataValue, 1.6400000000000001, 0.021564000000000003
DataValue, 1.6800000000000002, 0.022884
DataValue, 1.72, 0.024354
DataValue, 1.76, 0.025966000000000003
DataValue, 1.8, 0.027690000000000003
DataValue, 1.84, 0.029514000000000002
DataValue, 1.8800000000000001, 0.031396
DataValue, 1.9200000000000002, 0.033432
DataValue, 1.9600000000000002, 0.035422
DataValue, 2, 0.037454