
SetupTitle, I/V Sweep
PrimitiveTest, I/V Sweep
TestParameter, Context.MainFrame, B1500A
TestParameter, Channel.UnitType, SMU, SMU, SMU, SMU, SMU
TestParameter, Channel.Unit, SMU1:HP, SMU2:MP, SMU3:MP, SMU4:MP, SMU5:MP
TestParameter, Channel.IName, I, IDD1, IDD2, ISS, IPP
TestParameter, Channel.VName, V, VDD1, VDD2, VSS, VPP
TestParameter, Channel.Mode, V, V, V, V, V
TestParameter, Channel.Func, VAR1, CONST, CONST, CONST, CONST
TestParameter, Channel.Index, 
TestParameter, Channel.Time, 
TestParameter, Measurement.Port.Unit, SMU1:HP, SMU2:MP, SMU3:MP, SMU4:MP, SMU5:MP
TestParameter, Measurement.Port.SeriesResistor, NONE, NONE, NONE, NONE, NONE
TestParameter, Measurement.Port.Filter, ON, ON, ON, ON, ON
TestParameter, Measurement.Port.OutputVoltageComparison, 0, 0, 0, 0, 0
TestParameter, Measurement.Primary.Locus, Single
TestParameter, Measurement.Primary.Scale, LINEAR
TestParameter, Measurement.Primary.Start, -2
TestParameter, Measurement.Primary.Stop, 2
TestParameter, Measurement.Primary.Step, 0.04
TestParameter, Measurement.Primary.Compliance, 0.1
TestParameter, Measurement.Primary.PowerCompliance, 0
TestParameter, Measurement.Aborting.Condition, CONTINUE AT ANY
TestParameter, Measurement.PostOutput.Value, START
TestParameter, Measurement.PostOutput.Retention, OFF
TestParameter, Measurement.Bias.Source, -2, 1.8, 1.1, 0, 0
TestParameter, Measurement.Bias.Compliance, 0.1, 0.1, 0.1, 0.1, 0.1
TestParameter, Measurement.Monitor.Unit, SMU1:HP, SMU2:MP, SMU3:MP, SMU4:MP, SMU5:MP
TestParameter, Measurement.Monitor.Adc, HR ADC, HR ADC, HR ADC, HR ADC, HR ADC
TestParameter, Measurement.Monitor.Measurement, Compliance Side, Compliance Side, Compliance Side, Compliance Side, Compliance Side
TestParameter, Measurement.Monitor.RangingMode, LIMITED, LIMITED, LIMITED, LIMITED, LIMITED
TestParameter, Measurement.Monitor.RangeBoundary, 1nA, 1nA, 1nA, 1nA, 1nA
TestParameter, Measurement.Monitor.RangeRating, BY FULL RANGE, BY FULL RANGE, BY FULL RANGE, BY FULL RANGE, BY FULL RANGE
TestParameter, Measurement.Monitor.RangeRatingCoeff, 50, 50, 50, 50, 50
TestParameter, Measurement.Timing.Hold, 0
TestParameter, Measurement.Timing.Delay, 0
TestParameter, Measurement.Adc.HighSpeed.Mode, AUTO
TestParameter, Measurement.Adc.HighSpeed.Coeff, 1
TestParameter, Measurement.Adc.HighResolution.AutoZero, OFF
TestParameter, Measurement.Adc.HighResolution.Mode, AUTO
TestParameter, Measurement.Adc.HighResolution.Coeff, 6
TestParameter, Measurement.WaitTime.Source.Coeff, 1
TestParameter, Measurement.WaitTime.Source.Offset, 0
TestParameter, Measurement.WaitTime.Monitor.Coeff, 1
TestParameter, Measurement.WaitTime.Monitor.Offset, 0
TestParameter, Output.Graph.Enabled, true
TestParameter, Output.Graph.AutoScaling, false
TestParameter, Output.Graph.XAxis.Data, V
TestParameter, Output.Graph.XAxis.Scale, Linear
TestParameter, Output.Graph.XAxis.Left, -2
TestParameter, Output.Graph.XAxis.Right, 2
TestParameter, Output.Graph.XAxis.RunTimeAutoScale, true
TestParameter, Output.Graph.YAxis.Data, I
TestParameter, Output.Graph.YAxis.Scale, Linear
TestParameter, Output.Graph.YAxis.Bottom, -0.1
TestParameter, Output.Graph.YAxis.Top, 0.1
TestParameter, Output.Graph.YAxis.Group, 
TestParameter, Output.Graph.YAxis.RunTimeAutoScale, true
TestParameter, AutoAnalysis.Interpolation, false
TestParameter, AutoAnalysis.Var2StepCount, 1
TestParameter, AutoAnalysis.Var2StepScript, 
TestParameter, AutoAnalysis.Line1.Enabled, false
TestParameter, AutoAnalysis.Line1.Type, 1
TestParameter, AutoAnalysis.Line1.Fix, True
TestParameter, AutoAnalysis.Line1.YAxis, 0
TestParameter, AutoAnalysis.Line1.Point1.Type, 0
TestParameter, AutoAnalysis.Line1.Point1.XY.X, 
TestParameter, AutoAnalysis.Line1.Point1.XY.Y, 
TestParameter, AutoAnalysis.Line1.Point1.Data.Var, 
TestParameter, AutoAnalysis.Line1.Point1.Data.Condition, 
TestParameter, AutoAnalysis.Line1.Point1.Data.Start, false
TestParameter, AutoAnalysis.Line1.Point1.Data.StartVar, 
TestParameter, AutoAnalysis.Line1.Point1.Data.StartCondition, 
TestParameter, AutoAnalysis.Line1.Point2.Type, 0
TestParameter, AutoAnalysis.Line1.Point2.XY.X, 
TestParameter, AutoAnalysis.Line1.Point2.XY.Y, 
TestParameter, AutoAnalysis.Line1.Point2.Data.Var, 
TestParameter, AutoAnalysis.Line1.Point2.Data.Condition, 
TestParameter, AutoAnalysis.Line1.Point2.Data.Start, false
TestParameter, AutoAnalysis.Line1.Point2.Data.StartVar, 
TestParameter, AutoAnalysis.Line1.Point2.Data.StartCondition, 
TestParameter, AutoAnalysis.Line1.GradientExpr, 0
TestParameter, AutoAnalysis.Line2.Enabled, false
TestParameter, AutoAnalysis.Line2.Type, 1
TestParameter, AutoAnalysis.Line2.Fix, True
TestParameter, AutoAnalysis.Line2.YAxis, 0
TestParameter, AutoAnalysis.Line2.Point1.Type, 0
TestParameter, AutoAnalysis.Line2.Point1.XY.X, 
TestParameter, AutoAnalysis.Line2.Point1.XY.Y, 
TestParameter, AutoAnalysis.Line2.Point1.Data.Var, 
TestParameter, AutoAnalysis.Line2.Point1.Data.Condition, 
TestParameter, AutoAnalysis.Line2.Point1.Data.Start, false
TestParameter, AutoAnalysis.Line2.Point1.Data.StartVar, 
TestParameter, AutoAnalysis.Line2.Point1.Data.StartCondition, 
TestParameter, AutoAnalysis.Line2.Point2.Type, 0
TestParameter, AutoAnalysis.Line2.Point2.XY.X, 
TestParameter, AutoAnalysis.Line2.Point2.XY.Y, 
TestParameter, AutoAnalysis.Line2.Point2.Data.Var, 
TestParameter, AutoAnalysis.Line2.Point2.Data.Condition, 
TestParameter, AutoAnalysis.Line2.Point2.Data.Start, false
TestParameter, AutoAnalysis.Line2.Point2.Data.StartVar, 
TestParameter, AutoAnalysis.Line2.Point2.Data.StartCondition, 
TestParameter, AutoAnalysis.Line2.GradientExpr, 0
TestParameter, AutoAnalysis.Marker.Enabled, false
TestParameter, AutoAnalysis.Marker.Data.Var, 
TestParameter, AutoAnalysis.Marker.Data.Condition, 
TestParameter, AutoAnalysis.Marker.Data.Start, false
TestParameter, AutoAnalysis.Marker.Data.StartVar, 
TestParameter, AutoAnalysis.Marker.Data.StartCondition, 
MetaData, TestRecord.EntryPoint, true
MetaData, TestRecord.RecordTime, 10/19/2022 11:21:09
MetaData, TestRecord.TestTarget, 
MetaData, TestRecord.IterationIndex, 182
MetaData, TestRecord.Preservation, true
MetaData, TestRecord.Flag, 
MetaData, TestRecord.Remarks, 
MetaData, TestRecord.LinkKey, 85d84e99-39af-4acd-98c6-8f97e00f1e82
MetaData, TestRecord.Parameters, 
Dimension1, 101, 101
Dimension2, 1, 1
DataName, V, I
DataValue, -2, -0.10000400000000001
DataValue, -1.9600000000000002, -0.1
DataValue, -1.9200000000000002, -0.10000200000000001
DataValue, -1.8800000000000001, -0.10000200000000001
DataValue, -1.84, -0.10000200000000001
DataValue, -1.8, -0.10000200000000001
DataValue, -1.76, -0.10000400000000001
DataValue, -1.72, -0.10000200000000001
DataValue, -1.6800000000000002, -0.099876
DataValue, -1.6400000000000001, -0.098628000000000007
DataValue, -1.6, -0.097120000000000012
DataValue, -1.56, -0.095660000000000009
DataValue, -1.52, -0.094146000000000007
DataValue, -1.48, -0.092652000000000012
DataValue, -1.4400000000000002, -0.091100000000000014
DataValue, -1.4000000000000001, -0.08951
DataValue, -1.36, -0.087916000000000008
DataValue, -1.32, -0.086306000000000008
DataValue, -1.28, -0.084756000000000012
DataValue, -1.24, -0.083050000000000013
DataValue, -1.2, -0.08134000000000001
DataValue, -1.1600000000000001, -0.07964
DataValue, -1.12, -0.07801000000000001
DataValue, -1.08, -0.07641
DataValue, -1.04, -0.07481800000000001
DataValue, -1, -0.073086000000000012
DataValue, -0.96000000000000008, -0.07151600000000001
DataValue, -0.92, -0.069692
DataValue, -0.88, -0.068094
DataValue, -0.84000000000000008, -0.066348
DataValue, -0.8, -0.06468
DataValue, -0.76, -0.062942000000000012
DataValue, -0.72000000000000008, -0.061366000000000004
DataValue, -0.68, -0.059524000000000007
DataValue, -0.64, -0.05802
DataValue, -0.6, -0.055966
DataValue, -0.56, -0.054220000000000004
DataValue, -0.52, -0.052656
DataValue, -0.48000000000000004, -0.051054
DataValue, -0.44, -0.049076
DataValue, -0.4, -0.047352000000000005
DataValue, -0.36000000000000004, -0.045794
DataValue, -0.32, -0.044156
DataValue, -0.28, -0.04268
DataValue, -0.24000000000000002, -0.041022
DataValue, -0.2, -0.039514
DataValue, -0.16, -0.037468
DataValue, -0.12000000000000001, -0.036038
DataValue, -0.08, -0.034608
DataValue, -0.04, -0.033182
DataValue, 0, -0.031746
DataValue, 0.04, -0.030332
DataValue, 0.08, -0.028916000000000004
DataValue, 0.12000000000000001, -0.027524000000000003
DataValue, 0.16, -0.026128000000000002
DataValue, 0.2, -0.02475
DataValue, 0.24000000000000002, -0.023374000000000002
DataValue, 0.28, -0.022000000000000002
DataValue, 0.32, -0.02066
DataValue, 0.36000000000000004, -0.019332000000000002
DataValue, 0.4, -0.018014000000000002
DataValue, 0.44, -0.016714000000000003
DataValue, 0.48000000000000004, -0.015446000000000001
DataValue, 0.52, -0.014206000000000002
DataValue, 0.56, -0.013004000000000002
DataValue, 0.6, -0.011822000000000001
DataValue, 0.64, -0.010676000000000002
DataValue, 0.68, -0.0095806
DataValue, 0.72000000000000008, -0.008523
DataValue, 0.76, -0.0075188
DataValue, 0.8, -0.0065616
DataValue, 0.84000000000000008, -0.0056972
DataValue, 0.88, -0.0049178
DataValue, 0.92, -0.004218
DataValue, 0.96000000000000008, -0.0036032
DataValue, 1, -0.003042
DataValue, 1.04, -0.0025276
DataValue, 1.08, -0.0020386000000000002
DataValue, 1.12, -0.0015704
DataValue, 1.1600000000000001, -0.0011122
DataValue, 1.2, -0.00066426000000000007
DataValue, 1.24, -0.00020944
DataValue, 1.28, 0.00023788000000000002
DataValue, 1.32, 0.00069036
DataValue, 1.36, 0.00113662
DataValue, 1.4000000000000001, 0.0015854
DataValue, 1.4400000000000002, 0.002035
DataValue, 1.48, 0.0024838
DataValue, 1.52, 0.0029344
DataValue, 1.56, 0.0033822
DataValue, 1.6, 0.0038322
DataValue, 1.6400000000000001, 0.0042816
DataValue, 1.6800000000000002, 0.0047296000000000005
DataValue, 1.72, 0.0051776
DataValue, 1.76, 0.005629
DataValue, 1.8, 0.0060794
DataValue, 1.84, 0.0065320000000000005
DataValue, 1.8800000000000001, 0.0069858
DataValue, 1.9200000000000002, 0.0074408
DataValue, 1.9600000000000002, 0.0078968
DataValue, 2, 0.008354