
SetupTitle, I/V Sweep
PrimitiveTest, I/V Sweep
TestParameter, Context.MainFrame, B1500A
TestParameter, Channel.UnitType, SMU, SMU, SMU, SMU, SMU
TestParameter, Channel.Unit, SMU1:HP, SMU2:MP, SMU3:MP, SMU4:MP, SMU5:MP
TestParameter, Channel.IName, I, IDD1, IDD2, ISS, IPP
TestParameter, Channel.VName, V, VDD1, VDD2, VSS, VPP
TestParameter, Channel.Mode, V, V, V, V, V
TestParameter, Channel.Func, VAR1, CONST, CONST, CONST, CONST
TestParameter, Channel.Index, 
TestParameter, Channel.Time, 
TestParameter, Measurement.Port.Unit, SMU1:HP, SMU2:MP, SMU3:MP, SMU4:MP, SMU5:MP
TestParameter, Measurement.Port.SeriesResistor, NONE, NONE, NONE, NONE, NONE
TestParameter, Measurement.Port.Filter, ON, ON, ON, ON, ON
TestParameter, Measurement.Port.OutputVoltageComparison, 0, 0, 0, 0, 0
TestParameter, Measurement.Primary.Locus, Single
TestParameter, Measurement.Primary.Scale, LINEAR
TestParameter, Measurement.Primary.Start, -2
TestParameter, Measurement.Primary.Stop, 2
TestParameter, Measurement.Primary.Step, 0.04
TestParameter, Measurement.Primary.Compliance, 0.1
TestParameter, Measurement.Primary.PowerCompliance, 0
TestParameter, Measurement.Aborting.Condition, CONTINUE AT ANY
TestParameter, Measurement.PostOutput.Value, START
TestParameter, Measurement.PostOutput.Retention, OFF
TestParameter, Measurement.Bias.Source, -2, 1.8, 1.1, 0, 0
TestParameter, Measurement.Bias.Compliance, 0.1, 0.1, 0.1, 0.1, 0.1
TestParameter, Measurement.Monitor.Unit, SMU1:HP, SMU2:MP, SMU3:MP, SMU4:MP, SMU5:MP
TestParameter, Measurement.Monitor.Adc, HR ADC, HR ADC, HR ADC, HR ADC, HR ADC
TestParameter, Measurement.Monitor.Measurement, Compliance Side, Compliance Side, Compliance Side, Compliance Side, Compliance Side
TestParameter, Measurement.Monitor.RangingMode, LIMITED, LIMITED, LIMITED, LIMITED, LIMITED
TestParameter, Measurement.Monitor.RangeBoundary, 1nA, 1nA, 1nA, 1nA, 1nA
TestParameter, Measurement.Monitor.RangeRating, BY FULL RANGE, BY FULL RANGE, BY FULL RANGE, BY FULL RANGE, BY FULL RANGE
TestParameter, Measurement.Monitor.RangeRatingCoeff, 50, 50, 50, 50, 50
TestParameter, Measurement.Timing.Hold, 0
TestParameter, Measurement.Timing.Delay, 0
TestParameter, Measurement.Adc.HighSpeed.Mode, AUTO
TestParameter, Measurement.Adc.HighSpeed.Coeff, 1
TestParameter, Measurement.Adc.HighResolution.AutoZero, OFF
TestParameter, Measurement.Adc.HighResolution.Mode, AUTO
TestParameter, Measurement.Adc.HighResolution.Coeff, 6
TestParameter, Measurement.WaitTime.Source.Coeff, 1
TestParameter, Measurement.WaitTime.Source.Offset, 0
TestParameter, Measurement.WaitTime.Monitor.Coeff, 1
TestParameter, Measurement.WaitTime.Monitor.Offset, 0
TestParameter, Output.Graph.Enabled, true
TestParameter, Output.Graph.AutoScaling, false
TestParameter, Output.Graph.XAxis.Data, V
TestParameter, Output.Graph.XAxis.Scale, Linear
TestParameter, Output.Graph.XAxis.Left, -2
TestParameter, Output.Graph.XAxis.Right, 2
TestParameter, Output.Graph.XAxis.RunTimeAutoScale, true
TestParameter, Output.Graph.YAxis.Data, I
TestParameter, Output.Graph.YAxis.Scale, Linear
TestParameter, Output.Graph.YAxis.Bottom, -0.1
TestParameter, Output.Graph.YAxis.Top, 0.1
TestParameter, Output.Graph.YAxis.Group, 
TestParameter, Output.Graph.YAxis.RunTimeAutoScale, true
TestParameter, AutoAnalysis.Interpolation, false
TestParameter, AutoAnalysis.Var2StepCount, 1
TestParameter, AutoAnalysis.Var2StepScript, 
TestParameter, AutoAnalysis.Line1.Enabled, false
TestParameter, AutoAnalysis.Line1.Type, 1
TestParameter, AutoAnalysis.Line1.Fix, True
TestParameter, AutoAnalysis.Line1.YAxis, 0
TestParameter, AutoAnalysis.Line1.Point1.Type, 0
TestParameter, AutoAnalysis.Line1.Point1.XY.X, 
TestParameter, AutoAnalysis.Line1.Point1.XY.Y, 
TestParameter, AutoAnalysis.Line1.Point1.Data.Var, 
TestParameter, AutoAnalysis.Line1.Point1.Data.Condition, 
TestParameter, AutoAnalysis.Line1.Point1.Data.Start, false
TestParameter, AutoAnalysis.Line1.Point1.Data.StartVar, 
TestParameter, AutoAnalysis.Line1.Point1.Data.StartCondition, 
TestParameter, AutoAnalysis.Line1.Point2.Type, 0
TestParameter, AutoAnalysis.Line1.Point2.XY.X, 
TestParameter, AutoAnalysis.Line1.Point2.XY.Y, 
TestParameter, AutoAnalysis.Line1.Point2.Data.Var, 
TestParameter, AutoAnalysis.Line1.Point2.Data.Condition, 
TestParameter, AutoAnalysis.Line1.Point2.Data.Start, false
TestParameter, AutoAnalysis.Line1.Point2.Data.StartVar, 
TestParameter, AutoAnalysis.Line1.Point2.Data.StartCondition, 
TestParameter, AutoAnalysis.Line1.GradientExpr, 0
TestParameter, AutoAnalysis.Line2.Enabled, false
TestParameter, AutoAnalysis.Line2.Type, 1
TestParameter, AutoAnalysis.Line2.Fix, True
TestParameter, AutoAnalysis.Line2.YAxis, 0
TestParameter, AutoAnalysis.Line2.Point1.Type, 0
TestParameter, AutoAnalysis.Line2.Point1.XY.X, 
TestParameter, AutoAnalysis.Line2.Point1.XY.Y, 
TestParameter, AutoAnalysis.Line2.Point1.Data.Var, 
TestParameter, AutoAnalysis.Line2.Point1.Data.Condition, 
TestParameter, AutoAnalysis.Line2.Point1.Data.Start, false
TestParameter, AutoAnalysis.Line2.Point1.Data.StartVar, 
TestParameter, AutoAnalysis.Line2.Point1.Data.StartCondition, 
TestParameter, AutoAnalysis.Line2.Point2.Type, 0
TestParameter, AutoAnalysis.Line2.Point2.XY.X, 
TestParameter, AutoAnalysis.Line2.Point2.XY.Y, 
TestParameter, AutoAnalysis.Line2.Point2.Data.Var, 
TestParameter, AutoAnalysis.Line2.Point2.Data.Condition, 
TestParameter, AutoAnalysis.Line2.Point2.Data.Start, false
TestParameter, AutoAnalysis.Line2.Point2.Data.StartVar, 
TestParameter, AutoAnalysis.Line2.Point2.Data.StartCondition, 
TestParameter, AutoAnalysis.Line2.GradientExpr, 0
TestParameter, AutoAnalysis.Marker.Enabled, false
TestParameter, AutoAnalysis.Marker.Data.Var, 
TestParameter, AutoAnalysis.Marker.Data.Condition, 
TestParameter, AutoAnalysis.Marker.Data.Start, false
TestParameter, AutoAnalysis.Marker.Data.StartVar, 
TestParameter, AutoAnalysis.Marker.Data.StartCondition, 
MetaData, TestRecord.EntryPoint, true
MetaData, TestRecord.RecordTime, 10/19/2022 11:32:58
MetaData, TestRecord.TestTarget, 
MetaData, TestRecord.IterationIndex, 200
MetaData, TestRecord.Preservation, true
MetaData, TestRecord.Flag, 
MetaData, TestRecord.Remarks, 
MetaData, TestRecord.LinkKey, 7770660c-5751-4a8f-b074-3043244d7dfa
MetaData, TestRecord.Parameters, 
Dimension1, 101, 101
Dimension2, 1, 1
DataName, V, I
DataValue, -2, -3.9784599999999993E-08
DataValue, -1.9600000000000002, 2.9097199999999997E-08
DataValue, -1.9200000000000002, -1.1420599999999998E-08
DataValue, -1.8800000000000001, -1.1063999999999998E-09
DataValue, -1.84, 1.2485999999999998E-08
DataValue, -1.8, -2.7561599999999997E-08
DataValue, -1.76, 4.4263199999999995E-08
DataValue, -1.72, -5.2993399999999992E-08
DataValue, -1.6800000000000002, 5.5679399999999994E-08
DataValue, -1.6400000000000001, -5.8147999999999992E-08
DataValue, -1.6, 5.95574E-08
DataValue, -1.56, -5.6035199999999996E-08
DataValue, -1.52, 5.1614999999999996E-08
DataValue, -1.48, -4.2595E-08
DataValue, -1.4400000000000002, 3.41958E-08
DataValue, -1.4000000000000001, -3.6743999999999995E-08
DataValue, -1.36, 3.9769199999999995E-08
DataValue, -1.32, -4.19268E-08
DataValue, -1.28, 4.0612399999999995E-08
DataValue, -1.24, -2.02224E-08
DataValue, -1.2, 2.5556599999999997E-08
DataValue, -1.1600000000000001, -1.60422E-08
DataValue, -1.12, -4.6079999999999995E-10
DataValue, -1.08, -2.3197999999999998E-09
DataValue, -1.04, -2.3275399999999997E-08
DataValue, -1, 4.1997999999999997E-08
DataValue, -0.96000000000000008, -5.1488399999999993E-08
DataValue, -0.92, 5.5213399999999995E-08
DataValue, -0.88, -5.8311599999999991E-08
DataValue, -0.84000000000000008, 5.99658E-08
DataValue, -0.8, -5.5845199999999992E-08
DataValue, -0.76, 3.0712E-08
DataValue, -0.72000000000000008, -8.504E-09
DataValue, -0.68, -3.8355999999999995E-09
DataValue, -0.64, 1.6005199999999998E-08
DataValue, -0.6, -3.1479E-08
DataValue, -0.56, 5.6743599999999993E-08
DataValue, -0.52, -5.7995799999999994E-08
DataValue, -0.48000000000000004, 5.88842E-08
DataValue, -0.44, -5.3199399999999994E-08
DataValue, -0.4, 4.5173599999999996E-08
DataValue, -0.36000000000000004, -3.3900399999999994E-08
DataValue, -0.32, 2.2170999999999997E-08
DataValue, -0.28, -2.5488399999999998E-08
DataValue, -0.24000000000000002, 1.9407E-08
DataValue, -0.2, -1.9518E-09
DataValue, -0.16, 5.6013999999999993E-09
DataValue, -0.12000000000000001, -2.0506E-09
DataValue, -0.08, -1.6731E-08
DataValue, -0.04, 1.33766E-08
DataValue, 0, -3.8165399999999993E-08
DataValue, 0.04, 4.6487E-08
DataValue, 0.08, -4.3970599999999995E-08
DataValue, 0.12000000000000001, 4.5063399999999993E-08
DataValue, 0.16, -5.5480999999999992E-08
DataValue, 0.2, 5.8436799999999992E-08
DataValue, 0.24000000000000002, -5.91144E-08
DataValue, 0.28, 5.6013599999999993E-08
DataValue, 0.32, -4.5819999999999996E-08
DataValue, 0.36000000000000004, 3.6907999999999995E-08
DataValue, 0.4, -1.8813799999999998E-08
DataValue, 0.44, 5.4592399999999992E-08
DataValue, 0.48000000000000004, -4.42E-08
DataValue, 0.52, 3.4997799999999996E-08
DataValue, 0.56, -2.0017999999999998E-08
DataValue, 0.6, 6.2319999999999992E-09
DataValue, 0.64, 3.8861999999999993E-09
DataValue, 0.68, -1.1601999999999999E-08
DataValue, 0.72000000000000008, 9.8491999999999986E-09
DataValue, 0.76, -6.9121999999999994E-09
DataValue, 0.8, 1.84132E-08
DataValue, 0.84000000000000008, -1.4175999999999999E-08
DataValue, 0.88, 1.3857199999999999E-08
DataValue, 0.92, -3.7962799999999996E-08
DataValue, 0.96000000000000008, 3.29792E-08
DataValue, 1, -3.89438E-08
DataValue, 1.04, 5.3287599999999992E-08
DataValue, 1.08, -5.25248E-08
DataValue, 1.12, 5.35464E-08
DataValue, 1.1600000000000001, -5.8357799999999995E-08
DataValue, 1.2, 5.8257E-08
DataValue, 1.24, -5.2951799999999992E-08
DataValue, 1.28, 4.43642E-08
DataValue, 1.32, -3.03372E-08
DataValue, 1.36, -2.43268E-08
DataValue, 1.4000000000000001, 4.07652E-08
DataValue, 1.4400000000000002, -5.0910599999999997E-08
DataValue, 1.48, 5.4777999999999996E-08
DataValue, 1.52, -5.8131399999999995E-08
DataValue, 1.56, 5.9500999999999991E-08
DataValue, 1.6, -5.59246E-08
DataValue, 1.6400000000000001, 5.38192E-08
DataValue, 1.6800000000000002, -5.3857199999999995E-08
DataValue, 1.72, 5.47926E-08
DataValue, 1.76, -5.4739999999999993E-08
DataValue, 1.8, 5.4920799999999995E-08
DataValue, 1.84, -4.20532E-08
DataValue, 1.8800000000000001, 4.50772E-08
DataValue, 1.9200000000000002, -3.8828999999999997E-08
DataValue, 1.9600000000000002, 1.8799399999999997E-08
DataValue, 2, -2.2232199999999998E-08