
SetupTitle, I/V Sweep
PrimitiveTest, I/V Sweep
TestParameter, Context.MainFrame, B1500A
TestParameter, Channel.UnitType, SMU, SMU, SMU, SMU, SMU
TestParameter, Channel.Unit, SMU1:HP, SMU2:MP, SMU3:MP, SMU4:MP, SMU5:MP
TestParameter, Channel.IName, I, IDD1, IDD2, ISS, IPP
TestParameter, Channel.VName, V, VDD1, VDD2, VSS, VPP
TestParameter, Channel.Mode, V, V, V, V, V
TestParameter, Channel.Func, VAR1, CONST, CONST, CONST, CONST
TestParameter, Channel.Index, 
TestParameter, Channel.Time, 
TestParameter, Measurement.Port.Unit, SMU1:HP, SMU2:MP, SMU3:MP, SMU4:MP, SMU5:MP
TestParameter, Measurement.Port.SeriesResistor, NONE, NONE, NONE, NONE, NONE
TestParameter, Measurement.Port.Filter, ON, ON, ON, ON, ON
TestParameter, Measurement.Port.OutputVoltageComparison, 0, 0, 0, 0, 0
TestParameter, Measurement.Primary.Locus, Single
TestParameter, Measurement.Primary.Scale, LINEAR
TestParameter, Measurement.Primary.Start, -2
TestParameter, Measurement.Primary.Stop, 2
TestParameter, Measurement.Primary.Step, 0.04
TestParameter, Measurement.Primary.Compliance, 0.1
TestParameter, Measurement.Primary.PowerCompliance, 0
TestParameter, Measurement.Aborting.Condition, CONTINUE AT ANY
TestParameter, Measurement.PostOutput.Value, START
TestParameter, Measurement.PostOutput.Retention, OFF
TestParameter, Measurement.Bias.Source, -2, 1.8, 1.1, 0, 0
TestParameter, Measurement.Bias.Compliance, 0.1, 0.1, 0.1, 0.1, 0.1
TestParameter, Measurement.Monitor.Unit, SMU1:HP, SMU2:MP, SMU3:MP, SMU4:MP, SMU5:MP
TestParameter, Measurement.Monitor.Adc, HR ADC, HR ADC, HR ADC, HR ADC, HR ADC
TestParameter, Measurement.Monitor.Measurement, Compliance Side, Compliance Side, Compliance Side, Compliance Side, Compliance Side
TestParameter, Measurement.Monitor.RangingMode, LIMITED, LIMITED, LIMITED, LIMITED, LIMITED
TestParameter, Measurement.Monitor.RangeBoundary, 1nA, 1nA, 1nA, 1nA, 1nA
TestParameter, Measurement.Monitor.RangeRating, BY FULL RANGE, BY FULL RANGE, BY FULL RANGE, BY FULL RANGE, BY FULL RANGE
TestParameter, Measurement.Monitor.RangeRatingCoeff, 50, 50, 50, 50, 50
TestParameter, Measurement.Timing.Hold, 0
TestParameter, Measurement.Timing.Delay, 0
TestParameter, Measurement.Adc.HighSpeed.Mode, AUTO
TestParameter, Measurement.Adc.HighSpeed.Coeff, 1
TestParameter, Measurement.Adc.HighResolution.AutoZero, OFF
TestParameter, Measurement.Adc.HighResolution.Mode, AUTO
TestParameter, Measurement.Adc.HighResolution.Coeff, 6
TestParameter, Measurement.WaitTime.Source.Coeff, 1
TestParameter, Measurement.WaitTime.Source.Offset, 0
TestParameter, Measurement.WaitTime.Monitor.Coeff, 1
TestParameter, Measurement.WaitTime.Monitor.Offset, 0
TestParameter, Output.Graph.Enabled, true
TestParameter, Output.Graph.AutoScaling, false
TestParameter, Output.Graph.XAxis.Data, V
TestParameter, Output.Graph.XAxis.Scale, Linear
TestParameter, Output.Graph.XAxis.Left, -2
TestParameter, Output.Graph.XAxis.Right, 2
TestParameter, Output.Graph.XAxis.RunTimeAutoScale, true
TestParameter, Output.Graph.YAxis.Data, I
TestParameter, Output.Graph.YAxis.Scale, Linear
TestParameter, Output.Graph.YAxis.Bottom, -0.1
TestParameter, Output.Graph.YAxis.Top, 0.1
TestParameter, Output.Graph.YAxis.Group, 
TestParameter, Output.Graph.YAxis.RunTimeAutoScale, true
TestParameter, AutoAnalysis.Interpolation, false
TestParameter, AutoAnalysis.Var2StepCount, 1
TestParameter, AutoAnalysis.Var2StepScript, 
TestParameter, AutoAnalysis.Line1.Enabled, false
TestParameter, AutoAnalysis.Line1.Type, 1
TestParameter, AutoAnalysis.Line1.Fix, True
TestParameter, AutoAnalysis.Line1.YAxis, 0
TestParameter, AutoAnalysis.Line1.Point1.Type, 0
TestParameter, AutoAnalysis.Line1.Point1.XY.X, 
TestParameter, AutoAnalysis.Line1.Point1.XY.Y, 
TestParameter, AutoAnalysis.Line1.Point1.Data.Var, 
TestParameter, AutoAnalysis.Line1.Point1.Data.Condition, 
TestParameter, AutoAnalysis.Line1.Point1.Data.Start, false
TestParameter, AutoAnalysis.Line1.Point1.Data.StartVar, 
TestParameter, AutoAnalysis.Line1.Point1.Data.StartCondition, 
TestParameter, AutoAnalysis.Line1.Point2.Type, 0
TestParameter, AutoAnalysis.Line1.Point2.XY.X, 
TestParameter, AutoAnalysis.Line1.Point2.XY.Y, 
TestParameter, AutoAnalysis.Line1.Point2.Data.Var, 
TestParameter, AutoAnalysis.Line1.Point2.Data.Condition, 
TestParameter, AutoAnalysis.Line1.Point2.Data.Start, false
TestParameter, AutoAnalysis.Line1.Point2.Data.StartVar, 
TestParameter, AutoAnalysis.Line1.Point2.Data.StartCondition, 
TestParameter, AutoAnalysis.Line1.GradientExpr, 0
TestParameter, AutoAnalysis.Line2.Enabled, false
TestParameter, AutoAnalysis.Line2.Type, 1
TestParameter, AutoAnalysis.Line2.Fix, True
TestParameter, AutoAnalysis.Line2.YAxis, 0
TestParameter, AutoAnalysis.Line2.Point1.Type, 0
TestParameter, AutoAnalysis.Line2.Point1.XY.X, 
TestParameter, AutoAnalysis.Line2.Point1.XY.Y, 
TestParameter, AutoAnalysis.Line2.Point1.Data.Var, 
TestParameter, AutoAnalysis.Line2.Point1.Data.Condition, 
TestParameter, AutoAnalysis.Line2.Point1.Data.Start, false
TestParameter, AutoAnalysis.Line2.Point1.Data.StartVar, 
TestParameter, AutoAnalysis.Line2.Point1.Data.StartCondition, 
TestParameter, AutoAnalysis.Line2.Point2.Type, 0
TestParameter, AutoAnalysis.Line2.Point2.XY.X, 
TestParameter, AutoAnalysis.Line2.Point2.XY.Y, 
TestParameter, AutoAnalysis.Line2.Point2.Data.Var, 
TestParameter, AutoAnalysis.Line2.Point2.Data.Condition, 
TestParameter, AutoAnalysis.Line2.Point2.Data.Start, false
TestParameter, AutoAnalysis.Line2.Point2.Data.StartVar, 
TestParameter, AutoAnalysis.Line2.Point2.Data.StartCondition, 
TestParameter, AutoAnalysis.Line2.GradientExpr, 0
TestParameter, AutoAnalysis.Marker.Enabled, false
TestParameter, AutoAnalysis.Marker.Data.Var, 
TestParameter, AutoAnalysis.Marker.Data.Condition, 
TestParameter, AutoAnalysis.Marker.Data.Start, false
TestParameter, AutoAnalysis.Marker.Data.StartVar, 
TestParameter, AutoAnalysis.Marker.Data.StartCondition, 
MetaData, TestRecord.EntryPoint, true
MetaData, TestRecord.RecordTime, 10/19/2022 11:31:39
MetaData, TestRecord.TestTarget, 
MetaData, TestRecord.IterationIndex, 199
MetaData, TestRecord.Preservation, true
MetaData, TestRecord.Flag, 
MetaData, TestRecord.Remarks, 
MetaData, TestRecord.LinkKey, 0aa86c03-7eb9-484f-82fc-a7b63e8a95cb
MetaData, TestRecord.Parameters, 
Dimension1, 101, 101
Dimension2, 1, 1
DataName, V, I
DataValue, -2, -3.1623999999999998E-09
DataValue, -1.9600000000000002, 1.9849999999999997E-09
DataValue, -1.9200000000000002, 4.6508E-09
DataValue, -1.8800000000000001, 3.1765999999999996E-09
DataValue, -1.84, 1.8761999999999998E-09
DataValue, -1.8, 4.7219999999999992E-09
DataValue, -1.76, 2.8267999999999998E-09
DataValue, -1.72, 3.8564E-09
DataValue, -1.6800000000000002, 3.2288E-09
DataValue, -1.6400000000000001, 2.1448E-09
DataValue, -1.6, 4.9513999999999993E-09
DataValue, -1.56, 3.9284E-09
DataValue, -1.52, 2.5802E-09
DataValue, -1.48, 5.517E-09
DataValue, -1.4400000000000002, 4.2676E-09
DataValue, -1.4000000000000001, 3.013E-09
DataValue, -1.36, 1.7597999999999999E-09
DataValue, -1.32, 4.5233999999999995E-09
DataValue, -1.28, 3.4627999999999997E-09
DataValue, -1.24, 3.9515999999999995E-09
DataValue, -1.2, 2.5994E-09
DataValue, -1.1600000000000001, 5.4427999999999994E-09
DataValue, -1.12, 4.2015999999999992E-09
DataValue, -1.08, 3.0969999999999995E-09
DataValue, -1.04, 2.0588E-09
DataValue, -1, 5.1288E-09
DataValue, -0.96000000000000008, 4.104E-09
DataValue, -0.92, 2.9672E-09
DataValue, -0.88, 5.7216E-09
DataValue, -0.84000000000000008, 4.5257999999999994E-09
DataValue, -0.8, 3.2713999999999997E-09
DataValue, -0.76, 1.9861999999999996E-09
DataValue, -0.72000000000000008, 4.9094E-09
DataValue, -0.68, 3.9208E-09
DataValue, -0.64, 1.2749999999999998E-09
DataValue, -0.6, 4.1116E-09
DataValue, -0.56, 2.9451999999999997E-09
DataValue, -0.52, 1.8728E-09
DataValue, -0.48000000000000004, 2.7979999999999996E-09
DataValue, -0.44, 4.058E-09
DataValue, -0.4, 2.7314E-09
DataValue, -0.36000000000000004, 5.533E-09
DataValue, -0.32, 4.3278E-09
DataValue, -0.28, 3.0987999999999997E-09
DataValue, -0.24000000000000002, 2.1037999999999997E-09
DataValue, -0.2, 3.7802E-09
DataValue, -0.16, 5.3645999999999994E-09
DataValue, -0.12000000000000001, 4.2086E-09
DataValue, -0.08, 3.1495999999999995E-09
DataValue, -0.04, 2.0774E-09
DataValue, 0, 4.3019999999999994E-09
DataValue, 0.04, 3.4745999999999996E-09
DataValue, 0.08, 2.1781999999999998E-09
DataValue, 0.12000000000000001, 5.0191999999999994E-09
DataValue, 0.16, 3.9826E-09
DataValue, 0.2, 2.9169999999999997E-09
DataValue, 0.24000000000000002, 5.6687999999999993E-09
DataValue, 0.28, 4.4499999999999993E-09
DataValue, 0.32, 3.191E-09
DataValue, 0.36000000000000004, 2.168E-09
DataValue, 0.4, 8.0399999999999991E-10
DataValue, 0.44, 3.4709999999999997E-09
DataValue, 0.48000000000000004, 2.1509999999999997E-09
DataValue, 0.52, 5.0582E-09
DataValue, 0.56, 3.8135999999999993E-09
DataValue, 0.6, 5.1913999999999993E-09
DataValue, 0.64, 4.2112E-09
DataValue, 0.68, 4.2864E-09
DataValue, 0.72000000000000008, 5.635E-09
DataValue, 0.76, 2.7072E-09
DataValue, 0.8, 5.4911999999999994E-09
DataValue, 0.84000000000000008, 2.0234E-09
DataValue, 0.88, 3.0363999999999996E-09
DataValue, 0.92, 4.9478E-09
DataValue, 0.96000000000000008, 1.8239999999999999E-10
DataValue, 1, 3.6221999999999998E-09
DataValue, 1.04, 4.5825999999999995E-09
DataValue, 1.08, 1.9219999999999998E-09
DataValue, 1.12, 1.8499999999999998E-09
DataValue, 1.1600000000000001, 4.729E-09
DataValue, 1.2, 3.4259999999999995E-09
DataValue, 1.24, 2.1356E-09
DataValue, 1.28, 5.053E-09
DataValue, 1.32, 3.8269999999999993E-09
DataValue, 1.36, 2.5323999999999997E-09
DataValue, 1.4000000000000001, 1.2228E-09
DataValue, 1.4400000000000002, 2.5635999999999997E-09
DataValue, 1.48, 5.3935999999999992E-09
DataValue, 1.52, 4.1552E-09
DataValue, 1.56, 1.8557999999999997E-09
DataValue, 1.6, 5.1731999999999995E-09
DataValue, 1.6400000000000001, 3.9563999999999993E-09
DataValue, 1.6800000000000002, -1.0199999999999998E-10
DataValue, 1.72, 5.864E-09
DataValue, 1.76, 4.524E-09
DataValue, 1.8, 3.2695999999999995E-09
DataValue, 1.84, 2.2253999999999998E-09
DataValue, 1.8800000000000001, 3.0665999999999997E-09
DataValue, 1.9200000000000002, 4.4927999999999992E-09
DataValue, 1.9600000000000002, 3.1917999999999997E-09
DataValue, 2, 1.9964E-09