
SetupTitle, I/V Sweep
PrimitiveTest, I/V Sweep
TestParameter, Context.MainFrame, B1500A
TestParameter, Channel.UnitType, SMU, SMU, SMU, SMU, SMU
TestParameter, Channel.Unit, SMU1:HP, SMU2:MP, SMU3:MP, SMU4:MP, SMU5:MP
TestParameter, Channel.IName, I, IDD1, IDD2, ISS, IPP
TestParameter, Channel.VName, V, VDD1, VDD2, VSS, VPP
TestParameter, Channel.Mode, V, V, V, V, V
TestParameter, Channel.Func, VAR1, CONST, CONST, CONST, CONST
TestParameter, Channel.Index, 
TestParameter, Channel.Time, 
TestParameter, Measurement.Port.Unit, SMU1:HP, SMU2:MP, SMU3:MP, SMU4:MP, SMU5:MP
TestParameter, Measurement.Port.SeriesResistor, NONE, NONE, NONE, NONE, NONE
TestParameter, Measurement.Port.Filter, ON, ON, ON, ON, ON
TestParameter, Measurement.Port.OutputVoltageComparison, 0, 0, 0, 0, 0
TestParameter, Measurement.Primary.Locus, Single
TestParameter, Measurement.Primary.Scale, LINEAR
TestParameter, Measurement.Primary.Start, -2
TestParameter, Measurement.Primary.Stop, 2
TestParameter, Measurement.Primary.Step, 0.04
TestParameter, Measurement.Primary.Compliance, 0.1
TestParameter, Measurement.Primary.PowerCompliance, 0
TestParameter, Measurement.Aborting.Condition, CONTINUE AT ANY
TestParameter, Measurement.PostOutput.Value, START
TestParameter, Measurement.PostOutput.Retention, OFF
TestParameter, Measurement.Bias.Source, -2, 1.8, 1.1, 0, 0
TestParameter, Measurement.Bias.Compliance, 0.1, 0.1, 0.1, 0.1, 0.1
TestParameter, Measurement.Monitor.Unit, SMU1:HP, SMU2:MP, SMU3:MP, SMU4:MP, SMU5:MP
TestParameter, Measurement.Monitor.Adc, HR ADC, HR ADC, HR ADC, HR ADC, HR ADC
TestParameter, Measurement.Monitor.Measurement, Compliance Side, Compliance Side, Compliance Side, Compliance Side, Compliance Side
TestParameter, Measurement.Monitor.RangingMode, LIMITED, LIMITED, LIMITED, LIMITED, LIMITED
TestParameter, Measurement.Monitor.RangeBoundary, 1nA, 1nA, 1nA, 1nA, 1nA
TestParameter, Measurement.Monitor.RangeRating, BY FULL RANGE, BY FULL RANGE, BY FULL RANGE, BY FULL RANGE, BY FULL RANGE
TestParameter, Measurement.Monitor.RangeRatingCoeff, 50, 50, 50, 50, 50
TestParameter, Measurement.Timing.Hold, 0
TestParameter, Measurement.Timing.Delay, 0
TestParameter, Measurement.Adc.HighSpeed.Mode, AUTO
TestParameter, Measurement.Adc.HighSpeed.Coeff, 1
TestParameter, Measurement.Adc.HighResolution.AutoZero, OFF
TestParameter, Measurement.Adc.HighResolution.Mode, AUTO
TestParameter, Measurement.Adc.HighResolution.Coeff, 6
TestParameter, Measurement.WaitTime.Source.Coeff, 1
TestParameter, Measurement.WaitTime.Source.Offset, 0
TestParameter, Measurement.WaitTime.Monitor.Coeff, 1
TestParameter, Measurement.WaitTime.Monitor.Offset, 0
TestParameter, Output.Graph.Enabled, true
TestParameter, Output.Graph.AutoScaling, false
TestParameter, Output.Graph.XAxis.Data, V
TestParameter, Output.Graph.XAxis.Scale, Linear
TestParameter, Output.Graph.XAxis.Left, -2
TestParameter, Output.Graph.XAxis.Right, 2
TestParameter, Output.Graph.XAxis.RunTimeAutoScale, true
TestParameter, Output.Graph.YAxis.Data, I
TestParameter, Output.Graph.YAxis.Scale, Linear
TestParameter, Output.Graph.YAxis.Bottom, -0.1
TestParameter, Output.Graph.YAxis.Top, 0.1
TestParameter, Output.Graph.YAxis.Group, 
TestParameter, Output.Graph.YAxis.RunTimeAutoScale, true
TestParameter, AutoAnalysis.Interpolation, false
TestParameter, AutoAnalysis.Var2StepCount, 1
TestParameter, AutoAnalysis.Var2StepScript, 
TestParameter, AutoAnalysis.Line1.Enabled, false
TestParameter, AutoAnalysis.Line1.Type, 1
TestParameter, AutoAnalysis.Line1.Fix, True
TestParameter, AutoAnalysis.Line1.YAxis, 0
TestParameter, AutoAnalysis.Line1.Point1.Type, 0
TestParameter, AutoAnalysis.Line1.Point1.XY.X, 
TestParameter, AutoAnalysis.Line1.Point1.XY.Y, 
TestParameter, AutoAnalysis.Line1.Point1.Data.Var, 
TestParameter, AutoAnalysis.Line1.Point1.Data.Condition, 
TestParameter, AutoAnalysis.Line1.Point1.Data.Start, false
TestParameter, AutoAnalysis.Line1.Point1.Data.StartVar, 
TestParameter, AutoAnalysis.Line1.Point1.Data.StartCondition, 
TestParameter, AutoAnalysis.Line1.Point2.Type, 0
TestParameter, AutoAnalysis.Line1.Point2.XY.X, 
TestParameter, AutoAnalysis.Line1.Point2.XY.Y, 
TestParameter, AutoAnalysis.Line1.Point2.Data.Var, 
TestParameter, AutoAnalysis.Line1.Point2.Data.Condition, 
TestParameter, AutoAnalysis.Line1.Point2.Data.Start, false
TestParameter, AutoAnalysis.Line1.Point2.Data.StartVar, 
TestParameter, AutoAnalysis.Line1.Point2.Data.StartCondition, 
TestParameter, AutoAnalysis.Line1.GradientExpr, 0
TestParameter, AutoAnalysis.Line2.Enabled, false
TestParameter, AutoAnalysis.Line2.Type, 1
TestParameter, AutoAnalysis.Line2.Fix, True
TestParameter, AutoAnalysis.Line2.YAxis, 0
TestParameter, AutoAnalysis.Line2.Point1.Type, 0
TestParameter, AutoAnalysis.Line2.Point1.XY.X, 
TestParameter, AutoAnalysis.Line2.Point1.XY.Y, 
TestParameter, AutoAnalysis.Line2.Point1.Data.Var, 
TestParameter, AutoAnalysis.Line2.Point1.Data.Condition, 
TestParameter, AutoAnalysis.Line2.Point1.Data.Start, false
TestParameter, AutoAnalysis.Line2.Point1.Data.StartVar, 
TestParameter, AutoAnalysis.Line2.Point1.Data.StartCondition, 
TestParameter, AutoAnalysis.Line2.Point2.Type, 0
TestParameter, AutoAnalysis.Line2.Point2.XY.X, 
TestParameter, AutoAnalysis.Line2.Point2.XY.Y, 
TestParameter, AutoAnalysis.Line2.Point2.Data.Var, 
TestParameter, AutoAnalysis.Line2.Point2.Data.Condition, 
TestParameter, AutoAnalysis.Line2.Point2.Data.Start, false
TestParameter, AutoAnalysis.Line2.Point2.Data.StartVar, 
TestParameter, AutoAnalysis.Line2.Point2.Data.StartCondition, 
TestParameter, AutoAnalysis.Line2.GradientExpr, 0
TestParameter, AutoAnalysis.Marker.Enabled, false
TestParameter, AutoAnalysis.Marker.Data.Var, 
TestParameter, AutoAnalysis.Marker.Data.Condition, 
TestParameter, AutoAnalysis.Marker.Data.Start, false
TestParameter, AutoAnalysis.Marker.Data.StartVar, 
TestParameter, AutoAnalysis.Marker.Data.StartCondition, 
MetaData, TestRecord.EntryPoint, true
MetaData, TestRecord.RecordTime, 10/19/2022 11:26:21
MetaData, TestRecord.TestTarget, 
MetaData, TestRecord.IterationIndex, 185
MetaData, TestRecord.Preservation, true
MetaData, TestRecord.Flag, 
MetaData, TestRecord.Remarks, 
MetaData, TestRecord.LinkKey, f3bc774b-fce3-4e90-b44e-ab26b6a95c96
MetaData, TestRecord.Parameters, 
Dimension1, 101, 101
Dimension2, 1, 1
DataName, V, I
DataValue, -2, -5.2996999999999995E-08
DataValue, -1.9600000000000002, 5.5706599999999995E-08
DataValue, -1.9200000000000002, -5.8543E-08
DataValue, -1.8800000000000001, 5.8907599999999992E-08
DataValue, -1.84, -5.8641999999999997E-08
DataValue, -1.8, 5.2439399999999992E-08
DataValue, -1.76, -4.2012E-08
DataValue, -1.72, 5.9202799999999993E-08
DataValue, -1.6800000000000002, -5.6335599999999994E-08
DataValue, -1.6400000000000001, 4.8674199999999994E-08
DataValue, -1.6, -3.8031799999999995E-08
DataValue, -1.56, 6.0202E-08
DataValue, -1.52, -5.5402799999999992E-08
DataValue, -1.48, 4.6016999999999994E-08
DataValue, -1.4400000000000002, -1.7724799999999997E-08
DataValue, -1.4000000000000001, -3.31154E-08
DataValue, -1.36, 4.98054E-08
DataValue, -1.32, -5.6160199999999992E-08
DataValue, -1.28, 5.7804799999999996E-08
DataValue, -1.24, -5.9059599999999992E-08
DataValue, -1.2, 5.20348E-08
DataValue, -1.1600000000000001, -5.6187399999999994E-08
DataValue, -1.12, 5.901E-08
DataValue, -1.08, -5.9338599999999991E-08
DataValue, -1.04, 5.6705599999999997E-08
DataValue, -1, -4.7619199999999995E-08
DataValue, -0.96000000000000008, 3.9497999999999994E-08
DataValue, -0.92, -2.8125999999999997E-08
DataValue, -0.88, 2.42002E-08
DataValue, -0.84000000000000008, -5.9476E-09
DataValue, -0.8, 5.7916999999999995E-08
DataValue, -0.76, -5.9050799999999993E-08
DataValue, -0.72000000000000008, 5.3063199999999994E-08
DataValue, -0.68, -5.6767799999999992E-08
DataValue, -0.64, 5.8965799999999996E-08
DataValue, -0.6, -5.9337399999999992E-08
DataValue, -0.56, 6.04932E-08
DataValue, -0.52, -5.5119399999999994E-08
DataValue, -0.48000000000000004, 4.4607199999999995E-08
DataValue, -0.44, -3.2813E-08
DataValue, -0.4, -2.2943999999999997E-08
DataValue, -0.36000000000000004, 3.66536E-08
DataValue, -0.32, -5.4662199999999994E-08
DataValue, -0.28, 5.6038999999999996E-08
DataValue, -0.24000000000000002, -5.9546199999999994E-08
DataValue, -0.2, 6.01914E-08
DataValue, -0.16, -5.5172399999999994E-08
DataValue, -0.12000000000000001, 4.5379199999999996E-08
DataValue, -0.08, -3.37524E-08
DataValue, -0.04, 5.9613399999999988E-08
DataValue, 0, -4.1672799999999994E-08
DataValue, 0.04, 2.8691199999999996E-08
DataValue, 0.08, -3.14184E-08
DataValue, 0.12000000000000001, -3.3055399999999996E-08
DataValue, 0.16, 4.95992E-08
DataValue, 0.2, -5.7076399999999996E-08
DataValue, 0.24000000000000002, 5.9435399999999991E-08
DataValue, 0.28, -6.02088E-08
DataValue, 0.32, 5.5002999999999993E-08
DataValue, 0.36000000000000004, -4.3669E-08
DataValue, 0.4, 3.34714E-08
DataValue, 0.44, -1.4386999999999998E-08
DataValue, 0.48000000000000004, 5.58984E-08
DataValue, 0.52, -5.9461599999999992E-08
DataValue, 0.56, 5.91702E-08
DataValue, 0.6, -5.8029599999999996E-08
DataValue, 0.64, 5.2005599999999994E-08
DataValue, 0.68, -4.0729399999999995E-08
DataValue, 0.72000000000000008, 6.0047599999999988E-08
DataValue, 0.76, -5.5835599999999996E-08
DataValue, 0.8, 5.1463599999999995E-08
DataValue, 0.84000000000000008, -4.4090799999999997E-08
DataValue, 0.88, 5.96838E-08
DataValue, 0.92, -5.6170999999999994E-08
DataValue, 0.96000000000000008, 5.0059199999999996E-08
DataValue, 1, -4.0783199999999993E-08
DataValue, 1.04, 4.02404E-08
DataValue, 1.08, -8.2404E-09
DataValue, 1.12, -2.6871199999999997E-08
DataValue, 1.1600000000000001, 2.4206199999999996E-08
DataValue, 1.2, -2.6470599999999997E-08
DataValue, 1.24, 2.33474E-08
DataValue, 1.28, 3.51884E-08
DataValue, 1.32, -3.29518E-08
DataValue, 1.36, 3.71052E-08
DataValue, 1.4000000000000001, -3.9344399999999993E-08
DataValue, 1.4400000000000002, 1.529E-08
DataValue, 1.48, -1.7372599999999998E-08
DataValue, 1.52, -3.3584799999999995E-08
DataValue, 1.56, 3.07134E-08
DataValue, 1.6, -3.21578E-08
DataValue, 1.6400000000000001, 3.7839999999999993E-08
DataValue, 1.6800000000000002, -3.3192599999999996E-08
DataValue, 1.72, 5.4413999999999993E-08
DataValue, 1.76, -5.2803799999999997E-08
DataValue, 1.8, 5.4792799999999995E-08
DataValue, 1.84, -5.8201999999999994E-08
DataValue, 1.8800000000000001, 5.8164199999999995E-08
DataValue, 1.9200000000000002, -5.6783799999999997E-08
DataValue, 1.9600000000000002, 6.1202E-08
DataValue, 2, -5.5728399999999996E-08