
SetupTitle, I/V Sweep
PrimitiveTest, I/V Sweep
TestParameter, Context.MainFrame, B1500A
TestParameter, Channel.UnitType, SMU, SMU, SMU, SMU, SMU
TestParameter, Channel.Unit, SMU1:HP, SMU2:MP, SMU3:MP, SMU4:MP, SMU5:MP
TestParameter, Channel.IName, I, IDD1, IDD2, ISS, IPP
TestParameter, Channel.VName, V, VDD1, VDD2, VSS, VPP
TestParameter, Channel.Mode, V, V, V, V, V
TestParameter, Channel.Func, VAR1, CONST, CONST, CONST, CONST
TestParameter, Channel.Index, 
TestParameter, Channel.Time, 
TestParameter, Measurement.Port.Unit, SMU1:HP, SMU2:MP, SMU3:MP, SMU4:MP, SMU5:MP
TestParameter, Measurement.Port.SeriesResistor, NONE, NONE, NONE, NONE, NONE
TestParameter, Measurement.Port.Filter, ON, ON, ON, ON, ON
TestParameter, Measurement.Port.OutputVoltageComparison, 0, 0, 0, 0, 0
TestParameter, Measurement.Primary.Locus, Single
TestParameter, Measurement.Primary.Scale, LINEAR
TestParameter, Measurement.Primary.Start, -2
TestParameter, Measurement.Primary.Stop, 2
TestParameter, Measurement.Primary.Step, 0.04
TestParameter, Measurement.Primary.Compliance, 0.1
TestParameter, Measurement.Primary.PowerCompliance, 0
TestParameter, Measurement.Aborting.Condition, CONTINUE AT ANY
TestParameter, Measurement.PostOutput.Value, START
TestParameter, Measurement.PostOutput.Retention, OFF
TestParameter, Measurement.Bias.Source, -2, 1.8, 1.1, 0, 0
TestParameter, Measurement.Bias.Compliance, 0.1, 0.1, 0.1, 0.1, 0.1
TestParameter, Measurement.Monitor.Unit, SMU1:HP, SMU2:MP, SMU3:MP, SMU4:MP, SMU5:MP
TestParameter, Measurement.Monitor.Adc, HR ADC, HR ADC, HR ADC, HR ADC, HR ADC
TestParameter, Measurement.Monitor.Measurement, Compliance Side, Compliance Side, Compliance Side, Compliance Side, Compliance Side
TestParameter, Measurement.Monitor.RangingMode, LIMITED, LIMITED, LIMITED, LIMITED, LIMITED
TestParameter, Measurement.Monitor.RangeBoundary, 1nA, 1nA, 1nA, 1nA, 1nA
TestParameter, Measurement.Monitor.RangeRating, BY FULL RANGE, BY FULL RANGE, BY FULL RANGE, BY FULL RANGE, BY FULL RANGE
TestParameter, Measurement.Monitor.RangeRatingCoeff, 50, 50, 50, 50, 50
TestParameter, Measurement.Timing.Hold, 0
TestParameter, Measurement.Timing.Delay, 0
TestParameter, Measurement.Adc.HighSpeed.Mode, AUTO
TestParameter, Measurement.Adc.HighSpeed.Coeff, 1
TestParameter, Measurement.Adc.HighResolution.AutoZero, OFF
TestParameter, Measurement.Adc.HighResolution.Mode, AUTO
TestParameter, Measurement.Adc.HighResolution.Coeff, 6
TestParameter, Measurement.WaitTime.Source.Coeff, 1
TestParameter, Measurement.WaitTime.Source.Offset, 0
TestParameter, Measurement.WaitTime.Monitor.Coeff, 1
TestParameter, Measurement.WaitTime.Monitor.Offset, 0
TestParameter, Output.Graph.Enabled, true
TestParameter, Output.Graph.AutoScaling, false
TestParameter, Output.Graph.XAxis.Data, V
TestParameter, Output.Graph.XAxis.Scale, Linear
TestParameter, Output.Graph.XAxis.Left, -2
TestParameter, Output.Graph.XAxis.Right, 2
TestParameter, Output.Graph.XAxis.RunTimeAutoScale, true
TestParameter, Output.Graph.YAxis.Data, I
TestParameter, Output.Graph.YAxis.Scale, Linear
TestParameter, Output.Graph.YAxis.Bottom, -0.1
TestParameter, Output.Graph.YAxis.Top, 0.1
TestParameter, Output.Graph.YAxis.Group, 
TestParameter, Output.Graph.YAxis.RunTimeAutoScale, true
TestParameter, AutoAnalysis.Interpolation, false
TestParameter, AutoAnalysis.Var2StepCount, 1
TestParameter, AutoAnalysis.Var2StepScript, 
TestParameter, AutoAnalysis.Line1.Enabled, false
TestParameter, AutoAnalysis.Line1.Type, 1
TestParameter, AutoAnalysis.Line1.Fix, True
TestParameter, AutoAnalysis.Line1.YAxis, 0
TestParameter, AutoAnalysis.Line1.Point1.Type, 0
TestParameter, AutoAnalysis.Line1.Point1.XY.X, 
TestParameter, AutoAnalysis.Line1.Point1.XY.Y, 
TestParameter, AutoAnalysis.Line1.Point1.Data.Var, 
TestParameter, AutoAnalysis.Line1.Point1.Data.Condition, 
TestParameter, AutoAnalysis.Line1.Point1.Data.Start, false
TestParameter, AutoAnalysis.Line1.Point1.Data.StartVar, 
TestParameter, AutoAnalysis.Line1.Point1.Data.StartCondition, 
TestParameter, AutoAnalysis.Line1.Point2.Type, 0
TestParameter, AutoAnalysis.Line1.Point2.XY.X, 
TestParameter, AutoAnalysis.Line1.Point2.XY.Y, 
TestParameter, AutoAnalysis.Line1.Point2.Data.Var, 
TestParameter, AutoAnalysis.Line1.Point2.Data.Condition, 
TestParameter, AutoAnalysis.Line1.Point2.Data.Start, false
TestParameter, AutoAnalysis.Line1.Point2.Data.StartVar, 
TestParameter, AutoAnalysis.Line1.Point2.Data.StartCondition, 
TestParameter, AutoAnalysis.Line1.GradientExpr, 0
TestParameter, AutoAnalysis.Line2.Enabled, false
TestParameter, AutoAnalysis.Line2.Type, 1
TestParameter, AutoAnalysis.Line2.Fix, True
TestParameter, AutoAnalysis.Line2.YAxis, 0
TestParameter, AutoAnalysis.Line2.Point1.Type, 0
TestParameter, AutoAnalysis.Line2.Point1.XY.X, 
TestParameter, AutoAnalysis.Line2.Point1.XY.Y, 
TestParameter, AutoAnalysis.Line2.Point1.Data.Var, 
TestParameter, AutoAnalysis.Line2.Point1.Data.Condition, 
TestParameter, AutoAnalysis.Line2.Point1.Data.Start, false
TestParameter, AutoAnalysis.Line2.Point1.Data.StartVar, 
TestParameter, AutoAnalysis.Line2.Point1.Data.StartCondition, 
TestParameter, AutoAnalysis.Line2.Point2.Type, 0
TestParameter, AutoAnalysis.Line2.Point2.XY.X, 
TestParameter, AutoAnalysis.Line2.Point2.XY.Y, 
TestParameter, AutoAnalysis.Line2.Point2.Data.Var, 
TestParameter, AutoAnalysis.Line2.Point2.Data.Condition, 
TestParameter, AutoAnalysis.Line2.Point2.Data.Start, false
TestParameter, AutoAnalysis.Line2.Point2.Data.StartVar, 
TestParameter, AutoAnalysis.Line2.Point2.Data.StartCondition, 
TestParameter, AutoAnalysis.Line2.GradientExpr, 0
TestParameter, AutoAnalysis.Marker.Enabled, false
TestParameter, AutoAnalysis.Marker.Data.Var, 
TestParameter, AutoAnalysis.Marker.Data.Condition, 
TestParameter, AutoAnalysis.Marker.Data.Start, false
TestParameter, AutoAnalysis.Marker.Data.StartVar, 
TestParameter, AutoAnalysis.Marker.Data.StartCondition, 
MetaData, TestRecord.EntryPoint, true
MetaData, TestRecord.RecordTime, 10/19/2022 11:14:15
MetaData, TestRecord.TestTarget, 
MetaData, TestRecord.IterationIndex, 169
MetaData, TestRecord.Preservation, true
MetaData, TestRecord.Flag, 
MetaData, TestRecord.Remarks, 
MetaData, TestRecord.LinkKey, 336d11b5-ac80-448c-8b92-de66775fb1d3
MetaData, TestRecord.Parameters, 
Dimension1, 101, 101
Dimension2, 1, 1
DataName, V, I
DataValue, -2, -0.041062
DataValue, -1.9600000000000002, -0.039902000000000007
DataValue, -1.9200000000000002, -0.038766
DataValue, -1.8800000000000001, -0.037648
DataValue, -1.84, -0.036546
DataValue, -1.8, -0.035462
DataValue, -1.76, -0.034402
DataValue, -1.72, -0.033374
DataValue, -1.6800000000000002, -0.032374
DataValue, -1.6400000000000001, -0.031398
DataValue, -1.6, -0.030448000000000003
DataValue, -1.56, -0.029536000000000003
DataValue, -1.52, -0.028628000000000004
DataValue, -1.48, -0.027732000000000003
DataValue, -1.4400000000000002, -0.026888000000000002
DataValue, -1.4000000000000001, -0.026052000000000002
DataValue, -1.36, -0.025248000000000003
DataValue, -1.32, -0.024460000000000003
DataValue, -1.28, -0.023692
DataValue, -1.24, -0.022934000000000003
DataValue, -1.2, -0.022180000000000002
DataValue, -1.1600000000000001, -0.021444
DataValue, -1.12, -0.020704
DataValue, -1.08, -0.019968000000000003
DataValue, -1.04, -0.01923
DataValue, -1, -0.018488
DataValue, -0.96000000000000008, -0.017754000000000002
DataValue, -0.92, -0.017012000000000003
DataValue, -0.88, -0.016278
DataValue, -0.84000000000000008, -0.015540000000000002
DataValue, -0.8, -0.014798000000000002
DataValue, -0.76, -0.014064000000000002
DataValue, -0.72000000000000008, -0.013322
DataValue, -0.68, -0.012586000000000002
DataValue, -0.64, -0.011844
DataValue, -0.6, -0.011106000000000001
DataValue, -0.56, -0.010368
DataValue, -0.52, -0.0096318
DataValue, -0.48000000000000004, -0.0088926
DataValue, -0.44, -0.008153800000000001
DataValue, -0.4, -0.0074134000000000005
DataValue, -0.36000000000000004, -0.0066718
DataValue, -0.32, -0.0059312
DataValue, -0.28, -0.0051914000000000005
DataValue, -0.24000000000000002, -0.0044502000000000005
DataValue, -0.2, -0.0037108
DataValue, -0.16, -0.0029694
DataValue, -0.12000000000000001, -0.0022286
DataValue, -0.08, -0.0014866
DataValue, -0.04, -0.0007452400000000001
DataValue, 0, -4.7966000000000008E-06
DataValue, 0.04, 0.00073564000000000008
DataValue, 0.08, 0.0014768000000000001
DataValue, 0.12000000000000001, 0.0022182
DataValue, 0.16, 0.0029576
DataValue, 0.2, 0.0037012
DataValue, 0.24000000000000002, 0.0044416
DataValue, 0.28, 0.005183
DataValue, 0.32, 0.0059152
DataValue, 0.36000000000000004, 0.0066602
DataValue, 0.4, 0.0073996
DataValue, 0.44, 0.0081442
DataValue, 0.48000000000000004, 0.0088844
DataValue, 0.52, 0.0096262
DataValue, 0.56, 0.0103566
DataValue, 0.6, 0.0111034
DataValue, 0.64, 0.011852000000000001
DataValue, 0.68, 0.012600000000000002
DataValue, 0.72000000000000008, 0.013328000000000001
DataValue, 0.76, 0.014078000000000002
DataValue, 0.8, 0.014816000000000001
DataValue, 0.84000000000000008, 0.015568000000000002
DataValue, 0.88, 0.016308000000000003
DataValue, 0.92, 0.017054000000000003
DataValue, 0.96000000000000008, 0.017792000000000002
DataValue, 1, 0.018546
DataValue, 1.04, 0.019288000000000003
DataValue, 1.08, 0.020036
DataValue, 1.12, 0.020768000000000002
DataValue, 1.1600000000000001, 0.021526000000000003
DataValue, 1.2, 0.022272000000000004
DataValue, 1.24, 0.023056000000000004
DataValue, 1.28, 0.023824
DataValue, 1.32, 0.024646
DataValue, 1.36, 0.025476000000000002
DataValue, 1.4000000000000001, 0.026430000000000002
DataValue, 1.4400000000000002, 0.027414
DataValue, 1.48, 0.028518
DataValue, 1.52, 0.029666
DataValue, 1.56, 0.030882000000000003
DataValue, 1.6, 0.032096
DataValue, 1.6400000000000001, 0.033374
DataValue, 1.6800000000000002, 0.034688000000000004
DataValue, 1.72, 0.035972000000000004
DataValue, 1.76, 0.037358
DataValue, 1.8, 0.038726000000000003
DataValue, 1.84, 0.04012
DataValue, 1.8800000000000001, 0.041516000000000004
DataValue, 1.9200000000000002, 0.042914
DataValue, 1.9600000000000002, 0.044292000000000005
DataValue, 2, 0.045730000000000007