
SetupTitle, I/V Sweep
PrimitiveTest, I/V Sweep
TestParameter, Context.MainFrame, B1500A
TestParameter, Channel.UnitType, SMU, SMU, SMU, SMU
TestParameter, Channel.Unit, SMU1:HP, SMU2:MP, SMU3:MP, SMU4:MP
TestParameter, Channel.IName, I, IDD1, IDD2, II
TestParameter, Channel.VName, V, VDD1, VDD2, VV
TestParameter, Channel.Mode, V, V, V, V
TestParameter, Channel.Func, VAR1, CONST, CONST, CONST
TestParameter, Channel.Index, 
TestParameter, Channel.Time, 
TestParameter, Measurement.Port.Unit, SMU1:HP, SMU2:MP, SMU3:MP, SMU4:MP
TestParameter, Measurement.Port.SeriesResistor, NONE, NONE, NONE, NONE
TestParameter, Measurement.Port.Filter, ON, ON, ON, ON
TestParameter, Measurement.Port.OutputVoltageComparison, 0, 0, 0, 0
TestParameter, Measurement.Primary.Locus, Single
TestParameter, Measurement.Primary.Scale, LINEAR
TestParameter, Measurement.Primary.Start, -2
TestParameter, Measurement.Primary.Stop, 2
TestParameter, Measurement.Primary.Step, 0.04
TestParameter, Measurement.Primary.Compliance, 0.1
TestParameter, Measurement.Primary.PowerCompliance, 0
TestParameter, Measurement.Aborting.Condition, CONTINUE AT ANY
TestParameter, Measurement.PostOutput.Value, START
TestParameter, Measurement.PostOutput.Retention, OFF
TestParameter, Measurement.Bias.Source, -2, 1.8, 1.1, 0
TestParameter, Measurement.Bias.Compliance, 0.1, 0.1, 0.1, 0.1
TestParameter, Measurement.Monitor.Unit, SMU1:HP, SMU2:MP, SMU3:MP, SMU4:MP
TestParameter, Measurement.Monitor.Adc, HR ADC, HR ADC, HR ADC, HR ADC
TestParameter, Measurement.Monitor.Measurement, Compliance Side, Compliance Side, Compliance Side, Compliance Side
TestParameter, Measurement.Monitor.RangingMode, LIMITED, LIMITED, LIMITED, LIMITED
TestParameter, Measurement.Monitor.RangeBoundary, 1nA, 1nA, 1nA, 1nA
TestParameter, Measurement.Monitor.RangeRating, BY FULL RANGE, BY FULL RANGE, BY FULL RANGE, BY FULL RANGE
TestParameter, Measurement.Monitor.RangeRatingCoeff, 50, 50, 50, 50
TestParameter, Measurement.Timing.Hold, 0
TestParameter, Measurement.Timing.Delay, 0
TestParameter, Measurement.Adc.HighSpeed.Mode, AUTO
TestParameter, Measurement.Adc.HighSpeed.Coeff, 1
TestParameter, Measurement.Adc.HighResolution.AutoZero, OFF
TestParameter, Measurement.Adc.HighResolution.Mode, AUTO
TestParameter, Measurement.Adc.HighResolution.Coeff, 6
TestParameter, Measurement.WaitTime.Source.Coeff, 1
TestParameter, Measurement.WaitTime.Source.Offset, 0
TestParameter, Measurement.WaitTime.Monitor.Coeff, 1
TestParameter, Measurement.WaitTime.Monitor.Offset, 0
TestParameter, Output.Graph.Enabled, true
TestParameter, Output.Graph.AutoScaling, false
TestParameter, Output.Graph.XAxis.Data, V
TestParameter, Output.Graph.XAxis.Scale, Linear
TestParameter, Output.Graph.XAxis.Left, -2
TestParameter, Output.Graph.XAxis.Right, 2
TestParameter, Output.Graph.XAxis.RunTimeAutoScale, true
TestParameter, Output.Graph.YAxis.Data, I
TestParameter, Output.Graph.YAxis.Scale, Linear
TestParameter, Output.Graph.YAxis.Bottom, -0.1
TestParameter, Output.Graph.YAxis.Top, 0.1
TestParameter, Output.Graph.YAxis.Group, 
TestParameter, Output.Graph.YAxis.RunTimeAutoScale, true
TestParameter, AutoAnalysis.Interpolation, false
TestParameter, AutoAnalysis.Var2StepCount, 1
TestParameter, AutoAnalysis.Var2StepScript, 
TestParameter, AutoAnalysis.Line1.Enabled, false
TestParameter, AutoAnalysis.Line1.Type, 1
TestParameter, AutoAnalysis.Line1.Fix, True
TestParameter, AutoAnalysis.Line1.YAxis, 0
TestParameter, AutoAnalysis.Line1.Point1.Type, 0
TestParameter, AutoAnalysis.Line1.Point1.XY.X, 
TestParameter, AutoAnalysis.Line1.Point1.XY.Y, 
TestParameter, AutoAnalysis.Line1.Point1.Data.Var, 
TestParameter, AutoAnalysis.Line1.Point1.Data.Condition, 
TestParameter, AutoAnalysis.Line1.Point1.Data.Start, false
TestParameter, AutoAnalysis.Line1.Point1.Data.StartVar, 
TestParameter, AutoAnalysis.Line1.Point1.Data.StartCondition, 
TestParameter, AutoAnalysis.Line1.Point2.Type, 0
TestParameter, AutoAnalysis.Line1.Point2.XY.X, 
TestParameter, AutoAnalysis.Line1.Point2.XY.Y, 
TestParameter, AutoAnalysis.Line1.Point2.Data.Var, 
TestParameter, AutoAnalysis.Line1.Point2.Data.Condition, 
TestParameter, AutoAnalysis.Line1.Point2.Data.Start, false
TestParameter, AutoAnalysis.Line1.Point2.Data.StartVar, 
TestParameter, AutoAnalysis.Line1.Point2.Data.StartCondition, 
TestParameter, AutoAnalysis.Line1.GradientExpr, 0
TestParameter, AutoAnalysis.Line2.Enabled, false
TestParameter, AutoAnalysis.Line2.Type, 1
TestParameter, AutoAnalysis.Line2.Fix, True
TestParameter, AutoAnalysis.Line2.YAxis, 0
TestParameter, AutoAnalysis.Line2.Point1.Type, 0
TestParameter, AutoAnalysis.Line2.Point1.XY.X, 
TestParameter, AutoAnalysis.Line2.Point1.XY.Y, 
TestParameter, AutoAnalysis.Line2.Point1.Data.Var, 
TestParameter, AutoAnalysis.Line2.Point1.Data.Condition, 
TestParameter, AutoAnalysis.Line2.Point1.Data.Start, false
TestParameter, AutoAnalysis.Line2.Point1.Data.StartVar, 
TestParameter, AutoAnalysis.Line2.Point1.Data.StartCondition, 
TestParameter, AutoAnalysis.Line2.Point2.Type, 0
TestParameter, AutoAnalysis.Line2.Point2.XY.X, 
TestParameter, AutoAnalysis.Line2.Point2.XY.Y, 
TestParameter, AutoAnalysis.Line2.Point2.Data.Var, 
TestParameter, AutoAnalysis.Line2.Point2.Data.Condition, 
TestParameter, AutoAnalysis.Line2.Point2.Data.Start, false
TestParameter, AutoAnalysis.Line2.Point2.Data.StartVar, 
TestParameter, AutoAnalysis.Line2.Point2.Data.StartCondition, 
TestParameter, AutoAnalysis.Line2.GradientExpr, 0
TestParameter, AutoAnalysis.Marker.Enabled, false
TestParameter, AutoAnalysis.Marker.Data.Var, 
TestParameter, AutoAnalysis.Marker.Data.Condition, 
TestParameter, AutoAnalysis.Marker.Data.Start, false
TestParameter, AutoAnalysis.Marker.Data.StartVar, 
TestParameter, AutoAnalysis.Marker.Data.StartCondition, 
MetaData, TestRecord.EntryPoint, true
MetaData, TestRecord.RecordTime, 10/19/2022 15:10:03
MetaData, TestRecord.TestTarget, 
MetaData, TestRecord.IterationIndex, 25
MetaData, TestRecord.Preservation, true
MetaData, TestRecord.Flag, 
MetaData, TestRecord.Remarks, 
MetaData, TestRecord.LinkKey, 54b8b2db-3f04-4c8b-bc65-286990f69d2c
MetaData, TestRecord.Parameters, 
Dimension1, 101, 101
Dimension2, 1, 1
DataName, V, I
DataValue, -2, -0.0074054
DataValue, -1.9600000000000002, -0.0069732000000000006
DataValue, -1.9200000000000002, -0.0065492
DataValue, -1.8800000000000001, -0.0061396
DataValue, -1.84, -0.0057358
DataValue, -1.8, -0.005347
DataValue, -1.76, -0.004971
DataValue, -1.72, -0.0046072
DataValue, -1.6800000000000002, -0.0042562
DataValue, -1.6400000000000001, -0.0039202
DataValue, -1.6, -0.003597
DataValue, -1.56, -0.0032882000000000002
DataValue, -1.52, -0.0029932
DataValue, -1.48, -0.0027126
DataValue, -1.4400000000000002, -0.0024466
DataValue, -1.4000000000000001, -0.0021946
DataValue, -1.36, -0.0019558
DataValue, -1.32, -0.0017310000000000001
DataValue, -1.28, -0.0015194
DataValue, -1.24, -0.0013212
DataValue, -1.2, -0.0011372
DataValue, -1.1600000000000001, -0.00096672
DataValue, -1.12, -0.00081054
DataValue, -1.08, -0.00066884000000000008
DataValue, -1.04, -0.00054204
DataValue, -1, -0.00043034000000000003
DataValue, -0.96000000000000008, -0.00033364
DataValue, -0.92, -0.00025172000000000004
DataValue, -0.88, -0.00018458
DataValue, -0.84000000000000008, -0.00013106
DataValue, -0.8, -8.973000000000001E-05
DataValue, -0.76, -5.9314E-05
DataValue, -0.72000000000000008, -3.7658000000000004E-05
DataValue, -0.68, -2.2878E-05
DataValue, -0.64, -1.3294E-05
DataValue, -0.6, -7.3680000000000004E-06
DataValue, -0.56, -3.7704000000000004E-06
DataValue, -0.52, -1.9908E-06
DataValue, -0.48000000000000004, -1.0507000000000002E-06
DataValue, -0.44, -6.6674E-07
DataValue, -0.4, -6.9994E-07
DataValue, -0.36000000000000004, -4.723E-07
DataValue, -0.32, -3.8334E-07
DataValue, -0.28, -4.1781999999999997E-07
DataValue, -0.24000000000000002, -3.0399999999999997E-07
DataValue, -0.2, -3.0116E-07
DataValue, -0.16, -3.7712E-07
DataValue, -0.12000000000000001, -3.2145999999999997E-07
DataValue, -0.08, -3.5939999999999996E-08
DataValue, -0.04, -2.6396E-07
DataValue, 0, -3.2542E-07
DataValue, 0.04, -2.7582E-07
DataValue, 0.08, -2.7878E-07
DataValue, 0.12000000000000001, -5.006E-07
DataValue, 0.16, -3.2472E-07
DataValue, 0.2, -2.9587999999999997E-07
DataValue, 0.24000000000000002, -2.1231999999999999E-07
DataValue, 0.28, 2.0418E-07
DataValue, 0.32, 1.3192000000000002E-06
DataValue, 0.36000000000000004, 3.1160000000000003E-06
DataValue, 0.4, 4.4744000000000007E-06
DataValue, 0.44, 5.0837E-06
DataValue, 0.48000000000000004, 5.3742E-06
DataValue, 0.52, 5.6236000000000007E-06
DataValue, 0.56, 5.9842E-06
DataValue, 0.6, 6.7638E-06
DataValue, 0.64, 8.2037E-06
DataValue, 0.68, 1.1612E-05
DataValue, 0.72000000000000008, 1.8436E-05
DataValue, 0.76, 3.3596E-05
DataValue, 0.8, 6.2204E-05
DataValue, 0.84000000000000008, 0.00011028000000000001
DataValue, 0.88, 0.0001863
DataValue, 0.92, 0.0002951
DataValue, 0.96000000000000008, 0.0004378
DataValue, 1, 0.00061616
DataValue, 1.04, 0.00082718000000000006
DataValue, 1.08, 0.0010673400000000002
DataValue, 1.12, 0.0013414
DataValue, 1.1600000000000001, 0.0016268
DataValue, 1.2, 0.0019296
DataValue, 1.24, 0.0022468
DataValue, 1.28, 0.002575
DataValue, 1.32, 0.002912
DataValue, 1.36, 0.0032576000000000003
DataValue, 1.4000000000000001, 0.0036058
DataValue, 1.4400000000000002, 0.0039604
DataValue, 1.48, 0.0043156
DataValue, 1.52, 0.0046734
DataValue, 1.56, 0.0050354
DataValue, 1.6, 0.0054046
DataValue, 1.6400000000000001, 0.0057814
DataValue, 1.6800000000000002, 0.0061676000000000005
DataValue, 1.72, 0.006561
DataValue, 1.76, 0.0069676
DataValue, 1.8, 0.0073884
DataValue, 1.84, 0.0078242
DataValue, 1.8800000000000001, 0.0082636
DataValue, 1.9200000000000002, 0.0087112
DataValue, 1.9600000000000002, 0.0091618
DataValue, 2, 0.0096234