
SetupTitle, I/V Sweep
PrimitiveTest, I/V Sweep
TestParameter, Context.MainFrame, B1500A
TestParameter, Channel.UnitType, SMU, SMU, SMU, SMU
TestParameter, Channel.Unit, SMU1:HP, SMU2:MP, SMU3:MP, SMU4:MP
TestParameter, Channel.IName, I, IDD1, IDD2, II
TestParameter, Channel.VName, V, VDD1, VDD2, VV
TestParameter, Channel.Mode, V, V, V, V
TestParameter, Channel.Func, VAR1, CONST, CONST, CONST
TestParameter, Channel.Index, 
TestParameter, Channel.Time, 
TestParameter, Measurement.Port.Unit, SMU1:HP, SMU2:MP, SMU3:MP, SMU4:MP
TestParameter, Measurement.Port.SeriesResistor, NONE, NONE, NONE, NONE
TestParameter, Measurement.Port.Filter, ON, ON, ON, ON
TestParameter, Measurement.Port.OutputVoltageComparison, 0, 0, 0, 0
TestParameter, Measurement.Primary.Locus, Single
TestParameter, Measurement.Primary.Scale, LINEAR
TestParameter, Measurement.Primary.Start, -2
TestParameter, Measurement.Primary.Stop, 2
TestParameter, Measurement.Primary.Step, 0.04
TestParameter, Measurement.Primary.Compliance, 0.1
TestParameter, Measurement.Primary.PowerCompliance, 0
TestParameter, Measurement.Aborting.Condition, CONTINUE AT ANY
TestParameter, Measurement.PostOutput.Value, START
TestParameter, Measurement.PostOutput.Retention, OFF
TestParameter, Measurement.Bias.Source, -2, 1.8, 1.1, 0
TestParameter, Measurement.Bias.Compliance, 0.1, 0.1, 0.1, 0.1
TestParameter, Measurement.Monitor.Unit, SMU1:HP, SMU2:MP, SMU3:MP, SMU4:MP
TestParameter, Measurement.Monitor.Adc, HR ADC, HR ADC, HR ADC, HR ADC
TestParameter, Measurement.Monitor.Measurement, Compliance Side, Compliance Side, Compliance Side, Compliance Side
TestParameter, Measurement.Monitor.RangingMode, LIMITED, LIMITED, LIMITED, LIMITED
TestParameter, Measurement.Monitor.RangeBoundary, 1nA, 1nA, 1nA, 1nA
TestParameter, Measurement.Monitor.RangeRating, BY FULL RANGE, BY FULL RANGE, BY FULL RANGE, BY FULL RANGE
TestParameter, Measurement.Monitor.RangeRatingCoeff, 50, 50, 50, 50
TestParameter, Measurement.Timing.Hold, 0
TestParameter, Measurement.Timing.Delay, 0
TestParameter, Measurement.Adc.HighSpeed.Mode, AUTO
TestParameter, Measurement.Adc.HighSpeed.Coeff, 1
TestParameter, Measurement.Adc.HighResolution.AutoZero, OFF
TestParameter, Measurement.Adc.HighResolution.Mode, AUTO
TestParameter, Measurement.Adc.HighResolution.Coeff, 6
TestParameter, Measurement.WaitTime.Source.Coeff, 1
TestParameter, Measurement.WaitTime.Source.Offset, 0
TestParameter, Measurement.WaitTime.Monitor.Coeff, 1
TestParameter, Measurement.WaitTime.Monitor.Offset, 0
TestParameter, Output.Graph.Enabled, true
TestParameter, Output.Graph.AutoScaling, false
TestParameter, Output.Graph.XAxis.Data, V
TestParameter, Output.Graph.XAxis.Scale, Linear
TestParameter, Output.Graph.XAxis.Left, -2
TestParameter, Output.Graph.XAxis.Right, 2
TestParameter, Output.Graph.XAxis.RunTimeAutoScale, true
TestParameter, Output.Graph.YAxis.Data, I
TestParameter, Output.Graph.YAxis.Scale, Linear
TestParameter, Output.Graph.YAxis.Bottom, -0.1
TestParameter, Output.Graph.YAxis.Top, 0.1
TestParameter, Output.Graph.YAxis.Group, 
TestParameter, Output.Graph.YAxis.RunTimeAutoScale, true
TestParameter, AutoAnalysis.Interpolation, false
TestParameter, AutoAnalysis.Var2StepCount, 1
TestParameter, AutoAnalysis.Var2StepScript, 
TestParameter, AutoAnalysis.Line1.Enabled, false
TestParameter, AutoAnalysis.Line1.Type, 1
TestParameter, AutoAnalysis.Line1.Fix, True
TestParameter, AutoAnalysis.Line1.YAxis, 0
TestParameter, AutoAnalysis.Line1.Point1.Type, 0
TestParameter, AutoAnalysis.Line1.Point1.XY.X, 
TestParameter, AutoAnalysis.Line1.Point1.XY.Y, 
TestParameter, AutoAnalysis.Line1.Point1.Data.Var, 
TestParameter, AutoAnalysis.Line1.Point1.Data.Condition, 
TestParameter, AutoAnalysis.Line1.Point1.Data.Start, false
TestParameter, AutoAnalysis.Line1.Point1.Data.StartVar, 
TestParameter, AutoAnalysis.Line1.Point1.Data.StartCondition, 
TestParameter, AutoAnalysis.Line1.Point2.Type, 0
TestParameter, AutoAnalysis.Line1.Point2.XY.X, 
TestParameter, AutoAnalysis.Line1.Point2.XY.Y, 
TestParameter, AutoAnalysis.Line1.Point2.Data.Var, 
TestParameter, AutoAnalysis.Line1.Point2.Data.Condition, 
TestParameter, AutoAnalysis.Line1.Point2.Data.Start, false
TestParameter, AutoAnalysis.Line1.Point2.Data.StartVar, 
TestParameter, AutoAnalysis.Line1.Point2.Data.StartCondition, 
TestParameter, AutoAnalysis.Line1.GradientExpr, 0
TestParameter, AutoAnalysis.Line2.Enabled, false
TestParameter, AutoAnalysis.Line2.Type, 1
TestParameter, AutoAnalysis.Line2.Fix, True
TestParameter, AutoAnalysis.Line2.YAxis, 0
TestParameter, AutoAnalysis.Line2.Point1.Type, 0
TestParameter, AutoAnalysis.Line2.Point1.XY.X, 
TestParameter, AutoAnalysis.Line2.Point1.XY.Y, 
TestParameter, AutoAnalysis.Line2.Point1.Data.Var, 
TestParameter, AutoAnalysis.Line2.Point1.Data.Condition, 
TestParameter, AutoAnalysis.Line2.Point1.Data.Start, false
TestParameter, AutoAnalysis.Line2.Point1.Data.StartVar, 
TestParameter, AutoAnalysis.Line2.Point1.Data.StartCondition, 
TestParameter, AutoAnalysis.Line2.Point2.Type, 0
TestParameter, AutoAnalysis.Line2.Point2.XY.X, 
TestParameter, AutoAnalysis.Line2.Point2.XY.Y, 
TestParameter, AutoAnalysis.Line2.Point2.Data.Var, 
TestParameter, AutoAnalysis.Line2.Point2.Data.Condition, 
TestParameter, AutoAnalysis.Line2.Point2.Data.Start, false
TestParameter, AutoAnalysis.Line2.Point2.Data.StartVar, 
TestParameter, AutoAnalysis.Line2.Point2.Data.StartCondition, 
TestParameter, AutoAnalysis.Line2.GradientExpr, 0
TestParameter, AutoAnalysis.Marker.Enabled, false
TestParameter, AutoAnalysis.Marker.Data.Var, 
TestParameter, AutoAnalysis.Marker.Data.Condition, 
TestParameter, AutoAnalysis.Marker.Data.Start, false
TestParameter, AutoAnalysis.Marker.Data.StartVar, 
TestParameter, AutoAnalysis.Marker.Data.StartCondition, 
MetaData, TestRecord.EntryPoint, true
MetaData, TestRecord.RecordTime, 10/19/2022 15:11:25
MetaData, TestRecord.TestTarget, 
MetaData, TestRecord.IterationIndex, 28
MetaData, TestRecord.Preservation, true
MetaData, TestRecord.Flag, 
MetaData, TestRecord.Remarks, 
MetaData, TestRecord.LinkKey, 7c1f65b2-b264-45d1-a1db-ef3b93870f5a
MetaData, TestRecord.Parameters, 
Dimension1, 101, 101
Dimension2, 1, 1
DataName, V, I
DataValue, -2, -0.1
DataValue, -1.9600000000000002, -0.10000800000000001
DataValue, -1.9200000000000002, -0.10000200000000001
DataValue, -1.8800000000000001, -0.09986
DataValue, -1.84, -0.095866
DataValue, -1.8, -0.094582000000000013
DataValue, -1.76, -0.09241400000000001
DataValue, -1.72, -0.091282
DataValue, -1.6800000000000002, -0.089900000000000008
DataValue, -1.6400000000000001, -0.088222000000000009
DataValue, -1.6, -0.086020000000000013
DataValue, -1.56, -0.083566
DataValue, -1.52, -0.08138200000000001
DataValue, -1.48, -0.08005000000000001
DataValue, -1.4400000000000002, -0.07824600000000001
DataValue, -1.4000000000000001, -0.076374000000000011
DataValue, -1.36, -0.074448
DataValue, -1.32, -0.07247
DataValue, -1.28, -0.07048
DataValue, -1.24, -0.068458
DataValue, -1.2, -0.066428
DataValue, -1.1600000000000001, -0.064386
DataValue, -1.12, -0.06233
DataValue, -1.08, -0.060280000000000007
DataValue, -1.04, -0.058218000000000006
DataValue, -1, -0.056162000000000004
DataValue, -0.96000000000000008, -0.054104000000000006
DataValue, -0.92, -0.052030000000000007
DataValue, -0.88, -0.049932000000000004
DataValue, -0.84000000000000008, -0.047762000000000006
DataValue, -0.8, -0.045556000000000006
DataValue, -0.76, -0.043322000000000006
DataValue, -0.72000000000000008, -0.04105
DataValue, -0.68, -0.038842
DataValue, -0.64, -0.036662
DataValue, -0.6, -0.034508000000000004
DataValue, -0.56, -0.03239
DataValue, -0.52, -0.030294
DataValue, -0.48000000000000004, -0.028216
DataValue, -0.44, -0.026198000000000003
DataValue, -0.4, -0.024202
DataValue, -0.36000000000000004, -0.022240000000000003
DataValue, -0.32, -0.020342000000000002
DataValue, -0.28, -0.01847
DataValue, -0.24000000000000002, -0.016644000000000003
DataValue, -0.2, -0.014874000000000002
DataValue, -0.16, -0.013142000000000001
DataValue, -0.12000000000000001, -0.011462000000000002
DataValue, -0.08, -0.0098718
DataValue, -0.04, -0.008376
DataValue, 0, -0.0069682
DataValue, 0.04, -0.0056908
DataValue, 0.08, -0.0045408
DataValue, 0.12000000000000001, -0.0035022
DataValue, 0.16, -0.0026096
DataValue, 0.2, -0.0019098000000000001
DataValue, 0.24000000000000002, -0.001423
DataValue, 0.28, -0.0011012
DataValue, 0.32, -0.00088226
DataValue, 0.36000000000000004, -0.00070872
DataValue, 0.4, -0.00057302
DataValue, 0.44, -0.00043038
DataValue, 0.48000000000000004, -0.00030042000000000003
DataValue, 0.52, -0.00018812
DataValue, 0.56, -0.000100326
DataValue, 0.6, -4.2488000000000004E-05
DataValue, 0.64, -1.3998E-05
DataValue, 0.68, -3.7030000000000004E-06
DataValue, 0.72000000000000008, -6.5334E-07
DataValue, 0.76, 2.03E-07
DataValue, 0.8, 4.5199999999999997E-07
DataValue, 0.84000000000000008, 5.2626E-07
DataValue, 0.88, 5.4874E-07
DataValue, 0.92, 5.5776E-07
DataValue, 0.96000000000000008, 5.648E-07
DataValue, 1, 5.739E-07
DataValue, 1.04, 6.0326E-07
DataValue, 1.08, 7.1733999999999994E-07
DataValue, 1.12, 1.2146000000000002E-06
DataValue, 1.1600000000000001, 3.43E-06
DataValue, 1.2, 1.3114E-05
DataValue, 1.24, 5.197E-05
DataValue, 1.28, 0.00018806
DataValue, 1.32, 0.00053818000000000008
DataValue, 1.36, 0.0011808
DataValue, 1.4000000000000001, 0.002096
DataValue, 1.4400000000000002, 0.0032152
DataValue, 1.48, 0.0044772
DataValue, 1.52, 0.0058418
DataValue, 1.56, 0.00727
DataValue, 1.6, 0.0087702
DataValue, 1.6400000000000001, 0.010294000000000001
DataValue, 1.6800000000000002, 0.011862000000000001
DataValue, 1.72, 0.01344
DataValue, 1.76, 0.015018000000000002
DataValue, 1.8, 0.016664
DataValue, 1.84, 0.018442
DataValue, 1.8800000000000001, 0.020214000000000003
DataValue, 1.9200000000000002, 0.022156000000000002
DataValue, 1.9600000000000002, 0.023964000000000003
DataValue, 2, 0.025730000000000003