
SetupTitle, I/V Sweep
PrimitiveTest, I/V Sweep
TestParameter, Context.MainFrame, B1500A
TestParameter, Channel.UnitType, SMU, SMU, SMU, SMU
TestParameter, Channel.Unit, SMU1:HP, SMU2:MP, SMU3:MP, SMU4:MP
TestParameter, Channel.IName, I, IDD1, IDD2, II
TestParameter, Channel.VName, V, VDD1, VDD2, VV
TestParameter, Channel.Mode, V, V, V, V
TestParameter, Channel.Func, VAR1, CONST, CONST, CONST
TestParameter, Channel.Index, 
TestParameter, Channel.Time, 
TestParameter, Measurement.Port.Unit, SMU1:HP, SMU2:MP, SMU3:MP, SMU4:MP
TestParameter, Measurement.Port.SeriesResistor, NONE, NONE, NONE, NONE
TestParameter, Measurement.Port.Filter, ON, ON, ON, ON
TestParameter, Measurement.Port.OutputVoltageComparison, 0, 0, 0, 0
TestParameter, Measurement.Primary.Locus, Single
TestParameter, Measurement.Primary.Scale, LINEAR
TestParameter, Measurement.Primary.Start, -2
TestParameter, Measurement.Primary.Stop, 2
TestParameter, Measurement.Primary.Step, 0.04
TestParameter, Measurement.Primary.Compliance, 0.1
TestParameter, Measurement.Primary.PowerCompliance, 0
TestParameter, Measurement.Aborting.Condition, CONTINUE AT ANY
TestParameter, Measurement.PostOutput.Value, START
TestParameter, Measurement.PostOutput.Retention, OFF
TestParameter, Measurement.Bias.Source, -2, 1.8, 1.1, 0
TestParameter, Measurement.Bias.Compliance, 0.1, 0.1, 0.1, 0.1
TestParameter, Measurement.Monitor.Unit, SMU1:HP, SMU2:MP, SMU3:MP, SMU4:MP
TestParameter, Measurement.Monitor.Adc, HR ADC, HR ADC, HR ADC, HR ADC
TestParameter, Measurement.Monitor.Measurement, Compliance Side, Compliance Side, Compliance Side, Compliance Side
TestParameter, Measurement.Monitor.RangingMode, LIMITED, LIMITED, LIMITED, LIMITED
TestParameter, Measurement.Monitor.RangeBoundary, 1nA, 1nA, 1nA, 1nA
TestParameter, Measurement.Monitor.RangeRating, BY FULL RANGE, BY FULL RANGE, BY FULL RANGE, BY FULL RANGE
TestParameter, Measurement.Monitor.RangeRatingCoeff, 50, 50, 50, 50
TestParameter, Measurement.Timing.Hold, 0
TestParameter, Measurement.Timing.Delay, 0
TestParameter, Measurement.Adc.HighSpeed.Mode, AUTO
TestParameter, Measurement.Adc.HighSpeed.Coeff, 1
TestParameter, Measurement.Adc.HighResolution.AutoZero, OFF
TestParameter, Measurement.Adc.HighResolution.Mode, AUTO
TestParameter, Measurement.Adc.HighResolution.Coeff, 6
TestParameter, Measurement.WaitTime.Source.Coeff, 1
TestParameter, Measurement.WaitTime.Source.Offset, 0
TestParameter, Measurement.WaitTime.Monitor.Coeff, 1
TestParameter, Measurement.WaitTime.Monitor.Offset, 0
TestParameter, Output.Graph.Enabled, true
TestParameter, Output.Graph.AutoScaling, false
TestParameter, Output.Graph.XAxis.Data, V
TestParameter, Output.Graph.XAxis.Scale, Linear
TestParameter, Output.Graph.XAxis.Left, -2
TestParameter, Output.Graph.XAxis.Right, 2
TestParameter, Output.Graph.XAxis.RunTimeAutoScale, true
TestParameter, Output.Graph.YAxis.Data, I
TestParameter, Output.Graph.YAxis.Scale, Linear
TestParameter, Output.Graph.YAxis.Bottom, -0.1
TestParameter, Output.Graph.YAxis.Top, 0.1
TestParameter, Output.Graph.YAxis.Group, 
TestParameter, Output.Graph.YAxis.RunTimeAutoScale, true
TestParameter, AutoAnalysis.Interpolation, false
TestParameter, AutoAnalysis.Var2StepCount, 1
TestParameter, AutoAnalysis.Var2StepScript, 
TestParameter, AutoAnalysis.Line1.Enabled, false
TestParameter, AutoAnalysis.Line1.Type, 1
TestParameter, AutoAnalysis.Line1.Fix, True
TestParameter, AutoAnalysis.Line1.YAxis, 0
TestParameter, AutoAnalysis.Line1.Point1.Type, 0
TestParameter, AutoAnalysis.Line1.Point1.XY.X, 
TestParameter, AutoAnalysis.Line1.Point1.XY.Y, 
TestParameter, AutoAnalysis.Line1.Point1.Data.Var, 
TestParameter, AutoAnalysis.Line1.Point1.Data.Condition, 
TestParameter, AutoAnalysis.Line1.Point1.Data.Start, false
TestParameter, AutoAnalysis.Line1.Point1.Data.StartVar, 
TestParameter, AutoAnalysis.Line1.Point1.Data.StartCondition, 
TestParameter, AutoAnalysis.Line1.Point2.Type, 0
TestParameter, AutoAnalysis.Line1.Point2.XY.X, 
TestParameter, AutoAnalysis.Line1.Point2.XY.Y, 
TestParameter, AutoAnalysis.Line1.Point2.Data.Var, 
TestParameter, AutoAnalysis.Line1.Point2.Data.Condition, 
TestParameter, AutoAnalysis.Line1.Point2.Data.Start, false
TestParameter, AutoAnalysis.Line1.Point2.Data.StartVar, 
TestParameter, AutoAnalysis.Line1.Point2.Data.StartCondition, 
TestParameter, AutoAnalysis.Line1.GradientExpr, 0
TestParameter, AutoAnalysis.Line2.Enabled, false
TestParameter, AutoAnalysis.Line2.Type, 1
TestParameter, AutoAnalysis.Line2.Fix, True
TestParameter, AutoAnalysis.Line2.YAxis, 0
TestParameter, AutoAnalysis.Line2.Point1.Type, 0
TestParameter, AutoAnalysis.Line2.Point1.XY.X, 
TestParameter, AutoAnalysis.Line2.Point1.XY.Y, 
TestParameter, AutoAnalysis.Line2.Point1.Data.Var, 
TestParameter, AutoAnalysis.Line2.Point1.Data.Condition, 
TestParameter, AutoAnalysis.Line2.Point1.Data.Start, false
TestParameter, AutoAnalysis.Line2.Point1.Data.StartVar, 
TestParameter, AutoAnalysis.Line2.Point1.Data.StartCondition, 
TestParameter, AutoAnalysis.Line2.Point2.Type, 0
TestParameter, AutoAnalysis.Line2.Point2.XY.X, 
TestParameter, AutoAnalysis.Line2.Point2.XY.Y, 
TestParameter, AutoAnalysis.Line2.Point2.Data.Var, 
TestParameter, AutoAnalysis.Line2.Point2.Data.Condition, 
TestParameter, AutoAnalysis.Line2.Point2.Data.Start, false
TestParameter, AutoAnalysis.Line2.Point2.Data.StartVar, 
TestParameter, AutoAnalysis.Line2.Point2.Data.StartCondition, 
TestParameter, AutoAnalysis.Line2.GradientExpr, 0
TestParameter, AutoAnalysis.Marker.Enabled, false
TestParameter, AutoAnalysis.Marker.Data.Var, 
TestParameter, AutoAnalysis.Marker.Data.Condition, 
TestParameter, AutoAnalysis.Marker.Data.Start, false
TestParameter, AutoAnalysis.Marker.Data.StartVar, 
TestParameter, AutoAnalysis.Marker.Data.StartCondition, 
MetaData, TestRecord.EntryPoint, true
MetaData, TestRecord.RecordTime, 10/19/2022 15:04:56
MetaData, TestRecord.TestTarget, 
MetaData, TestRecord.IterationIndex, 16
MetaData, TestRecord.Preservation, true
MetaData, TestRecord.Flag, 
MetaData, TestRecord.Remarks, 
MetaData, TestRecord.LinkKey, b0657b78-a671-4e64-93c7-231b4f6ff156
MetaData, TestRecord.Parameters, 
Dimension1, 101, 101
Dimension2, 1, 1
DataName, V, I
DataValue, -2, -0.062114
DataValue, -1.9600000000000002, -0.061346000000000005
DataValue, -1.9200000000000002, -0.060096000000000004
DataValue, -1.8800000000000001, -0.059304
DataValue, -1.84, -0.058504000000000007
DataValue, -1.8, -0.057896
DataValue, -1.76, -0.057092000000000004
DataValue, -1.72, -0.056298000000000008
DataValue, -1.6800000000000002, -0.055478000000000006
DataValue, -1.6400000000000001, -0.054614
DataValue, -1.6, -0.053758000000000007
DataValue, -1.56, -0.052946000000000007
DataValue, -1.52, -0.052088
DataValue, -1.48, -0.051202000000000004
DataValue, -1.4400000000000002, -0.050216000000000004
DataValue, -1.4000000000000001, -0.049264
DataValue, -1.36, -0.048276000000000006
DataValue, -1.32, -0.047228000000000006
DataValue, -1.28, -0.046284000000000006
DataValue, -1.24, -0.04528
DataValue, -1.2, -0.044300000000000006
DataValue, -1.1600000000000001, -0.043280000000000006
DataValue, -1.12, -0.042312
DataValue, -1.08, -0.041310000000000006
DataValue, -1.04, -0.040310000000000006
DataValue, -1, -0.039298000000000007
DataValue, -0.96000000000000008, -0.038284000000000006
DataValue, -0.92, -0.037288
DataValue, -0.88, -0.036270000000000004
DataValue, -0.84000000000000008, -0.035292000000000004
DataValue, -0.8, -0.034280000000000005
DataValue, -0.76, -0.033292
DataValue, -0.72000000000000008, -0.032258
DataValue, -0.68, -0.03126
DataValue, -0.64, -0.030254000000000003
DataValue, -0.6, -0.029256000000000004
DataValue, -0.56, -0.028252000000000003
DataValue, -0.52, -0.027234
DataValue, -0.48000000000000004, -0.026228
DataValue, -0.44, -0.025226000000000002
DataValue, -0.4, -0.024222
DataValue, -0.36000000000000004, -0.023212000000000003
DataValue, -0.32, -0.022226000000000003
DataValue, -0.28, -0.021226000000000002
DataValue, -0.24000000000000002, -0.020236
DataValue, -0.2, -0.01924
DataValue, -0.16, -0.018252
DataValue, -0.12000000000000001, -0.017272000000000003
DataValue, -0.08, -0.016284
DataValue, -0.04, -0.015300000000000001
DataValue, 0, -0.014306000000000001
DataValue, 0.04, -0.013302000000000001
DataValue, 0.08, -0.012298000000000002
DataValue, 0.12000000000000001, -0.011290000000000001
DataValue, 0.16, -0.010296000000000001
DataValue, 0.2, -0.0093172
DataValue, 0.24000000000000002, -0.0083426
DataValue, 0.28, -0.0073934000000000005
DataValue, 0.32, -0.0064664
DataValue, 0.36000000000000004, -0.0055804
DataValue, 0.4, -0.0047352
DataValue, 0.44, -0.0039176
DataValue, 0.48000000000000004, -0.0031358000000000002
DataValue, 0.52, -0.0023858
DataValue, 0.56, -0.0016818
DataValue, 0.6, -0.001036
DataValue, 0.64, -0.00045858000000000004
DataValue, 0.68, 3.3832000000000004E-05
DataValue, 0.72000000000000008, 0.00043452000000000003
DataValue, 0.76, 0.00074228
DataValue, 0.8, 0.00103526
DataValue, 0.84000000000000008, 0.0014484
DataValue, 0.88, 0.0020562
DataValue, 0.92, 0.0028158000000000002
DataValue, 0.96000000000000008, 0.003669
DataValue, 1, 0.004621
DataValue, 1.04, 0.0056358
DataValue, 1.08, 0.0067062
DataValue, 1.12, 0.0078088
DataValue, 1.1600000000000001, 0.0089452
DataValue, 1.2, 0.0101198
DataValue, 1.24, 0.011318
DataValue, 1.28, 0.012542000000000001
DataValue, 1.32, 0.013774000000000002
DataValue, 1.36, 0.015012000000000001
DataValue, 1.4000000000000001, 0.01627
DataValue, 1.4400000000000002, 0.017526
DataValue, 1.48, 0.018812000000000002
DataValue, 1.52, 0.020102000000000002
DataValue, 1.56, 0.021416
DataValue, 1.6, 0.022752
DataValue, 1.6400000000000001, 0.024186000000000003
DataValue, 1.6800000000000002, 0.025626000000000003
DataValue, 1.72, 0.027170000000000003
DataValue, 1.76, 0.028828000000000003
DataValue, 1.8, 0.030472000000000003
DataValue, 1.84, 0.032218000000000004
DataValue, 1.8800000000000001, 0.033982000000000005
DataValue, 1.9200000000000002, 0.035726
DataValue, 1.9600000000000002, 0.037312000000000005
DataValue, 2, 0.038914000000000004