
SetupTitle, I/V Sweep
PrimitiveTest, I/V Sweep
TestParameter, Context.MainFrame, B1500A
TestParameter, Channel.UnitType, SMU, SMU, SMU, SMU
TestParameter, Channel.Unit, SMU1:HP, SMU2:MP, SMU3:MP, SMU4:MP
TestParameter, Channel.IName, I, IDD1, IDD2, II
TestParameter, Channel.VName, V, VDD1, VDD2, VV
TestParameter, Channel.Mode, V, V, V, V
TestParameter, Channel.Func, CONST, CONST, VAR1, CONST
TestParameter, Channel.Index, 
TestParameter, Channel.Time, 
TestParameter, Measurement.Port.Unit, SMU1:HP, SMU2:MP, SMU3:MP, SMU4:MP
TestParameter, Measurement.Port.SeriesResistor, NONE, NONE, NONE, NONE
TestParameter, Measurement.Port.Filter, ON, ON, ON, ON
TestParameter, Measurement.Port.OutputVoltageComparison, 0, 0, 0, 0
TestParameter, Measurement.Primary.Locus, Single
TestParameter, Measurement.Primary.Scale, LINEAR
TestParameter, Measurement.Primary.Start, -2
TestParameter, Measurement.Primary.Stop, 2
TestParameter, Measurement.Primary.Step, 0.04
TestParameter, Measurement.Primary.Compliance, 0.1
TestParameter, Measurement.Primary.PowerCompliance, 0
TestParameter, Measurement.Aborting.Condition, CONTINUE AT ANY
TestParameter, Measurement.PostOutput.Value, START
TestParameter, Measurement.PostOutput.Retention, OFF
TestParameter, Measurement.Bias.Source, -2, -2, -2, 0
TestParameter, Measurement.Bias.Compliance, 0.1, 0.1, 0.1, 0.1
TestParameter, Measurement.Monitor.Unit, SMU1:HP, SMU2:MP, SMU3:MP, SMU4:MP
TestParameter, Measurement.Monitor.Adc, HR ADC, HR ADC, HR ADC, HR ADC
TestParameter, Measurement.Monitor.Measurement, Compliance Side, Compliance Side, Compliance Side, Compliance Side
TestParameter, Measurement.Monitor.RangingMode, LIMITED, LIMITED, LIMITED, LIMITED
TestParameter, Measurement.Monitor.RangeBoundary, 1nA, 1nA, 1nA, 1nA
TestParameter, Measurement.Monitor.RangeRating, BY FULL RANGE, BY FULL RANGE, BY FULL RANGE, BY FULL RANGE
TestParameter, Measurement.Monitor.RangeRatingCoeff, 50, 50, 50, 50
TestParameter, Measurement.Timing.Hold, 0
TestParameter, Measurement.Timing.Delay, 0
TestParameter, Measurement.Adc.HighSpeed.Mode, AUTO
TestParameter, Measurement.Adc.HighSpeed.Coeff, 1
TestParameter, Measurement.Adc.HighResolution.AutoZero, OFF
TestParameter, Measurement.Adc.HighResolution.Mode, AUTO
TestParameter, Measurement.Adc.HighResolution.Coeff, 6
TestParameter, Measurement.WaitTime.Source.Coeff, 1
TestParameter, Measurement.WaitTime.Source.Offset, 0
TestParameter, Measurement.WaitTime.Monitor.Coeff, 1
TestParameter, Measurement.WaitTime.Monitor.Offset, 0
TestParameter, Output.Graph.Enabled, true
TestParameter, Output.Graph.AutoScaling, false
TestParameter, Output.Graph.XAxis.Data, VDD2
TestParameter, Output.Graph.XAxis.Scale, Linear
TestParameter, Output.Graph.XAxis.Left, -2
TestParameter, Output.Graph.XAxis.Right, 2
TestParameter, Output.Graph.XAxis.RunTimeAutoScale, true
TestParameter, Output.Graph.YAxis.Data, IDD2
TestParameter, Output.Graph.YAxis.Scale, Linear
TestParameter, Output.Graph.YAxis.Bottom, -0.1
TestParameter, Output.Graph.YAxis.Top, 0.1
TestParameter, Output.Graph.YAxis.Group, 
TestParameter, Output.Graph.YAxis.RunTimeAutoScale, true
TestParameter, AutoAnalysis.Interpolation, false
TestParameter, AutoAnalysis.Var2StepCount, 1
TestParameter, AutoAnalysis.Var2StepScript, 
TestParameter, AutoAnalysis.Line1.Enabled, false
TestParameter, AutoAnalysis.Line1.Type, 1
TestParameter, AutoAnalysis.Line1.Fix, True
TestParameter, AutoAnalysis.Line1.YAxis, 0
TestParameter, AutoAnalysis.Line1.Point1.Type, 0
TestParameter, AutoAnalysis.Line1.Point1.XY.X, 
TestParameter, AutoAnalysis.Line1.Point1.XY.Y, 
TestParameter, AutoAnalysis.Line1.Point1.Data.Var, 
TestParameter, AutoAnalysis.Line1.Point1.Data.Condition, 
TestParameter, AutoAnalysis.Line1.Point1.Data.Start, false
TestParameter, AutoAnalysis.Line1.Point1.Data.StartVar, 
TestParameter, AutoAnalysis.Line1.Point1.Data.StartCondition, 
TestParameter, AutoAnalysis.Line1.Point2.Type, 0
TestParameter, AutoAnalysis.Line1.Point2.XY.X, 
TestParameter, AutoAnalysis.Line1.Point2.XY.Y, 
TestParameter, AutoAnalysis.Line1.Point2.Data.Var, 
TestParameter, AutoAnalysis.Line1.Point2.Data.Condition, 
TestParameter, AutoAnalysis.Line1.Point2.Data.Start, false
TestParameter, AutoAnalysis.Line1.Point2.Data.StartVar, 
TestParameter, AutoAnalysis.Line1.Point2.Data.StartCondition, 
TestParameter, AutoAnalysis.Line1.GradientExpr, 0
TestParameter, AutoAnalysis.Line2.Enabled, false
TestParameter, AutoAnalysis.Line2.Type, 1
TestParameter, AutoAnalysis.Line2.Fix, True
TestParameter, AutoAnalysis.Line2.YAxis, 0
TestParameter, AutoAnalysis.Line2.Point1.Type, 0
TestParameter, AutoAnalysis.Line2.Point1.XY.X, 
TestParameter, AutoAnalysis.Line2.Point1.XY.Y, 
TestParameter, AutoAnalysis.Line2.Point1.Data.Var, 
TestParameter, AutoAnalysis.Line2.Point1.Data.Condition, 
TestParameter, AutoAnalysis.Line2.Point1.Data.Start, false
TestParameter, AutoAnalysis.Line2.Point1.Data.StartVar, 
TestParameter, AutoAnalysis.Line2.Point1.Data.StartCondition, 
TestParameter, AutoAnalysis.Line2.Point2.Type, 0
TestParameter, AutoAnalysis.Line2.Point2.XY.X, 
TestParameter, AutoAnalysis.Line2.Point2.XY.Y, 
TestParameter, AutoAnalysis.Line2.Point2.Data.Var, 
TestParameter, AutoAnalysis.Line2.Point2.Data.Condition, 
TestParameter, AutoAnalysis.Line2.Point2.Data.Start, false
TestParameter, AutoAnalysis.Line2.Point2.Data.StartVar, 
TestParameter, AutoAnalysis.Line2.Point2.Data.StartCondition, 
TestParameter, AutoAnalysis.Line2.GradientExpr, 0
TestParameter, AutoAnalysis.Marker.Enabled, false
TestParameter, AutoAnalysis.Marker.Data.Var, 
TestParameter, AutoAnalysis.Marker.Data.Condition, 
TestParameter, AutoAnalysis.Marker.Data.Start, false
TestParameter, AutoAnalysis.Marker.Data.StartVar, 
TestParameter, AutoAnalysis.Marker.Data.StartCondition, 
MetaData, TestRecord.EntryPoint, true
MetaData, TestRecord.RecordTime, 10/19/2022 15:00:37
MetaData, TestRecord.TestTarget, 
MetaData, TestRecord.IterationIndex, 10
MetaData, TestRecord.Preservation, true
MetaData, TestRecord.Flag, 
MetaData, TestRecord.Remarks, 
MetaData, TestRecord.LinkKey, 4d777a7c-f79e-4bd8-8b0b-69d7b18afa49
MetaData, TestRecord.Parameters, 
Dimension1, 101, 101
Dimension2, 1, 1
DataName, VDD2, IDD2
DataValue, -2, -0.0077476
DataValue, -1.9600000000000002, -0.0073146
DataValue, -1.9200000000000002, -0.006896
DataValue, -1.8800000000000001, -0.0064918
DataValue, -1.84, -0.006103
DataValue, -1.8, -0.00573
DataValue, -1.76, -0.005373
DataValue, -1.72, -0.0050304
DataValue, -1.6800000000000002, -0.004703
DataValue, -1.6400000000000001, -0.0043902
DataValue, -1.6, -0.0040912
DataValue, -1.56, -0.0038052
DataValue, -1.52, -0.0035304
DataValue, -1.48, -0.0032678
DataValue, -1.4400000000000002, -0.0030152
DataValue, -1.4000000000000001, -0.0027718
DataValue, -1.36, -0.0025376
DataValue, -1.32, -0.0023120000000000003
DataValue, -1.28, -0.0020948
DataValue, -1.24, -0.001886
DataValue, -1.2, -0.0016844
DataValue, -1.1600000000000001, -0.0014912
DataValue, -1.12, -0.0013062
DataValue, -1.08, -0.0011302
DataValue, -1.04, -0.00096322000000000009
DataValue, -1, -0.0008065
DataValue, -0.96000000000000008, -0.0006606
DataValue, -0.92, -0.0005266
DataValue, -0.88, -0.00040602000000000005
DataValue, -0.84000000000000008, -0.00030018000000000004
DataValue, -0.8, -0.00021012
DataValue, -0.76, -0.00013744
DataValue, -0.72000000000000008, -8.2968000000000009E-05
DataValue, -0.68, -4.5308E-05
DataValue, -0.64, -2.2462E-05
DataValue, -0.6, -1.0314E-05
DataValue, -0.56, -4.3215E-06
DataValue, -0.52, -1.9981000000000004E-06
DataValue, -0.48000000000000004, -8.7276E-07
DataValue, -0.44, -6.8682E-07
DataValue, -0.4, -3.3956E-07
DataValue, -0.36000000000000004, -4.1914E-07
DataValue, -0.32, -2.905E-07
DataValue, -0.28, -4.0352E-07
DataValue, -0.24000000000000002, -3.9601999999999997E-07
DataValue, -0.2, -2.4892E-07
DataValue, -0.16, -3.9074E-07
DataValue, -0.12000000000000001, -2.8544E-07
DataValue, -0.08, -2.752E-07
DataValue, -0.04, -4.3092E-07
DataValue, 0, -2.5632E-07
DataValue, 0.04, -3.1774E-07
DataValue, 0.08, -3.5556E-07
DataValue, 0.12000000000000001, -1.6614E-07
DataValue, 0.16, -3.15E-07
DataValue, 0.2, -2.8938E-07
DataValue, 0.24000000000000002, -8.96E-09
DataValue, 0.28, 1.8408E-07
DataValue, 0.32, 1.6102E-06
DataValue, 0.36000000000000004, 7.7663E-06
DataValue, 0.4, 3.1570000000000004E-05
DataValue, 0.44, 0.00012006000000000001
DataValue, 0.48000000000000004, 0.00035784
DataValue, 0.52, 0.00078578
DataValue, 0.56, 0.0013626
DataValue, 0.6, 0.0020362
DataValue, 0.64, 0.0027748
DataValue, 0.68, 0.0035614
DataValue, 0.72000000000000008, 0.0043924
DataValue, 0.76, 0.0052648
DataValue, 0.8, 0.006158
DataValue, 0.84000000000000008, 0.0070606
DataValue, 0.88, 0.0079632
DataValue, 0.92, 0.0088514
DataValue, 0.96000000000000008, 0.0096578
DataValue, 1, 0.010576
DataValue, 1.04, 0.011526000000000002
DataValue, 1.08, 0.012480000000000002
DataValue, 1.12, 0.013446000000000001
DataValue, 1.1600000000000001, 0.014434
DataValue, 1.2, 0.015448000000000002
DataValue, 1.24, 0.016478000000000003
DataValue, 1.28, 0.017542000000000002
DataValue, 1.32, 0.01861
DataValue, 1.36, 0.019756000000000003
DataValue, 1.4000000000000001, 0.020928000000000002
DataValue, 1.4400000000000002, 0.022124
DataValue, 1.48, 0.023360000000000002
DataValue, 1.52, 0.024634000000000003
DataValue, 1.56, 0.025946000000000004
DataValue, 1.6, 0.027280000000000002
DataValue, 1.6400000000000001, 0.028668000000000003
DataValue, 1.6800000000000002, 0.030096
DataValue, 1.72, 0.031540000000000006
DataValue, 1.76, 0.033004000000000006
DataValue, 1.8, 0.034482000000000006
DataValue, 1.84, 0.036008000000000005
DataValue, 1.8800000000000001, 0.037544
DataValue, 1.9200000000000002, 0.039090000000000007
DataValue, 1.9600000000000002, 0.040812
DataValue, 2, 0.042406000000000006