
SetupTitle, I/V Sweep
PrimitiveTest, I/V Sweep
TestParameter, Context.MainFrame, B1500A
TestParameter, Channel.UnitType, SMU, SMU, SMU, SMU
TestParameter, Channel.Unit, SMU1:HP, SMU2:MP, SMU3:MP, SMU4:MP
TestParameter, Channel.IName, I, IDD1, IDD2, II
TestParameter, Channel.VName, V, VDD1, VDD2, VV
TestParameter, Channel.Mode, V, V, V, V
TestParameter, Channel.Func, VAR1, CONST, CONST, CONST
TestParameter, Channel.Index, 
TestParameter, Channel.Time, 
TestParameter, Measurement.Port.Unit, SMU1:HP, SMU2:MP, SMU3:MP, SMU4:MP
TestParameter, Measurement.Port.SeriesResistor, NONE, NONE, NONE, NONE
TestParameter, Measurement.Port.Filter, ON, ON, ON, ON
TestParameter, Measurement.Port.OutputVoltageComparison, 0, 0, 0, 0
TestParameter, Measurement.Primary.Locus, Single
TestParameter, Measurement.Primary.Scale, LINEAR
TestParameter, Measurement.Primary.Start, -2
TestParameter, Measurement.Primary.Stop, 2
TestParameter, Measurement.Primary.Step, 0.04
TestParameter, Measurement.Primary.Compliance, 0.1
TestParameter, Measurement.Primary.PowerCompliance, 0
TestParameter, Measurement.Aborting.Condition, CONTINUE AT ANY
TestParameter, Measurement.PostOutput.Value, START
TestParameter, Measurement.PostOutput.Retention, OFF
TestParameter, Measurement.Bias.Source, -2, 1.8, 1.1, 0
TestParameter, Measurement.Bias.Compliance, 0.1, 0.1, 0.1, 0.1
TestParameter, Measurement.Monitor.Unit, SMU1:HP, SMU2:MP, SMU3:MP, SMU4:MP
TestParameter, Measurement.Monitor.Adc, HR ADC, HR ADC, HR ADC, HR ADC
TestParameter, Measurement.Monitor.Measurement, Compliance Side, Compliance Side, Compliance Side, Compliance Side
TestParameter, Measurement.Monitor.RangingMode, LIMITED, LIMITED, LIMITED, LIMITED
TestParameter, Measurement.Monitor.RangeBoundary, 1nA, 1nA, 1nA, 1nA
TestParameter, Measurement.Monitor.RangeRating, BY FULL RANGE, BY FULL RANGE, BY FULL RANGE, BY FULL RANGE
TestParameter, Measurement.Monitor.RangeRatingCoeff, 50, 50, 50, 50
TestParameter, Measurement.Timing.Hold, 0
TestParameter, Measurement.Timing.Delay, 0
TestParameter, Measurement.Adc.HighSpeed.Mode, AUTO
TestParameter, Measurement.Adc.HighSpeed.Coeff, 1
TestParameter, Measurement.Adc.HighResolution.AutoZero, OFF
TestParameter, Measurement.Adc.HighResolution.Mode, AUTO
TestParameter, Measurement.Adc.HighResolution.Coeff, 6
TestParameter, Measurement.WaitTime.Source.Coeff, 1
TestParameter, Measurement.WaitTime.Source.Offset, 0
TestParameter, Measurement.WaitTime.Monitor.Coeff, 1
TestParameter, Measurement.WaitTime.Monitor.Offset, 0
TestParameter, Output.Graph.Enabled, true
TestParameter, Output.Graph.AutoScaling, false
TestParameter, Output.Graph.XAxis.Data, V
TestParameter, Output.Graph.XAxis.Scale, Linear
TestParameter, Output.Graph.XAxis.Left, -2
TestParameter, Output.Graph.XAxis.Right, 2
TestParameter, Output.Graph.XAxis.RunTimeAutoScale, true
TestParameter, Output.Graph.YAxis.Data, I
TestParameter, Output.Graph.YAxis.Scale, Linear
TestParameter, Output.Graph.YAxis.Bottom, -0.1
TestParameter, Output.Graph.YAxis.Top, 0.1
TestParameter, Output.Graph.YAxis.Group, 
TestParameter, Output.Graph.YAxis.RunTimeAutoScale, true
TestParameter, AutoAnalysis.Interpolation, false
TestParameter, AutoAnalysis.Var2StepCount, 1
TestParameter, AutoAnalysis.Var2StepScript, 
TestParameter, AutoAnalysis.Line1.Enabled, false
TestParameter, AutoAnalysis.Line1.Type, 1
TestParameter, AutoAnalysis.Line1.Fix, True
TestParameter, AutoAnalysis.Line1.YAxis, 0
TestParameter, AutoAnalysis.Line1.Point1.Type, 0
TestParameter, AutoAnalysis.Line1.Point1.XY.X, 
TestParameter, AutoAnalysis.Line1.Point1.XY.Y, 
TestParameter, AutoAnalysis.Line1.Point1.Data.Var, 
TestParameter, AutoAnalysis.Line1.Point1.Data.Condition, 
TestParameter, AutoAnalysis.Line1.Point1.Data.Start, false
TestParameter, AutoAnalysis.Line1.Point1.Data.StartVar, 
TestParameter, AutoAnalysis.Line1.Point1.Data.StartCondition, 
TestParameter, AutoAnalysis.Line1.Point2.Type, 0
TestParameter, AutoAnalysis.Line1.Point2.XY.X, 
TestParameter, AutoAnalysis.Line1.Point2.XY.Y, 
TestParameter, AutoAnalysis.Line1.Point2.Data.Var, 
TestParameter, AutoAnalysis.Line1.Point2.Data.Condition, 
TestParameter, AutoAnalysis.Line1.Point2.Data.Start, false
TestParameter, AutoAnalysis.Line1.Point2.Data.StartVar, 
TestParameter, AutoAnalysis.Line1.Point2.Data.StartCondition, 
TestParameter, AutoAnalysis.Line1.GradientExpr, 0
TestParameter, AutoAnalysis.Line2.Enabled, false
TestParameter, AutoAnalysis.Line2.Type, 1
TestParameter, AutoAnalysis.Line2.Fix, True
TestParameter, AutoAnalysis.Line2.YAxis, 0
TestParameter, AutoAnalysis.Line2.Point1.Type, 0
TestParameter, AutoAnalysis.Line2.Point1.XY.X, 
TestParameter, AutoAnalysis.Line2.Point1.XY.Y, 
TestParameter, AutoAnalysis.Line2.Point1.Data.Var, 
TestParameter, AutoAnalysis.Line2.Point1.Data.Condition, 
TestParameter, AutoAnalysis.Line2.Point1.Data.Start, false
TestParameter, AutoAnalysis.Line2.Point1.Data.StartVar, 
TestParameter, AutoAnalysis.Line2.Point1.Data.StartCondition, 
TestParameter, AutoAnalysis.Line2.Point2.Type, 0
TestParameter, AutoAnalysis.Line2.Point2.XY.X, 
TestParameter, AutoAnalysis.Line2.Point2.XY.Y, 
TestParameter, AutoAnalysis.Line2.Point2.Data.Var, 
TestParameter, AutoAnalysis.Line2.Point2.Data.Condition, 
TestParameter, AutoAnalysis.Line2.Point2.Data.Start, false
TestParameter, AutoAnalysis.Line2.Point2.Data.StartVar, 
TestParameter, AutoAnalysis.Line2.Point2.Data.StartCondition, 
TestParameter, AutoAnalysis.Line2.GradientExpr, 0
TestParameter, AutoAnalysis.Marker.Enabled, false
TestParameter, AutoAnalysis.Marker.Data.Var, 
TestParameter, AutoAnalysis.Marker.Data.Condition, 
TestParameter, AutoAnalysis.Marker.Data.Start, false
TestParameter, AutoAnalysis.Marker.Data.StartVar, 
TestParameter, AutoAnalysis.Marker.Data.StartCondition, 
MetaData, TestRecord.EntryPoint, true
MetaData, TestRecord.RecordTime, 10/19/2022 15:08:35
MetaData, TestRecord.TestTarget, 
MetaData, TestRecord.IterationIndex, 23
MetaData, TestRecord.Preservation, true
MetaData, TestRecord.Flag, 
MetaData, TestRecord.Remarks, 
MetaData, TestRecord.LinkKey, 208fa328-b1eb-4f27-9f98-2021512ce6f1
MetaData, TestRecord.Parameters, 
Dimension1, 101, 101
Dimension2, 1, 1
DataName, V, I
DataValue, -2, -0.084036000000000013
DataValue, -1.9600000000000002, -0.084544000000000008
DataValue, -1.9200000000000002, -0.083626
DataValue, -1.8800000000000001, -0.08258
DataValue, -1.84, -0.08146
DataValue, -1.8, -0.080260000000000012
DataValue, -1.76, -0.079072
DataValue, -1.72, -0.077718000000000009
DataValue, -1.6800000000000002, -0.076734000000000011
DataValue, -1.6400000000000001, -0.075916000000000011
DataValue, -1.6, -0.074688
DataValue, -1.56, -0.071574000000000013
DataValue, -1.52, -0.069386
DataValue, -1.48, -0.068166
DataValue, -1.4400000000000002, -0.066522000000000012
DataValue, -1.4000000000000001, -0.065340000000000009
DataValue, -1.36, -0.063986
DataValue, -1.32, -0.062428000000000004
DataValue, -1.28, -0.060780000000000008
DataValue, -1.24, -0.059258000000000005
DataValue, -1.2, -0.058092000000000005
DataValue, -1.1600000000000001, -0.056734000000000007
DataValue, -1.12, -0.055324000000000005
DataValue, -1.08, -0.053902000000000005
DataValue, -1.04, -0.052482000000000008
DataValue, -1, -0.05106
DataValue, -0.96000000000000008, -0.049632
DataValue, -0.92, -0.048194000000000008
DataValue, -0.88, -0.046768000000000004
DataValue, -0.84000000000000008, -0.04533
DataValue, -0.8, -0.043890000000000005
DataValue, -0.76, -0.042452000000000004
DataValue, -0.72000000000000008, -0.041018000000000006
DataValue, -0.68, -0.039580000000000004
DataValue, -0.64, -0.03814
DataValue, -0.6, -0.036708000000000005
DataValue, -0.56, -0.035272000000000005
DataValue, -0.52, -0.03384
DataValue, -0.48000000000000004, -0.032416
DataValue, -0.44, -0.031000000000000003
DataValue, -0.4, -0.029586
DataValue, -0.36000000000000004, -0.028174
DataValue, -0.32, -0.026764000000000003
DataValue, -0.28, -0.02535
DataValue, -0.24000000000000002, -0.023936000000000002
DataValue, -0.2, -0.022508
DataValue, -0.16, -0.021068000000000003
DataValue, -0.12000000000000001, -0.019620000000000002
DataValue, -0.08, -0.018174000000000003
DataValue, -0.04, -0.016746
DataValue, 0, -0.015344000000000002
DataValue, 0.04, -0.013980000000000001
DataValue, 0.08, -0.012662000000000001
DataValue, 0.12000000000000001, -0.011396000000000002
DataValue, 0.16, -0.010188000000000001
DataValue, 0.2, -0.0090548
DataValue, 0.24000000000000002, -0.0079816
DataValue, 0.28, -0.0069538
DataValue, 0.32, -0.0060090000000000005
DataValue, 0.36000000000000004, -0.0051182
DataValue, 0.4, -0.0042892
DataValue, 0.44, -0.0035142
DataValue, 0.48000000000000004, -0.0027898000000000003
DataValue, 0.52, -0.0021284
DataValue, 0.56, -0.0016640000000000001
DataValue, 0.6, -0.001128
DataValue, 0.64, -0.00066518
DataValue, 0.68, -0.00031126
DataValue, 0.72000000000000008, -9.499600000000001E-05
DataValue, 0.76, 1.9497E-06
DataValue, 0.8, 3.2896E-05
DataValue, 0.84000000000000008, 4.1504E-05
DataValue, 0.88, 4.5096E-05
DataValue, 0.92, 4.7382E-05
DataValue, 0.96000000000000008, 4.9334E-05
DataValue, 1, 5.125E-05
DataValue, 1.04, 5.3156000000000004E-05
DataValue, 1.08, 5.498E-05
DataValue, 1.12, 5.7174000000000005E-05
DataValue, 1.1600000000000001, 6.0518E-05
DataValue, 1.2, 6.7074E-05
DataValue, 1.24, 8.2900000000000009E-05
DataValue, 1.28, 0.00012044
DataValue, 1.32, 0.00019154
DataValue, 1.36, 0.00030852
DataValue, 1.4000000000000001, 0.0004927
DataValue, 1.4400000000000002, 0.00067134000000000009
DataValue, 1.48, 0.00087844000000000008
DataValue, 1.52, 0.0010948400000000001
DataValue, 1.56, 0.0013654000000000001
DataValue, 1.6, 0.0016578
DataValue, 1.6400000000000001, 0.0019094000000000001
DataValue, 1.6800000000000002, 0.002257
DataValue, 1.72, 0.0025794
DataValue, 1.76, 0.0029312
DataValue, 1.8, 0.0032782
DataValue, 1.84, 0.0036198000000000003
DataValue, 1.8800000000000001, 0.003973
DataValue, 1.9200000000000002, 0.0043324
DataValue, 1.9600000000000002, 0.0046996
DataValue, 2, 0.0050846