
SetupTitle, I/V Sweep
PrimitiveTest, I/V Sweep
TestParameter, Context.MainFrame, B1500A
TestParameter, Channel.UnitType, SMU, SMU, SMU, SMU
TestParameter, Channel.Unit, SMU1:HP, SMU2:MP, SMU3:MP, SMU4:MP
TestParameter, Channel.IName, I, IDD1, IDD2, II
TestParameter, Channel.VName, V, VDD1, VDD2, VV
TestParameter, Channel.Mode, V, V, V, V
TestParameter, Channel.Func, VAR1, CONST, CONST, CONST
TestParameter, Channel.Index, 
TestParameter, Channel.Time, 
TestParameter, Measurement.Port.Unit, SMU1:HP, SMU2:MP, SMU3:MP, SMU4:MP
TestParameter, Measurement.Port.SeriesResistor, NONE, NONE, NONE, NONE
TestParameter, Measurement.Port.Filter, ON, ON, ON, ON
TestParameter, Measurement.Port.OutputVoltageComparison, 0, 0, 0, 0
TestParameter, Measurement.Primary.Locus, Single
TestParameter, Measurement.Primary.Scale, LINEAR
TestParameter, Measurement.Primary.Start, -2
TestParameter, Measurement.Primary.Stop, 2
TestParameter, Measurement.Primary.Step, 0.04
TestParameter, Measurement.Primary.Compliance, 0.1
TestParameter, Measurement.Primary.PowerCompliance, 0
TestParameter, Measurement.Aborting.Condition, CONTINUE AT ANY
TestParameter, Measurement.PostOutput.Value, START
TestParameter, Measurement.PostOutput.Retention, OFF
TestParameter, Measurement.Bias.Source, -2, 1.8, 1.1, 0
TestParameter, Measurement.Bias.Compliance, 0.1, 0.1, 0.1, 0.1
TestParameter, Measurement.Monitor.Unit, SMU1:HP, SMU2:MP, SMU3:MP, SMU4:MP
TestParameter, Measurement.Monitor.Adc, HR ADC, HR ADC, HR ADC, HR ADC
TestParameter, Measurement.Monitor.Measurement, Compliance Side, Compliance Side, Compliance Side, Compliance Side
TestParameter, Measurement.Monitor.RangingMode, LIMITED, LIMITED, LIMITED, LIMITED
TestParameter, Measurement.Monitor.RangeBoundary, 1nA, 1nA, 1nA, 1nA
TestParameter, Measurement.Monitor.RangeRating, BY FULL RANGE, BY FULL RANGE, BY FULL RANGE, BY FULL RANGE
TestParameter, Measurement.Monitor.RangeRatingCoeff, 50, 50, 50, 50
TestParameter, Measurement.Timing.Hold, 0
TestParameter, Measurement.Timing.Delay, 0
TestParameter, Measurement.Adc.HighSpeed.Mode, AUTO
TestParameter, Measurement.Adc.HighSpeed.Coeff, 1
TestParameter, Measurement.Adc.HighResolution.AutoZero, OFF
TestParameter, Measurement.Adc.HighResolution.Mode, AUTO
TestParameter, Measurement.Adc.HighResolution.Coeff, 6
TestParameter, Measurement.WaitTime.Source.Coeff, 1
TestParameter, Measurement.WaitTime.Source.Offset, 0
TestParameter, Measurement.WaitTime.Monitor.Coeff, 1
TestParameter, Measurement.WaitTime.Monitor.Offset, 0
TestParameter, Output.Graph.Enabled, true
TestParameter, Output.Graph.AutoScaling, false
TestParameter, Output.Graph.XAxis.Data, V
TestParameter, Output.Graph.XAxis.Scale, Linear
TestParameter, Output.Graph.XAxis.Left, -2
TestParameter, Output.Graph.XAxis.Right, 2
TestParameter, Output.Graph.XAxis.RunTimeAutoScale, true
TestParameter, Output.Graph.YAxis.Data, I
TestParameter, Output.Graph.YAxis.Scale, Linear
TestParameter, Output.Graph.YAxis.Bottom, -0.1
TestParameter, Output.Graph.YAxis.Top, 0.1
TestParameter, Output.Graph.YAxis.Group, 
TestParameter, Output.Graph.YAxis.RunTimeAutoScale, true
TestParameter, AutoAnalysis.Interpolation, false
TestParameter, AutoAnalysis.Var2StepCount, 1
TestParameter, AutoAnalysis.Var2StepScript, 
TestParameter, AutoAnalysis.Line1.Enabled, false
TestParameter, AutoAnalysis.Line1.Type, 1
TestParameter, AutoAnalysis.Line1.Fix, True
TestParameter, AutoAnalysis.Line1.YAxis, 0
TestParameter, AutoAnalysis.Line1.Point1.Type, 0
TestParameter, AutoAnalysis.Line1.Point1.XY.X, 
TestParameter, AutoAnalysis.Line1.Point1.XY.Y, 
TestParameter, AutoAnalysis.Line1.Point1.Data.Var, 
TestParameter, AutoAnalysis.Line1.Point1.Data.Condition, 
TestParameter, AutoAnalysis.Line1.Point1.Data.Start, false
TestParameter, AutoAnalysis.Line1.Point1.Data.StartVar, 
TestParameter, AutoAnalysis.Line1.Point1.Data.StartCondition, 
TestParameter, AutoAnalysis.Line1.Point2.Type, 0
TestParameter, AutoAnalysis.Line1.Point2.XY.X, 
TestParameter, AutoAnalysis.Line1.Point2.XY.Y, 
TestParameter, AutoAnalysis.Line1.Point2.Data.Var, 
TestParameter, AutoAnalysis.Line1.Point2.Data.Condition, 
TestParameter, AutoAnalysis.Line1.Point2.Data.Start, false
TestParameter, AutoAnalysis.Line1.Point2.Data.StartVar, 
TestParameter, AutoAnalysis.Line1.Point2.Data.StartCondition, 
TestParameter, AutoAnalysis.Line1.GradientExpr, 0
TestParameter, AutoAnalysis.Line2.Enabled, false
TestParameter, AutoAnalysis.Line2.Type, 1
TestParameter, AutoAnalysis.Line2.Fix, True
TestParameter, AutoAnalysis.Line2.YAxis, 0
TestParameter, AutoAnalysis.Line2.Point1.Type, 0
TestParameter, AutoAnalysis.Line2.Point1.XY.X, 
TestParameter, AutoAnalysis.Line2.Point1.XY.Y, 
TestParameter, AutoAnalysis.Line2.Point1.Data.Var, 
TestParameter, AutoAnalysis.Line2.Point1.Data.Condition, 
TestParameter, AutoAnalysis.Line2.Point1.Data.Start, false
TestParameter, AutoAnalysis.Line2.Point1.Data.StartVar, 
TestParameter, AutoAnalysis.Line2.Point1.Data.StartCondition, 
TestParameter, AutoAnalysis.Line2.Point2.Type, 0
TestParameter, AutoAnalysis.Line2.Point2.XY.X, 
TestParameter, AutoAnalysis.Line2.Point2.XY.Y, 
TestParameter, AutoAnalysis.Line2.Point2.Data.Var, 
TestParameter, AutoAnalysis.Line2.Point2.Data.Condition, 
TestParameter, AutoAnalysis.Line2.Point2.Data.Start, false
TestParameter, AutoAnalysis.Line2.Point2.Data.StartVar, 
TestParameter, AutoAnalysis.Line2.Point2.Data.StartCondition, 
TestParameter, AutoAnalysis.Line2.GradientExpr, 0
TestParameter, AutoAnalysis.Marker.Enabled, false
TestParameter, AutoAnalysis.Marker.Data.Var, 
TestParameter, AutoAnalysis.Marker.Data.Condition, 
TestParameter, AutoAnalysis.Marker.Data.Start, false
TestParameter, AutoAnalysis.Marker.Data.StartVar, 
TestParameter, AutoAnalysis.Marker.Data.StartCondition, 
MetaData, TestRecord.EntryPoint, true
MetaData, TestRecord.RecordTime, 10/19/2022 15:13:47
MetaData, TestRecord.TestTarget, 
MetaData, TestRecord.IterationIndex, 35
MetaData, TestRecord.Preservation, true
MetaData, TestRecord.Flag, 
MetaData, TestRecord.Remarks, 
MetaData, TestRecord.LinkKey, 2cdc80da-e461-409e-962c-4ab191bf1e39
MetaData, TestRecord.Parameters, 
Dimension1, 101, 101
Dimension2, 1, 1
DataName, V, I
DataValue, -2, -0.0013752
DataValue, -1.9600000000000002, -0.0012316
DataValue, -1.9200000000000002, -0.0010974000000000001
DataValue, -1.8800000000000001, -0.00096700000000000009
DataValue, -1.84, -0.00084484
DataValue, -1.8, -0.00072850000000000009
DataValue, -1.76, -0.00061926000000000006
DataValue, -1.72, -0.00051788000000000008
DataValue, -1.6800000000000002, -0.00042456000000000004
DataValue, -1.6400000000000001, -0.00034078
DataValue, -1.6, -0.00026682
DataValue, -1.56, -0.00020302000000000002
DataValue, -1.52, -0.00014992
DataValue, -1.48, -0.00010698000000000001
DataValue, -1.4400000000000002, -7.4604E-05
DataValue, -1.4000000000000001, -4.9752E-05
DataValue, -1.36, -3.2152E-05
DataValue, -1.32, -2.0194E-05
DataValue, -1.28, -1.2308E-05
DataValue, -1.24, -7.7744000000000013E-06
DataValue, -1.2, -4.5452E-06
DataValue, -1.1600000000000001, -3.0087E-06
DataValue, -1.12, -2.1094E-06
DataValue, -1.08, -1.5104000000000002E-06
DataValue, -1.04, -1.3063E-06
DataValue, -1, -1.3667000000000002E-06
DataValue, -0.96000000000000008, -1.1565E-06
DataValue, -0.92, -1.1011000000000001E-06
DataValue, -0.88, -1.2214E-06
DataValue, -0.84000000000000008, -1.0528000000000001E-06
DataValue, -0.8, -1.1024E-06
DataValue, -0.76, -1.1764E-06
DataValue, -0.72000000000000008, -1.0615E-06
DataValue, -0.68, -1.0816000000000002E-06
DataValue, -0.64, -1.0473000000000001E-06
DataValue, -0.6, -1.058E-06
DataValue, -0.56, -1.04448E-06
DataValue, -0.52, -9.3306E-07
DataValue, -0.48000000000000004, -9.589E-07
DataValue, -0.44, -8.108E-07
DataValue, -0.4, -6.4704E-07
DataValue, -0.36000000000000004, -5.2734E-07
DataValue, -0.32, -4.4278E-07
DataValue, -0.28, -2.3894E-07
DataValue, -0.24000000000000002, 1.3224E-07
DataValue, -0.2, 7.1746E-07
DataValue, -0.16, 1.2031000000000002E-06
DataValue, -0.12000000000000001, 2.6809000000000005E-06
DataValue, -0.08, 3.2737000000000005E-06
DataValue, -0.04, 3.5906000000000004E-06
DataValue, 0, 3.6918000000000004E-06
DataValue, 0.04, 3.6689000000000006E-06
DataValue, 0.08, 3.7664000000000005E-06
DataValue, 0.12000000000000001, 3.8363E-06
DataValue, 0.16, 3.7437000000000003E-06
DataValue, 0.2, 3.8252E-06
DataValue, 0.24000000000000002, 3.8980000000000006E-06
DataValue, 0.28, 3.8879000000000005E-06
DataValue, 0.32, 3.6972000000000004E-06
DataValue, 0.36000000000000004, 3.8789E-06
DataValue, 0.4, 3.8404000000000005E-06
DataValue, 0.44, 3.816E-06
DataValue, 0.48000000000000004, 3.9049000000000005E-06
DataValue, 0.52, 3.6213000000000004E-06
DataValue, 0.56, 3.5822E-06
DataValue, 0.6, 4.0372E-06
DataValue, 0.64, 4.1166000000000005E-06
DataValue, 0.68, 4.5705000000000005E-06
DataValue, 0.72000000000000008, 5.5704000000000009E-06
DataValue, 0.76, 7.019800000000001E-06
DataValue, 0.8, 7.9717E-06
DataValue, 0.84000000000000008, 1.2798E-05
DataValue, 0.88, 2.1168E-05
DataValue, 0.92, 3.0422E-05
DataValue, 0.96000000000000008, 4.2534E-05
DataValue, 1, 5.7272E-05
DataValue, 1.04, 7.6762000000000008E-05
DataValue, 1.08, 9.8664E-05
DataValue, 1.12, 0.00011526
DataValue, 1.1600000000000001, 0.00014364
DataValue, 1.2, 0.00017618
DataValue, 1.24, 0.0002134
DataValue, 1.28, 0.00026030000000000004
DataValue, 1.32, 0.0003259
DataValue, 1.36, 0.00040686000000000004
DataValue, 1.4000000000000001, 0.00051628
DataValue, 1.4400000000000002, 0.0006564
DataValue, 1.48, 0.00082336000000000009
DataValue, 1.52, 0.00099980000000000012
DataValue, 1.56, 0.001269
DataValue, 1.6, 0.0014518
DataValue, 1.6400000000000001, 0.001645
DataValue, 1.6800000000000002, 0.0018376
DataValue, 1.72, 0.002047
DataValue, 1.76, 0.0022672
DataValue, 1.8, 0.0024858000000000002
DataValue, 1.84, 0.0026956000000000003
DataValue, 1.8800000000000001, 0.0029392
DataValue, 1.9200000000000002, 0.0031648
DataValue, 1.9600000000000002, 0.0033938
DataValue, 2, 0.003625