
SetupTitle, I/V Sweep
PrimitiveTest, I/V Sweep
TestParameter, Context.MainFrame, B1500A
TestParameter, Channel.UnitType, SMU, SMU, SMU, SMU
TestParameter, Channel.Unit, SMU1:HP, SMU2:MP, SMU3:MP, SMU4:MP
TestParameter, Channel.IName, I, IDD1, IDD2, II
TestParameter, Channel.VName, V, VDD1, VDD2, VV
TestParameter, Channel.Mode, V, V, V, V
TestParameter, Channel.Func, VAR1, CONST, CONST, CONST
TestParameter, Channel.Index, 
TestParameter, Channel.Time, 
TestParameter, Measurement.Port.Unit, SMU1:HP, SMU2:MP, SMU3:MP, SMU4:MP
TestParameter, Measurement.Port.SeriesResistor, NONE, NONE, NONE, NONE
TestParameter, Measurement.Port.Filter, ON, ON, ON, ON
TestParameter, Measurement.Port.OutputVoltageComparison, 0, 0, 0, 0
TestParameter, Measurement.Primary.Locus, Single
TestParameter, Measurement.Primary.Scale, LINEAR
TestParameter, Measurement.Primary.Start, -2
TestParameter, Measurement.Primary.Stop, 2
TestParameter, Measurement.Primary.Step, 0.04
TestParameter, Measurement.Primary.Compliance, 0.1
TestParameter, Measurement.Primary.PowerCompliance, 0
TestParameter, Measurement.Aborting.Condition, CONTINUE AT ANY
TestParameter, Measurement.PostOutput.Value, START
TestParameter, Measurement.PostOutput.Retention, OFF
TestParameter, Measurement.Bias.Source, -2, 1.8, 1.1, 0
TestParameter, Measurement.Bias.Compliance, 0.1, 0.1, 0.1, 0.1
TestParameter, Measurement.Monitor.Unit, SMU1:HP, SMU2:MP, SMU3:MP, SMU4:MP
TestParameter, Measurement.Monitor.Adc, HR ADC, HR ADC, HR ADC, HR ADC
TestParameter, Measurement.Monitor.Measurement, Compliance Side, Compliance Side, Compliance Side, Compliance Side
TestParameter, Measurement.Monitor.RangingMode, LIMITED, LIMITED, LIMITED, LIMITED
TestParameter, Measurement.Monitor.RangeBoundary, 1nA, 1nA, 1nA, 1nA
TestParameter, Measurement.Monitor.RangeRating, BY FULL RANGE, BY FULL RANGE, BY FULL RANGE, BY FULL RANGE
TestParameter, Measurement.Monitor.RangeRatingCoeff, 50, 50, 50, 50
TestParameter, Measurement.Timing.Hold, 0
TestParameter, Measurement.Timing.Delay, 0
TestParameter, Measurement.Adc.HighSpeed.Mode, AUTO
TestParameter, Measurement.Adc.HighSpeed.Coeff, 1
TestParameter, Measurement.Adc.HighResolution.AutoZero, OFF
TestParameter, Measurement.Adc.HighResolution.Mode, AUTO
TestParameter, Measurement.Adc.HighResolution.Coeff, 6
TestParameter, Measurement.WaitTime.Source.Coeff, 1
TestParameter, Measurement.WaitTime.Source.Offset, 0
TestParameter, Measurement.WaitTime.Monitor.Coeff, 1
TestParameter, Measurement.WaitTime.Monitor.Offset, 0
TestParameter, Output.Graph.Enabled, true
TestParameter, Output.Graph.AutoScaling, false
TestParameter, Output.Graph.XAxis.Data, V
TestParameter, Output.Graph.XAxis.Scale, Linear
TestParameter, Output.Graph.XAxis.Left, -2
TestParameter, Output.Graph.XAxis.Right, 2
TestParameter, Output.Graph.XAxis.RunTimeAutoScale, true
TestParameter, Output.Graph.YAxis.Data, I
TestParameter, Output.Graph.YAxis.Scale, Linear
TestParameter, Output.Graph.YAxis.Bottom, -0.1
TestParameter, Output.Graph.YAxis.Top, 0.1
TestParameter, Output.Graph.YAxis.Group, 
TestParameter, Output.Graph.YAxis.RunTimeAutoScale, true
TestParameter, AutoAnalysis.Interpolation, false
TestParameter, AutoAnalysis.Var2StepCount, 1
TestParameter, AutoAnalysis.Var2StepScript, 
TestParameter, AutoAnalysis.Line1.Enabled, false
TestParameter, AutoAnalysis.Line1.Type, 1
TestParameter, AutoAnalysis.Line1.Fix, True
TestParameter, AutoAnalysis.Line1.YAxis, 0
TestParameter, AutoAnalysis.Line1.Point1.Type, 0
TestParameter, AutoAnalysis.Line1.Point1.XY.X, 
TestParameter, AutoAnalysis.Line1.Point1.XY.Y, 
TestParameter, AutoAnalysis.Line1.Point1.Data.Var, 
TestParameter, AutoAnalysis.Line1.Point1.Data.Condition, 
TestParameter, AutoAnalysis.Line1.Point1.Data.Start, false
TestParameter, AutoAnalysis.Line1.Point1.Data.StartVar, 
TestParameter, AutoAnalysis.Line1.Point1.Data.StartCondition, 
TestParameter, AutoAnalysis.Line1.Point2.Type, 0
TestParameter, AutoAnalysis.Line1.Point2.XY.X, 
TestParameter, AutoAnalysis.Line1.Point2.XY.Y, 
TestParameter, AutoAnalysis.Line1.Point2.Data.Var, 
TestParameter, AutoAnalysis.Line1.Point2.Data.Condition, 
TestParameter, AutoAnalysis.Line1.Point2.Data.Start, false
TestParameter, AutoAnalysis.Line1.Point2.Data.StartVar, 
TestParameter, AutoAnalysis.Line1.Point2.Data.StartCondition, 
TestParameter, AutoAnalysis.Line1.GradientExpr, 0
TestParameter, AutoAnalysis.Line2.Enabled, false
TestParameter, AutoAnalysis.Line2.Type, 1
TestParameter, AutoAnalysis.Line2.Fix, True
TestParameter, AutoAnalysis.Line2.YAxis, 0
TestParameter, AutoAnalysis.Line2.Point1.Type, 0
TestParameter, AutoAnalysis.Line2.Point1.XY.X, 
TestParameter, AutoAnalysis.Line2.Point1.XY.Y, 
TestParameter, AutoAnalysis.Line2.Point1.Data.Var, 
TestParameter, AutoAnalysis.Line2.Point1.Data.Condition, 
TestParameter, AutoAnalysis.Line2.Point1.Data.Start, false
TestParameter, AutoAnalysis.Line2.Point1.Data.StartVar, 
TestParameter, AutoAnalysis.Line2.Point1.Data.StartCondition, 
TestParameter, AutoAnalysis.Line2.Point2.Type, 0
TestParameter, AutoAnalysis.Line2.Point2.XY.X, 
TestParameter, AutoAnalysis.Line2.Point2.XY.Y, 
TestParameter, AutoAnalysis.Line2.Point2.Data.Var, 
TestParameter, AutoAnalysis.Line2.Point2.Data.Condition, 
TestParameter, AutoAnalysis.Line2.Point2.Data.Start, false
TestParameter, AutoAnalysis.Line2.Point2.Data.StartVar, 
TestParameter, AutoAnalysis.Line2.Point2.Data.StartCondition, 
TestParameter, AutoAnalysis.Line2.GradientExpr, 0
TestParameter, AutoAnalysis.Marker.Enabled, false
TestParameter, AutoAnalysis.Marker.Data.Var, 
TestParameter, AutoAnalysis.Marker.Data.Condition, 
TestParameter, AutoAnalysis.Marker.Data.Start, false
TestParameter, AutoAnalysis.Marker.Data.StartVar, 
TestParameter, AutoAnalysis.Marker.Data.StartCondition, 
MetaData, TestRecord.EntryPoint, true
MetaData, TestRecord.RecordTime, 10/19/2022 15:03:10
MetaData, TestRecord.TestTarget, 
MetaData, TestRecord.IterationIndex, 12
MetaData, TestRecord.Preservation, true
MetaData, TestRecord.Flag, 
MetaData, TestRecord.Remarks, 
MetaData, TestRecord.LinkKey, ce34565e-edf8-4d34-8ee4-23da604a4695
MetaData, TestRecord.Parameters, 
Dimension1, 101, 101
Dimension2, 1, 1
DataName, V, I
DataValue, -2, -0.0017742
DataValue, -1.9600000000000002, -0.0015688
DataValue, -1.9200000000000002, -0.001374
DataValue, -1.8800000000000001, -0.001191
DataValue, -1.84, -0.0010194
DataValue, -1.8, -0.0008610200000000001
DataValue, -1.76, -0.00071596000000000008
DataValue, -1.72, -0.0005842
DataValue, -1.6800000000000002, -0.0004671
DataValue, -1.6400000000000001, -0.00036520000000000004
DataValue, -1.6, -0.00027848
DataValue, -1.56, -0.00020706
DataValue, -1.52, -0.00015026000000000002
DataValue, -1.48, -0.00010706000000000001
DataValue, -1.4400000000000002, -7.5422E-05
DataValue, -1.4000000000000001, -5.2894E-05
DataValue, -1.36, -3.734E-05
DataValue, -1.32, -2.6442000000000002E-05
DataValue, -1.28, -1.864E-05
DataValue, -1.24, -1.2980000000000001E-05
DataValue, -1.2, -8.7580000000000015E-06
DataValue, -1.1600000000000001, -5.8642000000000005E-06
DataValue, -1.12, -3.8250000000000006E-06
DataValue, -1.08, -2.4169E-06
DataValue, -1.04, -1.5549000000000001E-06
DataValue, -1, -1.1119E-06
DataValue, -0.96000000000000008, -7.0406E-07
DataValue, -0.92, -5.1228E-07
DataValue, -0.88, -3.3994E-07
DataValue, -0.84000000000000008, -1.9456E-07
DataValue, -0.8, -1.5136E-07
DataValue, -0.76, -1.8838E-07
DataValue, -0.72000000000000008, -1.5984E-07
DataValue, -0.68, -3.8219999999999997E-07
DataValue, -0.64, -2.3944E-07
DataValue, -0.6, -1.481E-07
DataValue, -0.56, -3.9272E-07
DataValue, -0.52, -2.1691999999999999E-07
DataValue, -0.48000000000000004, -1.9248E-07
DataValue, -0.44, -1.4319999999999999E-07
DataValue, -0.4, -1.6202E-07
DataValue, -0.36000000000000004, -3.5014E-07
DataValue, -0.32, -1.6746E-07
DataValue, -0.28, -1.4358E-07
DataValue, -0.24000000000000002, -1.4388E-07
DataValue, -0.2, -8.0019399999999992E-08
DataValue, -0.16, -4.0982199999999994E-08
DataValue, -0.12000000000000001, -1.05752E-08
DataValue, -0.08, -3.0864E-09
DataValue, -0.04, -1.5663E-09
DataValue, 0, -7.113100000000001E-10
DataValue, 0.04, -6.5336E-10
DataValue, 0.08, -4.5537000000000005E-10
DataValue, 0.12000000000000001, -4.8782000000000008E-10
DataValue, 0.16, -3.2783000000000005E-10
DataValue, 0.2, -3.4366000000000003E-10
DataValue, 0.24000000000000002, -2.2240000000000002E-11
DataValue, 0.28, 1.9608E-10
DataValue, 0.32, 1.2655E-09
DataValue, 0.36000000000000004, 3.1224E-09
DataValue, 0.4, 6.059E-09
DataValue, 0.44, 1.0474399999999999E-08
DataValue, 0.48000000000000004, 2.0718799999999998E-08
DataValue, 0.52, 3.1585399999999996E-08
DataValue, 0.56, 5.4589399999999995E-08
DataValue, 0.6, 9.153079999999999E-08
DataValue, 0.64, 1.5212E-07
DataValue, 0.68, 2.277E-07
DataValue, 0.72000000000000008, 3.2925999999999997E-07
DataValue, 0.76, 4.9298E-07
DataValue, 0.8, 6.936E-07
DataValue, 0.84000000000000008, 8.9432E-07
DataValue, 0.88, 7.886E-07
DataValue, 0.92, 1.1344E-06
DataValue, 0.96000000000000008, 1.9522E-06
DataValue, 1, 3.5818E-06
DataValue, 1.04, 7.1289000000000005E-06
DataValue, 1.08, 1.381E-05
DataValue, 1.12, 2.8356E-05
DataValue, 1.1600000000000001, 5.7292E-05
DataValue, 1.2, 0.00011427400000000001
DataValue, 1.24, 0.00021932
DataValue, 1.28, 0.00039548000000000003
DataValue, 1.32, 0.000662
DataValue, 1.36, 0.0010261600000000001
DataValue, 1.4000000000000001, 0.0014788
DataValue, 1.4400000000000002, 0.0020004
DataValue, 1.48, 0.0025784000000000002
DataValue, 1.52, 0.003195
DataValue, 1.56, 0.0038368
DataValue, 1.6, 0.0045064
DataValue, 1.6400000000000001, 0.0051886
DataValue, 1.6800000000000002, 0.00589
DataValue, 1.72, 0.0066044
DataValue, 1.76, 0.0073422
DataValue, 1.8, 0.0081894
DataValue, 1.84, 0.008991
DataValue, 1.8800000000000001, 0.009789
DataValue, 1.9200000000000002, 0.0106946
DataValue, 1.9600000000000002, 0.012024000000000002
DataValue, 2, 0.012956