
SetupTitle, I/V Sweep
PrimitiveTest, I/V Sweep
TestParameter, Context.MainFrame, B1500A
TestParameter, Channel.UnitType, SMU, SMU, SMU, SMU
TestParameter, Channel.Unit, SMU1:HP, SMU2:MP, SMU3:MP, SMU4:MP
TestParameter, Channel.IName, I, IDD1, IDD2, II
TestParameter, Channel.VName, V, VDD1, VDD2, VV
TestParameter, Channel.Mode, V, V, V, V
TestParameter, Channel.Func, VAR1, CONST, CONST, CONST
TestParameter, Channel.Index, 
TestParameter, Channel.Time, 
TestParameter, Measurement.Port.Unit, SMU1:HP, SMU2:MP, SMU3:MP, SMU4:MP
TestParameter, Measurement.Port.SeriesResistor, NONE, NONE, NONE, NONE
TestParameter, Measurement.Port.Filter, ON, ON, ON, ON
TestParameter, Measurement.Port.OutputVoltageComparison, 0, 0, 0, 0
TestParameter, Measurement.Primary.Locus, Single
TestParameter, Measurement.Primary.Scale, LINEAR
TestParameter, Measurement.Primary.Start, -2
TestParameter, Measurement.Primary.Stop, 2
TestParameter, Measurement.Primary.Step, 0.04
TestParameter, Measurement.Primary.Compliance, 0.1
TestParameter, Measurement.Primary.PowerCompliance, 0
TestParameter, Measurement.Aborting.Condition, CONTINUE AT ANY
TestParameter, Measurement.PostOutput.Value, START
TestParameter, Measurement.PostOutput.Retention, OFF
TestParameter, Measurement.Bias.Source, -2, 1.8, 1.1, 0
TestParameter, Measurement.Bias.Compliance, 0.1, 0.1, 0.1, 0.1
TestParameter, Measurement.Monitor.Unit, SMU1:HP, SMU2:MP, SMU3:MP, SMU4:MP
TestParameter, Measurement.Monitor.Adc, HR ADC, HR ADC, HR ADC, HR ADC
TestParameter, Measurement.Monitor.Measurement, Compliance Side, Compliance Side, Compliance Side, Compliance Side
TestParameter, Measurement.Monitor.RangingMode, LIMITED, LIMITED, LIMITED, LIMITED
TestParameter, Measurement.Monitor.RangeBoundary, 1nA, 1nA, 1nA, 1nA
TestParameter, Measurement.Monitor.RangeRating, BY FULL RANGE, BY FULL RANGE, BY FULL RANGE, BY FULL RANGE
TestParameter, Measurement.Monitor.RangeRatingCoeff, 50, 50, 50, 50
TestParameter, Measurement.Timing.Hold, 0
TestParameter, Measurement.Timing.Delay, 0
TestParameter, Measurement.Adc.HighSpeed.Mode, AUTO
TestParameter, Measurement.Adc.HighSpeed.Coeff, 1
TestParameter, Measurement.Adc.HighResolution.AutoZero, OFF
TestParameter, Measurement.Adc.HighResolution.Mode, AUTO
TestParameter, Measurement.Adc.HighResolution.Coeff, 6
TestParameter, Measurement.WaitTime.Source.Coeff, 1
TestParameter, Measurement.WaitTime.Source.Offset, 0
TestParameter, Measurement.WaitTime.Monitor.Coeff, 1
TestParameter, Measurement.WaitTime.Monitor.Offset, 0
TestParameter, Output.Graph.Enabled, true
TestParameter, Output.Graph.AutoScaling, false
TestParameter, Output.Graph.XAxis.Data, V
TestParameter, Output.Graph.XAxis.Scale, Linear
TestParameter, Output.Graph.XAxis.Left, -2
TestParameter, Output.Graph.XAxis.Right, 2
TestParameter, Output.Graph.XAxis.RunTimeAutoScale, true
TestParameter, Output.Graph.YAxis.Data, I
TestParameter, Output.Graph.YAxis.Scale, Linear
TestParameter, Output.Graph.YAxis.Bottom, -0.1
TestParameter, Output.Graph.YAxis.Top, 0.1
TestParameter, Output.Graph.YAxis.Group, 
TestParameter, Output.Graph.YAxis.RunTimeAutoScale, true
TestParameter, AutoAnalysis.Interpolation, false
TestParameter, AutoAnalysis.Var2StepCount, 1
TestParameter, AutoAnalysis.Var2StepScript, 
TestParameter, AutoAnalysis.Line1.Enabled, false
TestParameter, AutoAnalysis.Line1.Type, 1
TestParameter, AutoAnalysis.Line1.Fix, True
TestParameter, AutoAnalysis.Line1.YAxis, 0
TestParameter, AutoAnalysis.Line1.Point1.Type, 0
TestParameter, AutoAnalysis.Line1.Point1.XY.X, 
TestParameter, AutoAnalysis.Line1.Point1.XY.Y, 
TestParameter, AutoAnalysis.Line1.Point1.Data.Var, 
TestParameter, AutoAnalysis.Line1.Point1.Data.Condition, 
TestParameter, AutoAnalysis.Line1.Point1.Data.Start, false
TestParameter, AutoAnalysis.Line1.Point1.Data.StartVar, 
TestParameter, AutoAnalysis.Line1.Point1.Data.StartCondition, 
TestParameter, AutoAnalysis.Line1.Point2.Type, 0
TestParameter, AutoAnalysis.Line1.Point2.XY.X, 
TestParameter, AutoAnalysis.Line1.Point2.XY.Y, 
TestParameter, AutoAnalysis.Line1.Point2.Data.Var, 
TestParameter, AutoAnalysis.Line1.Point2.Data.Condition, 
TestParameter, AutoAnalysis.Line1.Point2.Data.Start, false
TestParameter, AutoAnalysis.Line1.Point2.Data.StartVar, 
TestParameter, AutoAnalysis.Line1.Point2.Data.StartCondition, 
TestParameter, AutoAnalysis.Line1.GradientExpr, 0
TestParameter, AutoAnalysis.Line2.Enabled, false
TestParameter, AutoAnalysis.Line2.Type, 1
TestParameter, AutoAnalysis.Line2.Fix, True
TestParameter, AutoAnalysis.Line2.YAxis, 0
TestParameter, AutoAnalysis.Line2.Point1.Type, 0
TestParameter, AutoAnalysis.Line2.Point1.XY.X, 
TestParameter, AutoAnalysis.Line2.Point1.XY.Y, 
TestParameter, AutoAnalysis.Line2.Point1.Data.Var, 
TestParameter, AutoAnalysis.Line2.Point1.Data.Condition, 
TestParameter, AutoAnalysis.Line2.Point1.Data.Start, false
TestParameter, AutoAnalysis.Line2.Point1.Data.StartVar, 
TestParameter, AutoAnalysis.Line2.Point1.Data.StartCondition, 
TestParameter, AutoAnalysis.Line2.Point2.Type, 0
TestParameter, AutoAnalysis.Line2.Point2.XY.X, 
TestParameter, AutoAnalysis.Line2.Point2.XY.Y, 
TestParameter, AutoAnalysis.Line2.Point2.Data.Var, 
TestParameter, AutoAnalysis.Line2.Point2.Data.Condition, 
TestParameter, AutoAnalysis.Line2.Point2.Data.Start, false
TestParameter, AutoAnalysis.Line2.Point2.Data.StartVar, 
TestParameter, AutoAnalysis.Line2.Point2.Data.StartCondition, 
TestParameter, AutoAnalysis.Line2.GradientExpr, 0
TestParameter, AutoAnalysis.Marker.Enabled, false
TestParameter, AutoAnalysis.Marker.Data.Var, 
TestParameter, AutoAnalysis.Marker.Data.Condition, 
TestParameter, AutoAnalysis.Marker.Data.Start, false
TestParameter, AutoAnalysis.Marker.Data.StartVar, 
TestParameter, AutoAnalysis.Marker.Data.StartCondition, 
MetaData, TestRecord.EntryPoint, true
MetaData, TestRecord.RecordTime, 10/19/2022 15:04:30
MetaData, TestRecord.TestTarget, 
MetaData, TestRecord.IterationIndex, 15
MetaData, TestRecord.Preservation, true
MetaData, TestRecord.Flag, 
MetaData, TestRecord.Remarks, 
MetaData, TestRecord.LinkKey, 2b81903b-07cb-4949-8377-451b8064bb16
MetaData, TestRecord.Parameters, 
Dimension1, 101, 101
Dimension2, 1, 1
DataName, V, I
DataValue, -2, -0.0067068
DataValue, -1.9600000000000002, -0.0063186
DataValue, -1.9200000000000002, -0.0059378
DataValue, -1.8800000000000001, -0.0055668
DataValue, -1.84, -0.0052038
DataValue, -1.8, -0.0048528
DataValue, -1.76, -0.004511
DataValue, -1.72, -0.0041806000000000005
DataValue, -1.6800000000000002, -0.0038626
DataValue, -1.6400000000000001, -0.0035556
DataValue, -1.6, -0.0032622000000000003
DataValue, -1.56, -0.0029816
DataValue, -1.52, -0.0027146
DataValue, -1.48, -0.0024598000000000003
DataValue, -1.4400000000000002, -0.0022184
DataValue, -1.4000000000000001, -0.0019908
DataValue, -1.36, -0.001775
DataValue, -1.32, -0.0015716
DataValue, -1.28, -0.00138
DataValue, -1.24, -0.0012012
DataValue, -1.2, -0.0010352
DataValue, -1.1600000000000001, -0.0008817
DataValue, -1.12, -0.00074078
DataValue, -1.08, -0.00061376000000000009
DataValue, -1.04, -0.00049964
DataValue, -1, -0.00039904000000000003
DataValue, -0.96000000000000008, -0.00031182000000000003
DataValue, -0.92, -0.0002378
DataValue, -0.88, -0.00017626000000000002
DataValue, -0.84000000000000008, -0.00012644000000000002
DataValue, -0.8, -8.7702000000000008E-05
DataValue, -0.76, -5.8236E-05
DataValue, -0.72000000000000008, -3.6912E-05
DataValue, -0.68, -2.2158E-05
DataValue, -0.64, -1.2318E-05
DataValue, -0.6, -6.3943000000000008E-06
DataValue, -0.56, -3.1425000000000004E-06
DataValue, -0.52, -1.3720000000000002E-06
DataValue, -0.48000000000000004, -8.437E-07
DataValue, -0.44, -6.1008E-07
DataValue, -0.4, -3.7239999999999997E-07
DataValue, -0.36000000000000004, -4.1482E-07
DataValue, -0.32, -4.1256E-07
DataValue, -0.28, -4.7532E-07
DataValue, -0.24000000000000002, -3.9216E-07
DataValue, -0.2, -3.9214E-07
DataValue, -0.16, -2.177E-07
DataValue, -0.12000000000000001, -4.8318E-07
DataValue, -0.08, -3.6724E-07
DataValue, -0.04, -3.0315999999999997E-07
DataValue, 0, -2.7355999999999997E-07
DataValue, 0.04, -2.3454E-07
DataValue, 0.08, -2.6738E-07
DataValue, 0.12000000000000001, -2.578E-07
DataValue, 0.16, -3.5066E-07
DataValue, 0.2, -3.3602E-07
DataValue, 0.24000000000000002, -1.8622E-07
DataValue, 0.28, 2.1282E-07
DataValue, 0.32, 1.54E-06
DataValue, 0.36000000000000004, 5.4221E-06
DataValue, 0.4, 1.3372E-05
DataValue, 0.44, 3.0654E-05
DataValue, 0.48000000000000004, 8.1200000000000009E-05
DataValue, 0.52, 0.00023448000000000002
DataValue, 0.56, 0.0005749
DataValue, 0.6, 0.00110734
DataValue, 0.64, 0.001784
DataValue, 0.68, 0.002559
DataValue, 0.72000000000000008, 0.003412
DataValue, 0.76, 0.0043286
DataValue, 0.8, 0.0052986000000000005
DataValue, 0.84000000000000008, 0.0063092
DataValue, 0.88, 0.0073542
DataValue, 0.92, 0.0084256
DataValue, 0.96000000000000008, 0.0095194
DataValue, 1, 0.0106182
DataValue, 1.04, 0.011748000000000002
DataValue, 1.08, 0.012874000000000002
DataValue, 1.12, 0.013994000000000001
DataValue, 1.1600000000000001, 0.01514
DataValue, 1.2, 0.01626
DataValue, 1.24, 0.017388
DataValue, 1.28, 0.018508
DataValue, 1.32, 0.019620000000000002
DataValue, 1.36, 0.020730000000000002
DataValue, 1.4000000000000001, 0.021814000000000004
DataValue, 1.4400000000000002, 0.022934000000000003
DataValue, 1.48, 0.023994
DataValue, 1.52, 0.025096000000000004
DataValue, 1.56, 0.026094000000000003
DataValue, 1.6, 0.027154
DataValue, 1.6400000000000001, 0.028116000000000002
DataValue, 1.6800000000000002, 0.029106000000000003
DataValue, 1.72, 0.030066000000000002
DataValue, 1.76, 0.031466
DataValue, 1.8, 0.033254000000000006
DataValue, 1.84, 0.034966000000000004
DataValue, 1.8800000000000001, 0.036716000000000006
DataValue, 1.9200000000000002, 0.038454
DataValue, 1.9600000000000002, 0.040040000000000006
DataValue, 2, 0.041620000000000004