
SetupTitle, I/V Sweep
PrimitiveTest, I/V Sweep
TestParameter, Context.MainFrame, B1500A
TestParameter, Channel.UnitType, SMU, SMU, SMU, SMU, SMU
TestParameter, Channel.Unit, SMU1:HP, SMU2:MP, SMU3:MP, SMU4:MP, SMU5:MP
TestParameter, Channel.IName, I, IDD1, IDD2, ISS, IPP
TestParameter, Channel.VName, V, VDD1, VDD2, VSS, VPP
TestParameter, Channel.Mode, V, V, V, V, V
TestParameter, Channel.Func, CONST, VAR1, CONST, CONST, CONST
TestParameter, Channel.Index, 
TestParameter, Channel.Time, 
TestParameter, Measurement.Port.Unit, SMU1:HP, SMU2:MP, SMU3:MP, SMU4:MP, SMU5:MP
TestParameter, Measurement.Port.SeriesResistor, NONE, NONE, NONE, NONE, NONE
TestParameter, Measurement.Port.Filter, ON, ON, ON, ON, ON
TestParameter, Measurement.Port.OutputVoltageComparison, 0, 0, 0, 0, 0
TestParameter, Measurement.Primary.Locus, Single
TestParameter, Measurement.Primary.Scale, LINEAR
TestParameter, Measurement.Primary.Start, -2
TestParameter, Measurement.Primary.Stop, 2
TestParameter, Measurement.Primary.Step, 0.04
TestParameter, Measurement.Primary.Compliance, 0.1
TestParameter, Measurement.Primary.PowerCompliance, 0
TestParameter, Measurement.Aborting.Condition, CONTINUE AT ANY
TestParameter, Measurement.PostOutput.Value, START
TestParameter, Measurement.PostOutput.Retention, OFF
TestParameter, Measurement.Bias.Source, -2, -2, 1.1, 0, 0
TestParameter, Measurement.Bias.Compliance, 0.1, 0.1, 0.1, 0.1, 0.1
TestParameter, Measurement.Monitor.Unit, SMU1:HP, SMU2:MP, SMU3:MP, SMU4:MP, SMU5:MP
TestParameter, Measurement.Monitor.Adc, HR ADC, HR ADC, HR ADC, HR ADC, HR ADC
TestParameter, Measurement.Monitor.Measurement, Compliance Side, Compliance Side, Compliance Side, Compliance Side, Compliance Side
TestParameter, Measurement.Monitor.RangingMode, LIMITED, LIMITED, LIMITED, LIMITED, LIMITED
TestParameter, Measurement.Monitor.RangeBoundary, 1nA, 1nA, 1nA, 1nA, 1nA
TestParameter, Measurement.Monitor.RangeRating, BY FULL RANGE, BY FULL RANGE, BY FULL RANGE, BY FULL RANGE, BY FULL RANGE
TestParameter, Measurement.Monitor.RangeRatingCoeff, 50, 50, 50, 50, 50
TestParameter, Measurement.Timing.Hold, 0
TestParameter, Measurement.Timing.Delay, 0
TestParameter, Measurement.Adc.HighSpeed.Mode, AUTO
TestParameter, Measurement.Adc.HighSpeed.Coeff, 1
TestParameter, Measurement.Adc.HighResolution.AutoZero, OFF
TestParameter, Measurement.Adc.HighResolution.Mode, AUTO
TestParameter, Measurement.Adc.HighResolution.Coeff, 6
TestParameter, Measurement.WaitTime.Source.Coeff, 1
TestParameter, Measurement.WaitTime.Source.Offset, 0
TestParameter, Measurement.WaitTime.Monitor.Coeff, 1
TestParameter, Measurement.WaitTime.Monitor.Offset, 0
TestParameter, Output.Graph.Enabled, true
TestParameter, Output.Graph.AutoScaling, false
TestParameter, Output.Graph.XAxis.Data, VDD1
TestParameter, Output.Graph.XAxis.Scale, Linear
TestParameter, Output.Graph.XAxis.Left, -2
TestParameter, Output.Graph.XAxis.Right, 2
TestParameter, Output.Graph.XAxis.RunTimeAutoScale, true
TestParameter, Output.Graph.YAxis.Data, IDD1
TestParameter, Output.Graph.YAxis.Scale, Linear
TestParameter, Output.Graph.YAxis.Bottom, -0.1
TestParameter, Output.Graph.YAxis.Top, 0.1
TestParameter, Output.Graph.YAxis.Group, 
TestParameter, Output.Graph.YAxis.RunTimeAutoScale, true
TestParameter, AutoAnalysis.Interpolation, false
TestParameter, AutoAnalysis.Var2StepCount, 1
TestParameter, AutoAnalysis.Var2StepScript, 
TestParameter, AutoAnalysis.Line1.Enabled, false
TestParameter, AutoAnalysis.Line1.Type, 1
TestParameter, AutoAnalysis.Line1.Fix, True
TestParameter, AutoAnalysis.Line1.YAxis, 0
TestParameter, AutoAnalysis.Line1.Point1.Type, 0
TestParameter, AutoAnalysis.Line1.Point1.XY.X, 
TestParameter, AutoAnalysis.Line1.Point1.XY.Y, 
TestParameter, AutoAnalysis.Line1.Point1.Data.Var, 
TestParameter, AutoAnalysis.Line1.Point1.Data.Condition, 
TestParameter, AutoAnalysis.Line1.Point1.Data.Start, false
TestParameter, AutoAnalysis.Line1.Point1.Data.StartVar, 
TestParameter, AutoAnalysis.Line1.Point1.Data.StartCondition, 
TestParameter, AutoAnalysis.Line1.Point2.Type, 0
TestParameter, AutoAnalysis.Line1.Point2.XY.X, 
TestParameter, AutoAnalysis.Line1.Point2.XY.Y, 
TestParameter, AutoAnalysis.Line1.Point2.Data.Var, 
TestParameter, AutoAnalysis.Line1.Point2.Data.Condition, 
TestParameter, AutoAnalysis.Line1.Point2.Data.Start, false
TestParameter, AutoAnalysis.Line1.Point2.Data.StartVar, 
TestParameter, AutoAnalysis.Line1.Point2.Data.StartCondition, 
TestParameter, AutoAnalysis.Line1.GradientExpr, 0
TestParameter, AutoAnalysis.Line2.Enabled, false
TestParameter, AutoAnalysis.Line2.Type, 1
TestParameter, AutoAnalysis.Line2.Fix, True
TestParameter, AutoAnalysis.Line2.YAxis, 0
TestParameter, AutoAnalysis.Line2.Point1.Type, 0
TestParameter, AutoAnalysis.Line2.Point1.XY.X, 
TestParameter, AutoAnalysis.Line2.Point1.XY.Y, 
TestParameter, AutoAnalysis.Line2.Point1.Data.Var, 
TestParameter, AutoAnalysis.Line2.Point1.Data.Condition, 
TestParameter, AutoAnalysis.Line2.Point1.Data.Start, false
TestParameter, AutoAnalysis.Line2.Point1.Data.StartVar, 
TestParameter, AutoAnalysis.Line2.Point1.Data.StartCondition, 
TestParameter, AutoAnalysis.Line2.Point2.Type, 0
TestParameter, AutoAnalysis.Line2.Point2.XY.X, 
TestParameter, AutoAnalysis.Line2.Point2.XY.Y, 
TestParameter, AutoAnalysis.Line2.Point2.Data.Var, 
TestParameter, AutoAnalysis.Line2.Point2.Data.Condition, 
TestParameter, AutoAnalysis.Line2.Point2.Data.Start, false
TestParameter, AutoAnalysis.Line2.Point2.Data.StartVar, 
TestParameter, AutoAnalysis.Line2.Point2.Data.StartCondition, 
TestParameter, AutoAnalysis.Line2.GradientExpr, 0
TestParameter, AutoAnalysis.Marker.Enabled, false
TestParameter, AutoAnalysis.Marker.Data.Var, 
TestParameter, AutoAnalysis.Marker.Data.Condition, 
TestParameter, AutoAnalysis.Marker.Data.Start, false
TestParameter, AutoAnalysis.Marker.Data.StartVar, 
TestParameter, AutoAnalysis.Marker.Data.StartCondition, 
MetaData, TestRecord.EntryPoint, true
MetaData, TestRecord.RecordTime, 10/19/2022 14:07:00
MetaData, TestRecord.TestTarget, 
MetaData, TestRecord.IterationIndex, 400
MetaData, TestRecord.Preservation, true
MetaData, TestRecord.Flag, 
MetaData, TestRecord.Remarks, 
MetaData, TestRecord.LinkKey, 077e52cd-8395-47d5-9b1a-c8431e0a7f40
MetaData, TestRecord.Parameters, 
Dimension1, 101, 101
Dimension2, 1, 1
DataName, VDD1, IDD1
DataValue, -2, 5.8986199999999994E-08
DataValue, -1.9600000000000002, -5.5723799999999992E-08
DataValue, -1.9200000000000002, 5.4357799999999992E-08
DataValue, -1.8800000000000001, -4.95428E-08
DataValue, -1.84, 5.3927E-08
DataValue, -1.8, -2.9538599999999996E-08
DataValue, -1.76, 3.6524799999999994E-08
DataValue, -1.72, -2.9549799999999996E-08
DataValue, -1.6800000000000002, 3.7552E-09
DataValue, -1.6400000000000001, -7.6167999999999988E-09
DataValue, -1.6, 7.2847999999999995E-09
DataValue, -1.56, 6.9071999999999995E-09
DataValue, -1.52, 5.1901599999999995E-08
DataValue, -1.48, -4.8096199999999994E-08
DataValue, -1.4400000000000002, 4.63536E-08
DataValue, -1.4000000000000001, -4.4492999999999993E-08
DataValue, -1.36, 4.71306E-08
DataValue, -1.32, -1.9037199999999998E-08
DataValue, -1.28, 2.4134999999999997E-08
DataValue, -1.24, -1.82354E-08
DataValue, -1.2, -1.999E-09
DataValue, -1.1600000000000001, -2.846E-09
DataValue, -1.12, 6.26354E-08
DataValue, -1.08, -4.4957599999999996E-08
DataValue, -1.04, 5.2779399999999994E-08
DataValue, -1, -4.7130799999999996E-08
DataValue, -0.96000000000000008, 2.9320999999999998E-08
DataValue, -0.92, -3.0107399999999995E-08
DataValue, -0.88, 2.7553399999999997E-08
DataValue, -0.84000000000000008, -6.4743999999999991E-09
DataValue, -0.8, 8.3841999999999984E-09
DataValue, -0.76, -8.2788E-09
DataValue, -0.72000000000000008, 3.72626E-08
DataValue, -0.68, -1.91484E-08
DataValue, -0.64, 5.9631999999999994E-09
DataValue, -0.6, 4.1772E-09
DataValue, -0.56, -1.7893999999999998E-08
DataValue, -0.52, 2.5572E-08
DataValue, -0.48000000000000004, -4.59074E-08
DataValue, -0.44, 5.0803999999999996E-08
DataValue, -0.4, -5.5927599999999995E-08
DataValue, -0.36000000000000004, 6.1748199999999989E-08
DataValue, -0.32, -5.8679399999999994E-08
DataValue, -0.28, 6.16282E-08
DataValue, -0.24000000000000002, -4.65018E-08
DataValue, -0.2, 3.96738E-08
DataValue, -0.16, -1.8234E-08
DataValue, -0.12000000000000001, 6.4205999999999991E-09
DataValue, -0.08, 5.3797999999999991E-09
DataValue, -0.04, -2.4718599999999996E-08
DataValue, 0, 5.0342799999999992E-08
DataValue, 0.04, -5.5764199999999993E-08
DataValue, 0.08, 6.4544599999999992E-08
DataValue, 0.12000000000000001, -5.90138E-08
DataValue, 0.16, 6.3726399999999993E-08
DataValue, 0.2, -5.33648E-08
DataValue, 0.24000000000000002, 5.1765599999999993E-08
DataValue, 0.28, -3.3613799999999995E-08
DataValue, 0.32, 4.985E-09
DataValue, 0.36000000000000004, 6.0102E-09
DataValue, 0.4, -2.3668599999999997E-08
DataValue, 0.44, 3.3542799999999994E-08
DataValue, 0.48000000000000004, -5.0940999999999993E-08
DataValue, 0.52, 5.52876E-08
DataValue, 0.56, -5.7266999999999993E-08
DataValue, 0.6, 6.4688999999999991E-08
DataValue, 0.64, -4.6206799999999994E-08
DataValue, 0.68, 4.26398E-08
DataValue, 0.72000000000000008, -3.1719999999999996E-08
DataValue, 0.76, 2.2167999999999996E-09
DataValue, 0.8, 8.5677999999999985E-09
DataValue, 0.84000000000000008, -2.6965799999999997E-08
DataValue, 0.88, 4.09398E-08
DataValue, 0.92, -5.1180199999999997E-08
DataValue, 0.96000000000000008, 5.6555399999999994E-08
DataValue, 1, -5.7615599999999996E-08
DataValue, 1.04, 6.4576599999999988E-08
DataValue, 1.08, -4.1391599999999996E-08
DataValue, 1.12, 6.4401999999999993E-09
DataValue, 1.1600000000000001, 3.8305999999999996E-09
DataValue, 1.2, -1.7415599999999997E-08
DataValue, 1.24, 1.2447799999999999E-08
DataValue, 1.28, -3.3006799999999995E-08
DataValue, 1.32, 4.61912E-08
DataValue, 1.36, -5.2526599999999996E-08
DataValue, 1.4000000000000001, 5.8838599999999993E-08
DataValue, 1.4400000000000002, -5.5876999999999991E-08
DataValue, 1.48, 6.4454999999999991E-08
DataValue, 1.52, -5.6637399999999995E-08
DataValue, 1.56, 6.35928E-08
DataValue, 1.6, -5.0625399999999994E-08
DataValue, 1.6400000000000001, 4.9381E-08
DataValue, 1.6800000000000002, -2.86776E-08
DataValue, 1.72, 2.7185999999999996E-08
DataValue, 1.76, -4.9257799999999993E-08
DataValue, 1.8, 5.2746599999999994E-08
DataValue, 1.84, -5.7057599999999992E-08
DataValue, 1.8800000000000001, 6.3361399999999989E-08
DataValue, 1.9200000000000002, -5.7185399999999994E-08
DataValue, 1.9600000000000002, 5.99156E-08
DataValue, 2, -4.5108599999999995E-08