
SetupTitle, I/V Sweep
PrimitiveTest, I/V Sweep
TestParameter, Context.MainFrame, B1500A
TestParameter, Channel.UnitType, SMU, SMU, SMU, SMU, SMU
TestParameter, Channel.Unit, SMU1:HP, SMU2:MP, SMU3:MP, SMU4:MP, SMU5:MP
TestParameter, Channel.IName, I, IDD1, IDD2, ISS, IPP
TestParameter, Channel.VName, V, VDD1, VDD2, VSS, VPP
TestParameter, Channel.Mode, V, V, V, V, V
TestParameter, Channel.Func, VAR1, CONST, CONST, CONST, CONST
TestParameter, Channel.Index, 
TestParameter, Channel.Time, 
TestParameter, Measurement.Port.Unit, SMU1:HP, SMU2:MP, SMU3:MP, SMU4:MP, SMU5:MP
TestParameter, Measurement.Port.SeriesResistor, NONE, NONE, NONE, NONE, NONE
TestParameter, Measurement.Port.Filter, ON, ON, ON, ON, ON
TestParameter, Measurement.Port.OutputVoltageComparison, 0, 0, 0, 0, 0
TestParameter, Measurement.Primary.Locus, Single
TestParameter, Measurement.Primary.Scale, LINEAR
TestParameter, Measurement.Primary.Start, -2
TestParameter, Measurement.Primary.Stop, 2
TestParameter, Measurement.Primary.Step, 0.04
TestParameter, Measurement.Primary.Compliance, 0.1
TestParameter, Measurement.Primary.PowerCompliance, 0
TestParameter, Measurement.Aborting.Condition, CONTINUE AT ANY
TestParameter, Measurement.PostOutput.Value, START
TestParameter, Measurement.PostOutput.Retention, OFF
TestParameter, Measurement.Bias.Source, -2, 1.8, 1.1, 0, 0
TestParameter, Measurement.Bias.Compliance, 0.1, 0.1, 0.1, 0.1, 0.1
TestParameter, Measurement.Monitor.Unit, SMU1:HP, SMU2:MP, SMU3:MP, SMU4:MP, SMU5:MP
TestParameter, Measurement.Monitor.Adc, HR ADC, HR ADC, HR ADC, HR ADC, HR ADC
TestParameter, Measurement.Monitor.Measurement, Compliance Side, Compliance Side, Compliance Side, Compliance Side, Compliance Side
TestParameter, Measurement.Monitor.RangingMode, LIMITED, LIMITED, LIMITED, LIMITED, LIMITED
TestParameter, Measurement.Monitor.RangeBoundary, 1nA, 1nA, 1nA, 1nA, 1nA
TestParameter, Measurement.Monitor.RangeRating, BY FULL RANGE, BY FULL RANGE, BY FULL RANGE, BY FULL RANGE, BY FULL RANGE
TestParameter, Measurement.Monitor.RangeRatingCoeff, 50, 50, 50, 50, 50
TestParameter, Measurement.Timing.Hold, 0
TestParameter, Measurement.Timing.Delay, 0
TestParameter, Measurement.Adc.HighSpeed.Mode, AUTO
TestParameter, Measurement.Adc.HighSpeed.Coeff, 1
TestParameter, Measurement.Adc.HighResolution.AutoZero, OFF
TestParameter, Measurement.Adc.HighResolution.Mode, AUTO
TestParameter, Measurement.Adc.HighResolution.Coeff, 6
TestParameter, Measurement.WaitTime.Source.Coeff, 1
TestParameter, Measurement.WaitTime.Source.Offset, 0
TestParameter, Measurement.WaitTime.Monitor.Coeff, 1
TestParameter, Measurement.WaitTime.Monitor.Offset, 0
TestParameter, Output.Graph.Enabled, true
TestParameter, Output.Graph.AutoScaling, false
TestParameter, Output.Graph.XAxis.Data, V
TestParameter, Output.Graph.XAxis.Scale, Linear
TestParameter, Output.Graph.XAxis.Left, -2
TestParameter, Output.Graph.XAxis.Right, 2
TestParameter, Output.Graph.XAxis.RunTimeAutoScale, true
TestParameter, Output.Graph.YAxis.Data, I
TestParameter, Output.Graph.YAxis.Scale, Linear
TestParameter, Output.Graph.YAxis.Bottom, -0.1
TestParameter, Output.Graph.YAxis.Top, 0.1
TestParameter, Output.Graph.YAxis.Group, 
TestParameter, Output.Graph.YAxis.RunTimeAutoScale, true
TestParameter, AutoAnalysis.Interpolation, false
TestParameter, AutoAnalysis.Var2StepCount, 1
TestParameter, AutoAnalysis.Var2StepScript, 
TestParameter, AutoAnalysis.Line1.Enabled, false
TestParameter, AutoAnalysis.Line1.Type, 1
TestParameter, AutoAnalysis.Line1.Fix, True
TestParameter, AutoAnalysis.Line1.YAxis, 0
TestParameter, AutoAnalysis.Line1.Point1.Type, 0
TestParameter, AutoAnalysis.Line1.Point1.XY.X, 
TestParameter, AutoAnalysis.Line1.Point1.XY.Y, 
TestParameter, AutoAnalysis.Line1.Point1.Data.Var, 
TestParameter, AutoAnalysis.Line1.Point1.Data.Condition, 
TestParameter, AutoAnalysis.Line1.Point1.Data.Start, false
TestParameter, AutoAnalysis.Line1.Point1.Data.StartVar, 
TestParameter, AutoAnalysis.Line1.Point1.Data.StartCondition, 
TestParameter, AutoAnalysis.Line1.Point2.Type, 0
TestParameter, AutoAnalysis.Line1.Point2.XY.X, 
TestParameter, AutoAnalysis.Line1.Point2.XY.Y, 
TestParameter, AutoAnalysis.Line1.Point2.Data.Var, 
TestParameter, AutoAnalysis.Line1.Point2.Data.Condition, 
TestParameter, AutoAnalysis.Line1.Point2.Data.Start, false
TestParameter, AutoAnalysis.Line1.Point2.Data.StartVar, 
TestParameter, AutoAnalysis.Line1.Point2.Data.StartCondition, 
TestParameter, AutoAnalysis.Line1.GradientExpr, 0
TestParameter, AutoAnalysis.Line2.Enabled, false
TestParameter, AutoAnalysis.Line2.Type, 1
TestParameter, AutoAnalysis.Line2.Fix, True
TestParameter, AutoAnalysis.Line2.YAxis, 0
TestParameter, AutoAnalysis.Line2.Point1.Type, 0
TestParameter, AutoAnalysis.Line2.Point1.XY.X, 
TestParameter, AutoAnalysis.Line2.Point1.XY.Y, 
TestParameter, AutoAnalysis.Line2.Point1.Data.Var, 
TestParameter, AutoAnalysis.Line2.Point1.Data.Condition, 
TestParameter, AutoAnalysis.Line2.Point1.Data.Start, false
TestParameter, AutoAnalysis.Line2.Point1.Data.StartVar, 
TestParameter, AutoAnalysis.Line2.Point1.Data.StartCondition, 
TestParameter, AutoAnalysis.Line2.Point2.Type, 0
TestParameter, AutoAnalysis.Line2.Point2.XY.X, 
TestParameter, AutoAnalysis.Line2.Point2.XY.Y, 
TestParameter, AutoAnalysis.Line2.Point2.Data.Var, 
TestParameter, AutoAnalysis.Line2.Point2.Data.Condition, 
TestParameter, AutoAnalysis.Line2.Point2.Data.Start, false
TestParameter, AutoAnalysis.Line2.Point2.Data.StartVar, 
TestParameter, AutoAnalysis.Line2.Point2.Data.StartCondition, 
TestParameter, AutoAnalysis.Line2.GradientExpr, 0
TestParameter, AutoAnalysis.Marker.Enabled, false
TestParameter, AutoAnalysis.Marker.Data.Var, 
TestParameter, AutoAnalysis.Marker.Data.Condition, 
TestParameter, AutoAnalysis.Marker.Data.Start, false
TestParameter, AutoAnalysis.Marker.Data.StartVar, 
TestParameter, AutoAnalysis.Marker.Data.StartCondition, 
MetaData, TestRecord.EntryPoint, true
MetaData, TestRecord.RecordTime, 10/19/2022 14:37:02
MetaData, TestRecord.TestTarget, 
MetaData, TestRecord.IterationIndex, 463
MetaData, TestRecord.Preservation, true
MetaData, TestRecord.Flag, 
MetaData, TestRecord.Remarks, 
MetaData, TestRecord.LinkKey, 67bcad95-fd24-425e-808e-a69a730dc51a
MetaData, TestRecord.Parameters, 
Dimension1, 101, 101
Dimension2, 1, 1
DataName, V, I
DataValue, -2, -0.083624
DataValue, -1.9600000000000002, -0.081458
DataValue, -1.9200000000000002, -0.079274000000000011
DataValue, -1.8800000000000001, -0.077110000000000012
DataValue, -1.84, -0.074952
DataValue, -1.8, -0.072798
DataValue, -1.76, -0.070646
DataValue, -1.72, -0.068486
DataValue, -1.6800000000000002, -0.066336
DataValue, -1.6400000000000001, -0.064188000000000009
DataValue, -1.6, -0.062052
DataValue, -1.56, -0.059922
DataValue, -1.52, -0.057800000000000004
DataValue, -1.48, -0.055686000000000006
DataValue, -1.4400000000000002, -0.053590000000000006
DataValue, -1.4000000000000001, -0.051504
DataValue, -1.36, -0.049432000000000004
DataValue, -1.32, -0.047372000000000004
DataValue, -1.28, -0.045326000000000005
DataValue, -1.24, -0.043294000000000006
DataValue, -1.2, -0.041278
DataValue, -1.1600000000000001, -0.039274
DataValue, -1.12, -0.03728
DataValue, -1.08, -0.035304
DataValue, -1.04, -0.033338
DataValue, -1, -0.031386000000000004
DataValue, -0.96000000000000008, -0.029448000000000002
DataValue, -0.92, -0.027528000000000004
DataValue, -0.88, -0.025626000000000003
DataValue, -0.84000000000000008, -0.023744
DataValue, -0.8, -0.021886000000000003
DataValue, -0.76, -0.020056
DataValue, -0.72000000000000008, -0.018252
DataValue, -0.68, -0.016488000000000003
DataValue, -0.64, -0.01476
DataValue, -0.6, -0.013084000000000002
DataValue, -0.56, -0.011454
DataValue, -0.52, -0.009886
DataValue, -0.48000000000000004, -0.008378
DataValue, -0.44, -0.0069468
DataValue, -0.4, -0.0056006
DataValue, -0.36000000000000004, -0.0043534
DataValue, -0.32, -0.0032204
DataValue, -0.28, -0.0022292
DataValue, -0.24000000000000002, -0.0014058
DataValue, -0.2, -0.0007812
DataValue, -0.16, -0.00037232000000000004
DataValue, -0.12000000000000001, -0.00015378
DataValue, -0.08, -5.6862E-05
DataValue, -0.04, -1.5354E-05
DataValue, 0, 6.14762E-08
DataValue, 0.04, 5.5017E-06
DataValue, 0.08, 7.0758000000000009E-06
DataValue, 0.12000000000000001, 7.5586000000000008E-06
DataValue, 0.16, 7.882400000000001E-06
DataValue, 0.2, 8.1266000000000011E-06
DataValue, 0.24000000000000002, 8.5294E-06
DataValue, 0.28, 9.6337E-06
DataValue, 0.32, 1.2992E-05
DataValue, 0.36000000000000004, 2.4674E-05
DataValue, 0.4, 4.9858E-05
DataValue, 0.44, 8.3992E-05
DataValue, 0.48000000000000004, 0.00014132
DataValue, 0.52, 0.00024458
DataValue, 0.56, 0.00035126000000000005
DataValue, 0.6, 0.00046794
DataValue, 0.64, 0.00059236
DataValue, 0.68, 0.0007249
DataValue, 0.72000000000000008, 0.00086900000000000009
DataValue, 0.76, 0.0010255000000000002
DataValue, 0.8, 0.0012052
DataValue, 0.84000000000000008, 0.0013796
DataValue, 0.88, 0.0015748000000000001
DataValue, 0.92, 0.0018016
DataValue, 0.96000000000000008, 0.0020596
DataValue, 1, 0.0023362
DataValue, 1.04, 0.0026398
DataValue, 1.08, 0.0029642
DataValue, 1.12, 0.0033054
DataValue, 1.1600000000000001, 0.0036266000000000002
DataValue, 1.2, 0.0037286
DataValue, 1.24, 0.0039804
DataValue, 1.28, 0.0042766
DataValue, 1.32, 0.0045634000000000004
DataValue, 1.36, 0.0048824
DataValue, 1.4000000000000001, 0.0052244
DataValue, 1.4400000000000002, 0.0055834000000000005
DataValue, 1.48, 0.0059700000000000005
DataValue, 1.52, 0.0063822
DataValue, 1.56, 0.0068176
DataValue, 1.6, 0.007273
DataValue, 1.6400000000000001, 0.0077446
DataValue, 1.6800000000000002, 0.0082308
DataValue, 1.72, 0.0087282
DataValue, 1.76, 0.0092356
DataValue, 1.8, 0.0097534
DataValue, 1.84, 0.010279400000000001
DataValue, 1.8800000000000001, 0.0108114
DataValue, 1.9200000000000002, 0.0113522
DataValue, 1.9600000000000002, 0.011902000000000001
DataValue, 2, 0.012456000000000002