
SetupTitle, I/V Sweep
PrimitiveTest, I/V Sweep
TestParameter, Context.MainFrame, B1500A
TestParameter, Channel.UnitType, SMU, SMU, SMU, SMU, SMU
TestParameter, Channel.Unit, SMU1:HP, SMU2:MP, SMU3:MP, SMU4:MP, SMU5:MP
TestParameter, Channel.IName, I, IDD1, IDD2, ISS, IPP
TestParameter, Channel.VName, V, VDD1, VDD2, VSS, VPP
TestParameter, Channel.Mode, V, V, V, V, V
TestParameter, Channel.Func, VAR1, CONST, CONST, CONST, CONST
TestParameter, Channel.Index, 
TestParameter, Channel.Time, 
TestParameter, Measurement.Port.Unit, SMU1:HP, SMU2:MP, SMU3:MP, SMU4:MP, SMU5:MP
TestParameter, Measurement.Port.SeriesResistor, NONE, NONE, NONE, NONE, NONE
TestParameter, Measurement.Port.Filter, ON, ON, ON, ON, ON
TestParameter, Measurement.Port.OutputVoltageComparison, 0, 0, 0, 0, 0
TestParameter, Measurement.Primary.Locus, Single
TestParameter, Measurement.Primary.Scale, LINEAR
TestParameter, Measurement.Primary.Start, -2
TestParameter, Measurement.Primary.Stop, 2
TestParameter, Measurement.Primary.Step, 0.04
TestParameter, Measurement.Primary.Compliance, 0.1
TestParameter, Measurement.Primary.PowerCompliance, 0
TestParameter, Measurement.Aborting.Condition, CONTINUE AT ANY
TestParameter, Measurement.PostOutput.Value, START
TestParameter, Measurement.PostOutput.Retention, OFF
TestParameter, Measurement.Bias.Source, -2, 1.8, 1.1, 0, 0
TestParameter, Measurement.Bias.Compliance, 0.1, 0.1, 0.1, 0.1, 0.1
TestParameter, Measurement.Monitor.Unit, SMU1:HP, SMU2:MP, SMU3:MP, SMU4:MP, SMU5:MP
TestParameter, Measurement.Monitor.Adc, HR ADC, HR ADC, HR ADC, HR ADC, HR ADC
TestParameter, Measurement.Monitor.Measurement, Compliance Side, Compliance Side, Compliance Side, Compliance Side, Compliance Side
TestParameter, Measurement.Monitor.RangingMode, LIMITED, LIMITED, LIMITED, LIMITED, LIMITED
TestParameter, Measurement.Monitor.RangeBoundary, 1nA, 1nA, 1nA, 1nA, 1nA
TestParameter, Measurement.Monitor.RangeRating, BY FULL RANGE, BY FULL RANGE, BY FULL RANGE, BY FULL RANGE, BY FULL RANGE
TestParameter, Measurement.Monitor.RangeRatingCoeff, 50, 50, 50, 50, 50
TestParameter, Measurement.Timing.Hold, 0
TestParameter, Measurement.Timing.Delay, 0
TestParameter, Measurement.Adc.HighSpeed.Mode, AUTO
TestParameter, Measurement.Adc.HighSpeed.Coeff, 1
TestParameter, Measurement.Adc.HighResolution.AutoZero, OFF
TestParameter, Measurement.Adc.HighResolution.Mode, AUTO
TestParameter, Measurement.Adc.HighResolution.Coeff, 6
TestParameter, Measurement.WaitTime.Source.Coeff, 1
TestParameter, Measurement.WaitTime.Source.Offset, 0
TestParameter, Measurement.WaitTime.Monitor.Coeff, 1
TestParameter, Measurement.WaitTime.Monitor.Offset, 0
TestParameter, Output.Graph.Enabled, true
TestParameter, Output.Graph.AutoScaling, false
TestParameter, Output.Graph.XAxis.Data, V
TestParameter, Output.Graph.XAxis.Scale, Linear
TestParameter, Output.Graph.XAxis.Left, -2
TestParameter, Output.Graph.XAxis.Right, 2
TestParameter, Output.Graph.XAxis.RunTimeAutoScale, true
TestParameter, Output.Graph.YAxis.Data, I
TestParameter, Output.Graph.YAxis.Scale, Linear
TestParameter, Output.Graph.YAxis.Bottom, -0.1
TestParameter, Output.Graph.YAxis.Top, 0.1
TestParameter, Output.Graph.YAxis.Group, 
TestParameter, Output.Graph.YAxis.RunTimeAutoScale, true
TestParameter, AutoAnalysis.Interpolation, false
TestParameter, AutoAnalysis.Var2StepCount, 1
TestParameter, AutoAnalysis.Var2StepScript, 
TestParameter, AutoAnalysis.Line1.Enabled, false
TestParameter, AutoAnalysis.Line1.Type, 1
TestParameter, AutoAnalysis.Line1.Fix, True
TestParameter, AutoAnalysis.Line1.YAxis, 0
TestParameter, AutoAnalysis.Line1.Point1.Type, 0
TestParameter, AutoAnalysis.Line1.Point1.XY.X, 
TestParameter, AutoAnalysis.Line1.Point1.XY.Y, 
TestParameter, AutoAnalysis.Line1.Point1.Data.Var, 
TestParameter, AutoAnalysis.Line1.Point1.Data.Condition, 
TestParameter, AutoAnalysis.Line1.Point1.Data.Start, false
TestParameter, AutoAnalysis.Line1.Point1.Data.StartVar, 
TestParameter, AutoAnalysis.Line1.Point1.Data.StartCondition, 
TestParameter, AutoAnalysis.Line1.Point2.Type, 0
TestParameter, AutoAnalysis.Line1.Point2.XY.X, 
TestParameter, AutoAnalysis.Line1.Point2.XY.Y, 
TestParameter, AutoAnalysis.Line1.Point2.Data.Var, 
TestParameter, AutoAnalysis.Line1.Point2.Data.Condition, 
TestParameter, AutoAnalysis.Line1.Point2.Data.Start, false
TestParameter, AutoAnalysis.Line1.Point2.Data.StartVar, 
TestParameter, AutoAnalysis.Line1.Point2.Data.StartCondition, 
TestParameter, AutoAnalysis.Line1.GradientExpr, 0
TestParameter, AutoAnalysis.Line2.Enabled, false
TestParameter, AutoAnalysis.Line2.Type, 1
TestParameter, AutoAnalysis.Line2.Fix, True
TestParameter, AutoAnalysis.Line2.YAxis, 0
TestParameter, AutoAnalysis.Line2.Point1.Type, 0
TestParameter, AutoAnalysis.Line2.Point1.XY.X, 
TestParameter, AutoAnalysis.Line2.Point1.XY.Y, 
TestParameter, AutoAnalysis.Line2.Point1.Data.Var, 
TestParameter, AutoAnalysis.Line2.Point1.Data.Condition, 
TestParameter, AutoAnalysis.Line2.Point1.Data.Start, false
TestParameter, AutoAnalysis.Line2.Point1.Data.StartVar, 
TestParameter, AutoAnalysis.Line2.Point1.Data.StartCondition, 
TestParameter, AutoAnalysis.Line2.Point2.Type, 0
TestParameter, AutoAnalysis.Line2.Point2.XY.X, 
TestParameter, AutoAnalysis.Line2.Point2.XY.Y, 
TestParameter, AutoAnalysis.Line2.Point2.Data.Var, 
TestParameter, AutoAnalysis.Line2.Point2.Data.Condition, 
TestParameter, AutoAnalysis.Line2.Point2.Data.Start, false
TestParameter, AutoAnalysis.Line2.Point2.Data.StartVar, 
TestParameter, AutoAnalysis.Line2.Point2.Data.StartCondition, 
TestParameter, AutoAnalysis.Line2.GradientExpr, 0
TestParameter, AutoAnalysis.Marker.Enabled, false
TestParameter, AutoAnalysis.Marker.Data.Var, 
TestParameter, AutoAnalysis.Marker.Data.Condition, 
TestParameter, AutoAnalysis.Marker.Data.Start, false
TestParameter, AutoAnalysis.Marker.Data.StartVar, 
TestParameter, AutoAnalysis.Marker.Data.StartCondition, 
MetaData, TestRecord.EntryPoint, true
MetaData, TestRecord.RecordTime, 10/19/2022 14:09:32
MetaData, TestRecord.TestTarget, 
MetaData, TestRecord.IterationIndex, 409
MetaData, TestRecord.Preservation, true
MetaData, TestRecord.Flag, 
MetaData, TestRecord.Remarks, 
MetaData, TestRecord.LinkKey, f8ae3119-a4ab-4ece-b1f1-96826f4b60aa
MetaData, TestRecord.Parameters, 
Dimension1, 101, 101
Dimension2, 1, 1
DataName, V, I
DataValue, -2, -0.10000200000000001
DataValue, -1.9600000000000002, -0.1
DataValue, -1.9200000000000002, -0.10000200000000001
DataValue, -1.8800000000000001, -0.1
DataValue, -1.84, -0.10000200000000001
DataValue, -1.8, -0.10000200000000001
DataValue, -1.76, -0.10000200000000001
DataValue, -1.72, -0.10000200000000001
DataValue, -1.6800000000000002, -0.10000200000000001
DataValue, -1.6400000000000001, -0.10000200000000001
DataValue, -1.6, -0.10000200000000001
DataValue, -1.56, -0.10000200000000001
DataValue, -1.52, -0.10000200000000001
DataValue, -1.48, -0.1
DataValue, -1.4400000000000002, -0.10000200000000001
DataValue, -1.4000000000000001, -0.10000200000000001
DataValue, -1.36, -0.099608
DataValue, -1.32, -0.096724
DataValue, -1.28, -0.093838
DataValue, -1.24, -0.090942000000000009
DataValue, -1.2, -0.088022
DataValue, -1.1600000000000001, -0.085086000000000009
DataValue, -1.12, -0.082148000000000013
DataValue, -1.08, -0.079202000000000009
DataValue, -1.04, -0.076246000000000008
DataValue, -1, -0.073288
DataValue, -0.96000000000000008, -0.070320000000000008
DataValue, -0.92, -0.067348
DataValue, -0.88, -0.064376
DataValue, -0.84000000000000008, -0.061410000000000006
DataValue, -0.8, -0.05845
DataValue, -0.76, -0.055500000000000008
DataValue, -0.72000000000000008, -0.052556000000000005
DataValue, -0.68, -0.049632
DataValue, -0.64, -0.046716000000000008
DataValue, -0.6, -0.04383
DataValue, -0.56, -0.04096
DataValue, -0.52, -0.038114
DataValue, -0.48000000000000004, -0.035304
DataValue, -0.44, -0.032536
DataValue, -0.4, -0.029806000000000003
DataValue, -0.36000000000000004, -0.027134000000000002
DataValue, -0.32, -0.02451
DataValue, -0.28, -0.021956000000000003
DataValue, -0.24000000000000002, -0.019478000000000002
DataValue, -0.2, -0.017094
DataValue, -0.16, -0.014806000000000002
DataValue, -0.12000000000000001, -0.012638000000000002
DataValue, -0.08, -0.010606
DataValue, -0.04, -0.0087544
DataValue, 0, -0.007069
DataValue, 0.04, -0.0055898
DataValue, 0.08, -0.0043442
DataValue, 0.12000000000000001, -0.0033442
DataValue, 0.16, -0.0026318
DataValue, 0.2, -0.0020832
DataValue, 0.24000000000000002, -0.0017244
DataValue, 0.28, -0.0014722000000000001
DataValue, 0.32, -0.0012788
DataValue, 0.36000000000000004, -0.0011164
DataValue, 0.4, -0.00097022
DataValue, 0.44, -0.00083426000000000008
DataValue, 0.48000000000000004, -0.00071086
DataValue, 0.52, -0.00056034
DataValue, 0.56, -0.00043220000000000004
DataValue, 0.6, -0.00033568000000000004
DataValue, 0.64, -0.00025984
DataValue, 0.68, -0.00020378
DataValue, 0.72000000000000008, -0.00015644
DataValue, 0.76, -0.00012012000000000001
DataValue, 0.8, -9.0906E-05
DataValue, 0.84000000000000008, -6.3962000000000009E-05
DataValue, 0.88, -4.2592E-05
DataValue, 0.92, -2.8814000000000002E-05
DataValue, 0.96000000000000008, -1.8416E-05
DataValue, 1, -1.0414E-05
DataValue, 1.04, -4.7758E-06
DataValue, 1.08, -1.2724E-06
DataValue, 1.12, 3.6034E-07
DataValue, 1.1600000000000001, 1.1111E-06
DataValue, 1.2, 1.7693000000000002E-06
DataValue, 1.24, 2.3779E-06
DataValue, 1.28, 2.9268000000000005E-06
DataValue, 1.32, 3.6785000000000004E-06
DataValue, 1.36, 5.0747000000000007E-06
DataValue, 1.4000000000000001, 8.1657E-06
DataValue, 1.4400000000000002, 1.4144E-05
DataValue, 1.48, 2.196E-05
DataValue, 1.52, 2.7094000000000002E-05
DataValue, 1.56, 3.1002E-05
DataValue, 1.6, 3.5014E-05
DataValue, 1.6400000000000001, 4.007E-05
DataValue, 1.6800000000000002, 4.7358E-05
DataValue, 1.72, 5.8712E-05
DataValue, 1.76, 7.7322E-05
DataValue, 1.8, 0.00010882
DataValue, 1.84, 0.00016370000000000002
DataValue, 1.8800000000000001, 0.00026422
DataValue, 1.9200000000000002, 0.00045478
DataValue, 1.9600000000000002, 0.00078446000000000006
DataValue, 2, 0.0012746