
SetupTitle, I/V Sweep
PrimitiveTest, I/V Sweep
TestParameter, Context.MainFrame, B1500A
TestParameter, Channel.UnitType, SMU, SMU, SMU, SMU, SMU
TestParameter, Channel.Unit, SMU1:HP, SMU2:MP, SMU3:MP, SMU4:MP, SMU5:MP
TestParameter, Channel.IName, I, IDD1, IDD2, ISS, IPP
TestParameter, Channel.VName, V, VDD1, VDD2, VSS, VPP
TestParameter, Channel.Mode, V, V, V, V, V
TestParameter, Channel.Func, VAR1, CONST, CONST, CONST, CONST
TestParameter, Channel.Index, 
TestParameter, Channel.Time, 
TestParameter, Measurement.Port.Unit, SMU1:HP, SMU2:MP, SMU3:MP, SMU4:MP, SMU5:MP
TestParameter, Measurement.Port.SeriesResistor, NONE, NONE, NONE, NONE, NONE
TestParameter, Measurement.Port.Filter, ON, ON, ON, ON, ON
TestParameter, Measurement.Port.OutputVoltageComparison, 0, 0, 0, 0, 0
TestParameter, Measurement.Primary.Locus, Single
TestParameter, Measurement.Primary.Scale, LINEAR
TestParameter, Measurement.Primary.Start, -2
TestParameter, Measurement.Primary.Stop, 2
TestParameter, Measurement.Primary.Step, 0.04
TestParameter, Measurement.Primary.Compliance, 0.1
TestParameter, Measurement.Primary.PowerCompliance, 0
TestParameter, Measurement.Aborting.Condition, CONTINUE AT ANY
TestParameter, Measurement.PostOutput.Value, START
TestParameter, Measurement.PostOutput.Retention, OFF
TestParameter, Measurement.Bias.Source, -2, 1.8, 1.1, 0, 0
TestParameter, Measurement.Bias.Compliance, 0.1, 0.1, 0.1, 0.1, 0.1
TestParameter, Measurement.Monitor.Unit, SMU1:HP, SMU2:MP, SMU3:MP, SMU4:MP, SMU5:MP
TestParameter, Measurement.Monitor.Adc, HR ADC, HR ADC, HR ADC, HR ADC, HR ADC
TestParameter, Measurement.Monitor.Measurement, Compliance Side, Compliance Side, Compliance Side, Compliance Side, Compliance Side
TestParameter, Measurement.Monitor.RangingMode, LIMITED, LIMITED, LIMITED, LIMITED, LIMITED
TestParameter, Measurement.Monitor.RangeBoundary, 1nA, 1nA, 1nA, 1nA, 1nA
TestParameter, Measurement.Monitor.RangeRating, BY FULL RANGE, BY FULL RANGE, BY FULL RANGE, BY FULL RANGE, BY FULL RANGE
TestParameter, Measurement.Monitor.RangeRatingCoeff, 50, 50, 50, 50, 50
TestParameter, Measurement.Timing.Hold, 0
TestParameter, Measurement.Timing.Delay, 0
TestParameter, Measurement.Adc.HighSpeed.Mode, AUTO
TestParameter, Measurement.Adc.HighSpeed.Coeff, 1
TestParameter, Measurement.Adc.HighResolution.AutoZero, OFF
TestParameter, Measurement.Adc.HighResolution.Mode, AUTO
TestParameter, Measurement.Adc.HighResolution.Coeff, 6
TestParameter, Measurement.WaitTime.Source.Coeff, 1
TestParameter, Measurement.WaitTime.Source.Offset, 0
TestParameter, Measurement.WaitTime.Monitor.Coeff, 1
TestParameter, Measurement.WaitTime.Monitor.Offset, 0
TestParameter, Output.Graph.Enabled, true
TestParameter, Output.Graph.AutoScaling, false
TestParameter, Output.Graph.XAxis.Data, V
TestParameter, Output.Graph.XAxis.Scale, Linear
TestParameter, Output.Graph.XAxis.Left, -2
TestParameter, Output.Graph.XAxis.Right, 2
TestParameter, Output.Graph.XAxis.RunTimeAutoScale, true
TestParameter, Output.Graph.YAxis.Data, I
TestParameter, Output.Graph.YAxis.Scale, Linear
TestParameter, Output.Graph.YAxis.Bottom, -0.1
TestParameter, Output.Graph.YAxis.Top, 0.1
TestParameter, Output.Graph.YAxis.Group, 
TestParameter, Output.Graph.YAxis.RunTimeAutoScale, true
TestParameter, AutoAnalysis.Interpolation, false
TestParameter, AutoAnalysis.Var2StepCount, 1
TestParameter, AutoAnalysis.Var2StepScript, 
TestParameter, AutoAnalysis.Line1.Enabled, false
TestParameter, AutoAnalysis.Line1.Type, 1
TestParameter, AutoAnalysis.Line1.Fix, True
TestParameter, AutoAnalysis.Line1.YAxis, 0
TestParameter, AutoAnalysis.Line1.Point1.Type, 0
TestParameter, AutoAnalysis.Line1.Point1.XY.X, 
TestParameter, AutoAnalysis.Line1.Point1.XY.Y, 
TestParameter, AutoAnalysis.Line1.Point1.Data.Var, 
TestParameter, AutoAnalysis.Line1.Point1.Data.Condition, 
TestParameter, AutoAnalysis.Line1.Point1.Data.Start, false
TestParameter, AutoAnalysis.Line1.Point1.Data.StartVar, 
TestParameter, AutoAnalysis.Line1.Point1.Data.StartCondition, 
TestParameter, AutoAnalysis.Line1.Point2.Type, 0
TestParameter, AutoAnalysis.Line1.Point2.XY.X, 
TestParameter, AutoAnalysis.Line1.Point2.XY.Y, 
TestParameter, AutoAnalysis.Line1.Point2.Data.Var, 
TestParameter, AutoAnalysis.Line1.Point2.Data.Condition, 
TestParameter, AutoAnalysis.Line1.Point2.Data.Start, false
TestParameter, AutoAnalysis.Line1.Point2.Data.StartVar, 
TestParameter, AutoAnalysis.Line1.Point2.Data.StartCondition, 
TestParameter, AutoAnalysis.Line1.GradientExpr, 0
TestParameter, AutoAnalysis.Line2.Enabled, false
TestParameter, AutoAnalysis.Line2.Type, 1
TestParameter, AutoAnalysis.Line2.Fix, True
TestParameter, AutoAnalysis.Line2.YAxis, 0
TestParameter, AutoAnalysis.Line2.Point1.Type, 0
TestParameter, AutoAnalysis.Line2.Point1.XY.X, 
TestParameter, AutoAnalysis.Line2.Point1.XY.Y, 
TestParameter, AutoAnalysis.Line2.Point1.Data.Var, 
TestParameter, AutoAnalysis.Line2.Point1.Data.Condition, 
TestParameter, AutoAnalysis.Line2.Point1.Data.Start, false
TestParameter, AutoAnalysis.Line2.Point1.Data.StartVar, 
TestParameter, AutoAnalysis.Line2.Point1.Data.StartCondition, 
TestParameter, AutoAnalysis.Line2.Point2.Type, 0
TestParameter, AutoAnalysis.Line2.Point2.XY.X, 
TestParameter, AutoAnalysis.Line2.Point2.XY.Y, 
TestParameter, AutoAnalysis.Line2.Point2.Data.Var, 
TestParameter, AutoAnalysis.Line2.Point2.Data.Condition, 
TestParameter, AutoAnalysis.Line2.Point2.Data.Start, false
TestParameter, AutoAnalysis.Line2.Point2.Data.StartVar, 
TestParameter, AutoAnalysis.Line2.Point2.Data.StartCondition, 
TestParameter, AutoAnalysis.Line2.GradientExpr, 0
TestParameter, AutoAnalysis.Marker.Enabled, false
TestParameter, AutoAnalysis.Marker.Data.Var, 
TestParameter, AutoAnalysis.Marker.Data.Condition, 
TestParameter, AutoAnalysis.Marker.Data.Start, false
TestParameter, AutoAnalysis.Marker.Data.StartVar, 
TestParameter, AutoAnalysis.Marker.Data.StartCondition, 
MetaData, TestRecord.EntryPoint, true
MetaData, TestRecord.RecordTime, 10/19/2022 14:41:12
MetaData, TestRecord.TestTarget, 
MetaData, TestRecord.IterationIndex, 475
MetaData, TestRecord.Preservation, true
MetaData, TestRecord.Flag, 
MetaData, TestRecord.Remarks, 
MetaData, TestRecord.LinkKey, fed1fc08-2875-49dd-ac1b-8da154b789fb
MetaData, TestRecord.Parameters, 
Dimension1, 101, 101
Dimension2, 1, 1
DataName, V, I
DataValue, -2, -0.086884
DataValue, -1.9600000000000002, -0.085262
DataValue, -1.9200000000000002, -0.083396000000000012
DataValue, -1.8800000000000001, -0.081428
DataValue, -1.84, -0.079364
DataValue, -1.8, -0.077266
DataValue, -1.76, -0.075126000000000012
DataValue, -1.72, -0.072964
DataValue, -1.6800000000000002, -0.070786
DataValue, -1.6400000000000001, -0.06854600000000001
DataValue, -1.6, -0.066268000000000007
DataValue, -1.56, -0.06395
DataValue, -1.52, -0.061628
DataValue, -1.48, -0.05927
DataValue, -1.4400000000000002, -0.056888000000000008
DataValue, -1.4000000000000001, -0.054498000000000005
DataValue, -1.36, -0.052146000000000005
DataValue, -1.32, -0.049788000000000006
DataValue, -1.28, -0.047462000000000004
DataValue, -1.24, -0.045164
DataValue, -1.2, -0.042898000000000006
DataValue, -1.1600000000000001, -0.040628000000000004
DataValue, -1.12, -0.038388000000000005
DataValue, -1.08, -0.036166000000000004
DataValue, -1.04, -0.033942
DataValue, -1, -0.03173
DataValue, -0.96000000000000008, -0.029550000000000003
DataValue, -0.92, -0.027374000000000002
DataValue, -0.88, -0.025202000000000002
DataValue, -0.84000000000000008, -0.023020000000000002
DataValue, -0.8, -0.020736
DataValue, -0.76, -0.01828
DataValue, -0.72000000000000008, -0.014792000000000001
DataValue, -0.68, -0.01293
DataValue, -0.64, -0.011664
DataValue, -0.6, -0.010808000000000002
DataValue, -0.56, -0.010174
DataValue, -0.52, -0.0096336
DataValue, -0.48000000000000004, -0.009121
DataValue, -0.44, -0.0086222
DataValue, -0.4, -0.008128
DataValue, -0.36000000000000004, -0.0076358
DataValue, -0.32, -0.0071478
DataValue, -0.28, -0.0066614000000000005
DataValue, -0.24000000000000002, -0.0061764
DataValue, -0.2, -0.0056958
DataValue, -0.16, -0.0052154
DataValue, -0.12000000000000001, -0.0047388000000000005
DataValue, -0.08, -0.0042642
DataValue, -0.04, -0.0037926
DataValue, 0, -0.0033250000000000003
DataValue, 0.04, -0.002859
DataValue, 0.08, -0.0023970000000000003
DataValue, 0.12000000000000001, -0.0019386
DataValue, 0.16, -0.0014838
DataValue, 0.2, -0.0010336
DataValue, 0.24000000000000002, -0.00058680000000000006
DataValue, 0.28, -0.00014428000000000002
DataValue, 0.32, 0.00029318000000000004
DataValue, 0.36000000000000004, 0.00073434
DataValue, 0.4, 0.0011624
DataValue, 0.44, 0.0015866
DataValue, 0.48000000000000004, 0.0020036
DataValue, 0.52, 0.0024164
DataValue, 0.56, 0.002822
DataValue, 0.6, 0.0032236
DataValue, 0.64, 0.0036218
DataValue, 0.68, 0.0040132
DataValue, 0.72000000000000008, 0.0044012
DataValue, 0.76, 0.0047848000000000005
DataValue, 0.8, 0.0051666
DataValue, 0.84000000000000008, 0.0055432
DataValue, 0.88, 0.005922
DataValue, 0.92, 0.0063034
DataValue, 0.96000000000000008, 0.0066866
DataValue, 1, 0.0070672
DataValue, 1.04, 0.0074502000000000006
DataValue, 1.08, 0.0078328000000000009
DataValue, 1.12, 0.008213
DataValue, 1.1600000000000001, 0.008593
DataValue, 1.2, 0.0089696
DataValue, 1.24, 0.0093496
DataValue, 1.28, 0.009731
DataValue, 1.32, 0.0101312
DataValue, 1.36, 0.0105602
DataValue, 1.4000000000000001, 0.0110524
DataValue, 1.4400000000000002, 0.011618000000000002
DataValue, 1.48, 0.012220000000000002
DataValue, 1.52, 0.012866
DataValue, 1.56, 0.013534000000000001
DataValue, 1.6, 0.014246000000000002
DataValue, 1.6400000000000001, 0.014946000000000001
DataValue, 1.6800000000000002, 0.015652000000000003
DataValue, 1.72, 0.01635
DataValue, 1.76, 0.017028
DataValue, 1.8, 0.017712000000000002
DataValue, 1.84, 0.018410000000000003
DataValue, 1.8800000000000001, 0.019166000000000002
DataValue, 1.9200000000000002, 0.019954000000000003
DataValue, 1.9600000000000002, 0.020776000000000003
DataValue, 2, 0.021618000000000002