
SetupTitle, I/V Sweep
PrimitiveTest, I/V Sweep
TestParameter, Context.MainFrame, B1500A
TestParameter, Channel.UnitType, SMU, SMU, SMU, SMU, SMU
TestParameter, Channel.Unit, SMU1:HP, SMU2:MP, SMU3:MP, SMU4:MP, SMU5:MP
TestParameter, Channel.IName, I, IDD1, IDD2, ISS, IPP
TestParameter, Channel.VName, V, VDD1, VDD2, VSS, VPP
TestParameter, Channel.Mode, V, V, V, V, V
TestParameter, Channel.Func, CONST, CONST, VAR1, CONST, CONST
TestParameter, Channel.Index, 
TestParameter, Channel.Time, 
TestParameter, Measurement.Port.Unit, SMU1:HP, SMU2:MP, SMU3:MP, SMU4:MP, SMU5:MP
TestParameter, Measurement.Port.SeriesResistor, NONE, NONE, NONE, NONE, NONE
TestParameter, Measurement.Port.Filter, ON, ON, ON, ON, ON
TestParameter, Measurement.Port.OutputVoltageComparison, 0, 0, 0, 0, 0
TestParameter, Measurement.Primary.Locus, Single
TestParameter, Measurement.Primary.Scale, LINEAR
TestParameter, Measurement.Primary.Start, -2
TestParameter, Measurement.Primary.Stop, 2
TestParameter, Measurement.Primary.Step, 0.04
TestParameter, Measurement.Primary.Compliance, 0.1
TestParameter, Measurement.Primary.PowerCompliance, 0
TestParameter, Measurement.Aborting.Condition, CONTINUE AT ANY
TestParameter, Measurement.PostOutput.Value, START
TestParameter, Measurement.PostOutput.Retention, OFF
TestParameter, Measurement.Bias.Source, -2, -2, -2, 0, 0
TestParameter, Measurement.Bias.Compliance, 0.1, 0.1, 0.1, 0.1, 0.1
TestParameter, Measurement.Monitor.Unit, SMU1:HP, SMU2:MP, SMU3:MP, SMU4:MP, SMU5:MP
TestParameter, Measurement.Monitor.Adc, HR ADC, HR ADC, HR ADC, HR ADC, HR ADC
TestParameter, Measurement.Monitor.Measurement, Compliance Side, Compliance Side, Compliance Side, Compliance Side, Compliance Side
TestParameter, Measurement.Monitor.RangingMode, LIMITED, LIMITED, LIMITED, LIMITED, LIMITED
TestParameter, Measurement.Monitor.RangeBoundary, 1nA, 1nA, 1nA, 1nA, 1nA
TestParameter, Measurement.Monitor.RangeRating, BY FULL RANGE, BY FULL RANGE, BY FULL RANGE, BY FULL RANGE, BY FULL RANGE
TestParameter, Measurement.Monitor.RangeRatingCoeff, 50, 50, 50, 50, 50
TestParameter, Measurement.Timing.Hold, 0
TestParameter, Measurement.Timing.Delay, 0
TestParameter, Measurement.Adc.HighSpeed.Mode, AUTO
TestParameter, Measurement.Adc.HighSpeed.Coeff, 1
TestParameter, Measurement.Adc.HighResolution.AutoZero, OFF
TestParameter, Measurement.Adc.HighResolution.Mode, AUTO
TestParameter, Measurement.Adc.HighResolution.Coeff, 6
TestParameter, Measurement.WaitTime.Source.Coeff, 1
TestParameter, Measurement.WaitTime.Source.Offset, 0
TestParameter, Measurement.WaitTime.Monitor.Coeff, 1
TestParameter, Measurement.WaitTime.Monitor.Offset, 0
TestParameter, Output.Graph.Enabled, true
TestParameter, Output.Graph.AutoScaling, false
TestParameter, Output.Graph.XAxis.Data, VDD2
TestParameter, Output.Graph.XAxis.Scale, Linear
TestParameter, Output.Graph.XAxis.Left, -2
TestParameter, Output.Graph.XAxis.Right, 2
TestParameter, Output.Graph.XAxis.RunTimeAutoScale, true
TestParameter, Output.Graph.YAxis.Data, IDD2
TestParameter, Output.Graph.YAxis.Scale, Linear
TestParameter, Output.Graph.YAxis.Bottom, -0.1
TestParameter, Output.Graph.YAxis.Top, 0.1
TestParameter, Output.Graph.YAxis.Group, 
TestParameter, Output.Graph.YAxis.RunTimeAutoScale, true
TestParameter, AutoAnalysis.Interpolation, false
TestParameter, AutoAnalysis.Var2StepCount, 1
TestParameter, AutoAnalysis.Var2StepScript, 
TestParameter, AutoAnalysis.Line1.Enabled, false
TestParameter, AutoAnalysis.Line1.Type, 1
TestParameter, AutoAnalysis.Line1.Fix, True
TestParameter, AutoAnalysis.Line1.YAxis, 0
TestParameter, AutoAnalysis.Line1.Point1.Type, 0
TestParameter, AutoAnalysis.Line1.Point1.XY.X, 
TestParameter, AutoAnalysis.Line1.Point1.XY.Y, 
TestParameter, AutoAnalysis.Line1.Point1.Data.Var, 
TestParameter, AutoAnalysis.Line1.Point1.Data.Condition, 
TestParameter, AutoAnalysis.Line1.Point1.Data.Start, false
TestParameter, AutoAnalysis.Line1.Point1.Data.StartVar, 
TestParameter, AutoAnalysis.Line1.Point1.Data.StartCondition, 
TestParameter, AutoAnalysis.Line1.Point2.Type, 0
TestParameter, AutoAnalysis.Line1.Point2.XY.X, 
TestParameter, AutoAnalysis.Line1.Point2.XY.Y, 
TestParameter, AutoAnalysis.Line1.Point2.Data.Var, 
TestParameter, AutoAnalysis.Line1.Point2.Data.Condition, 
TestParameter, AutoAnalysis.Line1.Point2.Data.Start, false
TestParameter, AutoAnalysis.Line1.Point2.Data.StartVar, 
TestParameter, AutoAnalysis.Line1.Point2.Data.StartCondition, 
TestParameter, AutoAnalysis.Line1.GradientExpr, 0
TestParameter, AutoAnalysis.Line2.Enabled, false
TestParameter, AutoAnalysis.Line2.Type, 1
TestParameter, AutoAnalysis.Line2.Fix, True
TestParameter, AutoAnalysis.Line2.YAxis, 0
TestParameter, AutoAnalysis.Line2.Point1.Type, 0
TestParameter, AutoAnalysis.Line2.Point1.XY.X, 
TestParameter, AutoAnalysis.Line2.Point1.XY.Y, 
TestParameter, AutoAnalysis.Line2.Point1.Data.Var, 
TestParameter, AutoAnalysis.Line2.Point1.Data.Condition, 
TestParameter, AutoAnalysis.Line2.Point1.Data.Start, false
TestParameter, AutoAnalysis.Line2.Point1.Data.StartVar, 
TestParameter, AutoAnalysis.Line2.Point1.Data.StartCondition, 
TestParameter, AutoAnalysis.Line2.Point2.Type, 0
TestParameter, AutoAnalysis.Line2.Point2.XY.X, 
TestParameter, AutoAnalysis.Line2.Point2.XY.Y, 
TestParameter, AutoAnalysis.Line2.Point2.Data.Var, 
TestParameter, AutoAnalysis.Line2.Point2.Data.Condition, 
TestParameter, AutoAnalysis.Line2.Point2.Data.Start, false
TestParameter, AutoAnalysis.Line2.Point2.Data.StartVar, 
TestParameter, AutoAnalysis.Line2.Point2.Data.StartCondition, 
TestParameter, AutoAnalysis.Line2.GradientExpr, 0
TestParameter, AutoAnalysis.Marker.Enabled, false
TestParameter, AutoAnalysis.Marker.Data.Var, 
TestParameter, AutoAnalysis.Marker.Data.Condition, 
TestParameter, AutoAnalysis.Marker.Data.Start, false
TestParameter, AutoAnalysis.Marker.Data.StartVar, 
TestParameter, AutoAnalysis.Marker.Data.StartCondition, 
MetaData, TestRecord.EntryPoint, true
MetaData, TestRecord.RecordTime, 10/19/2022 14:07:48
MetaData, TestRecord.TestTarget, 
MetaData, TestRecord.IterationIndex, 403
MetaData, TestRecord.Preservation, true
MetaData, TestRecord.Flag, 
MetaData, TestRecord.Remarks, 
MetaData, TestRecord.LinkKey, d3d78785-225d-486b-816e-302c2abbde59
MetaData, TestRecord.Parameters, 
Dimension1, 101, 101
Dimension2, 1, 1
DataName, VDD2, IDD2
DataValue, -2, 8.76E-08
DataValue, -1.9600000000000002, 2.6911999999999996E-08
DataValue, -1.9200000000000002, 1.088E-07
DataValue, -1.8800000000000001, -1.44222E-08
DataValue, -1.84, -2.1662E-09
DataValue, -1.8, -1.9762E-09
DataValue, -1.76, -1.41608E-08
DataValue, -1.72, 1.0787E-08
DataValue, -1.6800000000000002, -3.4709199999999994E-08
DataValue, -1.6400000000000001, -5.382E-08
DataValue, -1.6, 2.35782E-08
DataValue, -1.56, 3.2346E-08
DataValue, -1.52, 8.504E-08
DataValue, -1.48, 4.6690599999999996E-08
DataValue, -1.4400000000000002, 4.846E-08
DataValue, -1.4000000000000001, -3.9495199999999995E-08
DataValue, -1.36, -5.0491999999999995E-09
DataValue, -1.32, -5.566E-08
DataValue, -1.28, 4.6999599999999996E-08
DataValue, -1.24, 1.3016E-09
DataValue, -1.2, -4.0639799999999994E-08
DataValue, -1.1600000000000001, -9.124E-08
DataValue, -1.12, -2.3018399999999997E-08
DataValue, -1.08, -4.804E-08
DataValue, -1.04, 2.5590999999999997E-08
DataValue, -1, -3.7683999999999995E-09
DataValue, -0.96000000000000008, -3.46668E-08
DataValue, -0.92, 1.976E-08
DataValue, -0.88, 9.032E-08
DataValue, -0.84000000000000008, 3.9585399999999995E-08
DataValue, -0.8, -3.748E-08
DataValue, -0.76, -8.246E-08
DataValue, -0.72000000000000008, -4.1237399999999996E-08
DataValue, -0.68, -1.2587999999999999E-07
DataValue, -0.64, -5.6663999999999994E-09
DataValue, -0.6, 2.07086E-08
DataValue, -0.56, 4.518E-08
DataValue, -0.52, -2.5339799999999996E-08
DataValue, -0.48000000000000004, -1.3376399999999999E-08
DataValue, -0.44, -6.76E-08
DataValue, -0.4, -5.4568E-09
DataValue, -0.36000000000000004, -5.562E-08
DataValue, -0.32, 4.77454E-08
DataValue, -0.28, 8.224E-10
DataValue, -0.24000000000000002, -3.87468E-08
DataValue, -0.2, -5.6E-08
DataValue, -0.16, 5.0998E-08
DataValue, -0.12000000000000001, 5.2399999999999995E-10
DataValue, -0.08, -3.9783799999999997E-08
DataValue, -0.04, -8.15E-08
DataValue, 0, -3.6812E-08
DataValue, 0.04, 2.48E-08
DataValue, 0.08, 8.7799999999999992E-08
DataValue, 0.12000000000000001, 4.2074599999999996E-08
DataValue, 0.16, 8.028E-08
DataValue, 0.2, -7.7454E-09
DataValue, 0.24000000000000002, -2.26288E-08
DataValue, 0.28, -1.2872E-07
DataValue, 0.32, 6.426E-08
DataValue, 0.36000000000000004, 9.818E-08
DataValue, 0.4, 1.6863999999999999E-09
DataValue, 0.44, -4.12E-08
DataValue, 0.48000000000000004, -9.152E-08
DataValue, 0.52, -2.2443799999999998E-08
DataValue, 0.56, -4.844E-08
DataValue, 0.6, 8.8969999999999985E-09
DataValue, 0.64, 6.8599999999999991E-09
DataValue, 0.68, 5.058E-08
DataValue, 0.72000000000000008, -4.7072599999999992E-08
DataValue, 0.76, 2.9003999999999996E-09
DataValue, 0.8, 1.3857199999999999E-08
DataValue, 0.84000000000000008, 1.381E-07
DataValue, 0.88, 2.7925999999999998E-08
DataValue, 0.92, 1.1758E-07
DataValue, 0.96000000000000008, 1.6624799999999997E-08
DataValue, 1, -3.4357399999999996E-08
DataValue, 1.04, -9.17E-08
DataValue, 1.08, 1.6253999999999998E-09
DataValue, 1.12, 1.6089E-08
DataValue, 1.1600000000000001, 1.259E-07
DataValue, 1.2, 1.1429199999999999E-08
DataValue, 1.24, 7.918E-08
DataValue, 1.28, 2.1832999999999998E-08
DataValue, 1.32, 4.846E-08
DataValue, 1.36, -5.7443999999999993E-09
DataValue, 1.4000000000000001, -3.2043E-08
DataValue, 1.4400000000000002, 2.194E-08
DataValue, 1.48, 9.062E-08
DataValue, 1.52, 4.0078599999999996E-08
DataValue, 1.56, 5.096E-08
DataValue, 1.6, -4.6794599999999995E-08
DataValue, 1.6400000000000001, 2.359E-09
DataValue, 1.6800000000000002, 1.54844E-08
DataValue, 1.72, 4.45E-08
DataValue, 1.76, -3.57474E-08
DataValue, 1.8, -5.8609999999999995E-09
DataValue, 1.84, 3.64E-08
DataValue, 1.8800000000000001, 6.844E-08
DataValue, 1.9200000000000002, -4.922E-08
DataValue, 1.9600000000000002, 4.2735199999999996E-08
DataValue, 2, 2.8601999999999997E-09