
SetupTitle, I/V Sweep
PrimitiveTest, I/V Sweep
TestParameter, Context.MainFrame, B1500A
TestParameter, Channel.UnitType, SMU, SMU, SMU, SMU, SMU
TestParameter, Channel.Unit, SMU1:HP, SMU2:MP, SMU3:MP, SMU4:MP, SMU5:MP
TestParameter, Channel.IName, I, IDD1, IDD2, ISS, IPP
TestParameter, Channel.VName, V, VDD1, VDD2, VSS, VPP
TestParameter, Channel.Mode, V, V, V, V, V
TestParameter, Channel.Func, VAR1, CONST, CONST, CONST, CONST
TestParameter, Channel.Index, 
TestParameter, Channel.Time, 
TestParameter, Measurement.Port.Unit, SMU1:HP, SMU2:MP, SMU3:MP, SMU4:MP, SMU5:MP
TestParameter, Measurement.Port.SeriesResistor, NONE, NONE, NONE, NONE, NONE
TestParameter, Measurement.Port.Filter, ON, ON, ON, ON, ON
TestParameter, Measurement.Port.OutputVoltageComparison, 0, 0, 0, 0, 0
TestParameter, Measurement.Primary.Locus, Single
TestParameter, Measurement.Primary.Scale, LINEAR
TestParameter, Measurement.Primary.Start, -2
TestParameter, Measurement.Primary.Stop, 2
TestParameter, Measurement.Primary.Step, 0.04
TestParameter, Measurement.Primary.Compliance, 0.1
TestParameter, Measurement.Primary.PowerCompliance, 0
TestParameter, Measurement.Aborting.Condition, CONTINUE AT ANY
TestParameter, Measurement.PostOutput.Value, START
TestParameter, Measurement.PostOutput.Retention, OFF
TestParameter, Measurement.Bias.Source, -2, 1.8, 1.1, 0, 0
TestParameter, Measurement.Bias.Compliance, 0.1, 0.1, 0.1, 0.1, 0.1
TestParameter, Measurement.Monitor.Unit, SMU1:HP, SMU2:MP, SMU3:MP, SMU4:MP, SMU5:MP
TestParameter, Measurement.Monitor.Adc, HR ADC, HR ADC, HR ADC, HR ADC, HR ADC
TestParameter, Measurement.Monitor.Measurement, Compliance Side, Compliance Side, Compliance Side, Compliance Side, Compliance Side
TestParameter, Measurement.Monitor.RangingMode, LIMITED, LIMITED, LIMITED, LIMITED, LIMITED
TestParameter, Measurement.Monitor.RangeBoundary, 1nA, 1nA, 1nA, 1nA, 1nA
TestParameter, Measurement.Monitor.RangeRating, BY FULL RANGE, BY FULL RANGE, BY FULL RANGE, BY FULL RANGE, BY FULL RANGE
TestParameter, Measurement.Monitor.RangeRatingCoeff, 50, 50, 50, 50, 50
TestParameter, Measurement.Timing.Hold, 0
TestParameter, Measurement.Timing.Delay, 0
TestParameter, Measurement.Adc.HighSpeed.Mode, AUTO
TestParameter, Measurement.Adc.HighSpeed.Coeff, 1
TestParameter, Measurement.Adc.HighResolution.AutoZero, OFF
TestParameter, Measurement.Adc.HighResolution.Mode, AUTO
TestParameter, Measurement.Adc.HighResolution.Coeff, 6
TestParameter, Measurement.WaitTime.Source.Coeff, 1
TestParameter, Measurement.WaitTime.Source.Offset, 0
TestParameter, Measurement.WaitTime.Monitor.Coeff, 1
TestParameter, Measurement.WaitTime.Monitor.Offset, 0
TestParameter, Output.Graph.Enabled, true
TestParameter, Output.Graph.AutoScaling, false
TestParameter, Output.Graph.XAxis.Data, V
TestParameter, Output.Graph.XAxis.Scale, Linear
TestParameter, Output.Graph.XAxis.Left, -2
TestParameter, Output.Graph.XAxis.Right, 2
TestParameter, Output.Graph.XAxis.RunTimeAutoScale, true
TestParameter, Output.Graph.YAxis.Data, I
TestParameter, Output.Graph.YAxis.Scale, Linear
TestParameter, Output.Graph.YAxis.Bottom, -0.1
TestParameter, Output.Graph.YAxis.Top, 0.1
TestParameter, Output.Graph.YAxis.Group, 
TestParameter, Output.Graph.YAxis.RunTimeAutoScale, true
TestParameter, AutoAnalysis.Interpolation, false
TestParameter, AutoAnalysis.Var2StepCount, 1
TestParameter, AutoAnalysis.Var2StepScript, 
TestParameter, AutoAnalysis.Line1.Enabled, false
TestParameter, AutoAnalysis.Line1.Type, 1
TestParameter, AutoAnalysis.Line1.Fix, True
TestParameter, AutoAnalysis.Line1.YAxis, 0
TestParameter, AutoAnalysis.Line1.Point1.Type, 0
TestParameter, AutoAnalysis.Line1.Point1.XY.X, 
TestParameter, AutoAnalysis.Line1.Point1.XY.Y, 
TestParameter, AutoAnalysis.Line1.Point1.Data.Var, 
TestParameter, AutoAnalysis.Line1.Point1.Data.Condition, 
TestParameter, AutoAnalysis.Line1.Point1.Data.Start, false
TestParameter, AutoAnalysis.Line1.Point1.Data.StartVar, 
TestParameter, AutoAnalysis.Line1.Point1.Data.StartCondition, 
TestParameter, AutoAnalysis.Line1.Point2.Type, 0
TestParameter, AutoAnalysis.Line1.Point2.XY.X, 
TestParameter, AutoAnalysis.Line1.Point2.XY.Y, 
TestParameter, AutoAnalysis.Line1.Point2.Data.Var, 
TestParameter, AutoAnalysis.Line1.Point2.Data.Condition, 
TestParameter, AutoAnalysis.Line1.Point2.Data.Start, false
TestParameter, AutoAnalysis.Line1.Point2.Data.StartVar, 
TestParameter, AutoAnalysis.Line1.Point2.Data.StartCondition, 
TestParameter, AutoAnalysis.Line1.GradientExpr, 0
TestParameter, AutoAnalysis.Line2.Enabled, false
TestParameter, AutoAnalysis.Line2.Type, 1
TestParameter, AutoAnalysis.Line2.Fix, True
TestParameter, AutoAnalysis.Line2.YAxis, 0
TestParameter, AutoAnalysis.Line2.Point1.Type, 0
TestParameter, AutoAnalysis.Line2.Point1.XY.X, 
TestParameter, AutoAnalysis.Line2.Point1.XY.Y, 
TestParameter, AutoAnalysis.Line2.Point1.Data.Var, 
TestParameter, AutoAnalysis.Line2.Point1.Data.Condition, 
TestParameter, AutoAnalysis.Line2.Point1.Data.Start, false
TestParameter, AutoAnalysis.Line2.Point1.Data.StartVar, 
TestParameter, AutoAnalysis.Line2.Point1.Data.StartCondition, 
TestParameter, AutoAnalysis.Line2.Point2.Type, 0
TestParameter, AutoAnalysis.Line2.Point2.XY.X, 
TestParameter, AutoAnalysis.Line2.Point2.XY.Y, 
TestParameter, AutoAnalysis.Line2.Point2.Data.Var, 
TestParameter, AutoAnalysis.Line2.Point2.Data.Condition, 
TestParameter, AutoAnalysis.Line2.Point2.Data.Start, false
TestParameter, AutoAnalysis.Line2.Point2.Data.StartVar, 
TestParameter, AutoAnalysis.Line2.Point2.Data.StartCondition, 
TestParameter, AutoAnalysis.Line2.GradientExpr, 0
TestParameter, AutoAnalysis.Marker.Enabled, false
TestParameter, AutoAnalysis.Marker.Data.Var, 
TestParameter, AutoAnalysis.Marker.Data.Condition, 
TestParameter, AutoAnalysis.Marker.Data.Start, false
TestParameter, AutoAnalysis.Marker.Data.StartVar, 
TestParameter, AutoAnalysis.Marker.Data.StartCondition, 
MetaData, TestRecord.EntryPoint, true
MetaData, TestRecord.RecordTime, 10/19/2022 14:34:36
MetaData, TestRecord.TestTarget, 
MetaData, TestRecord.IterationIndex, 459
MetaData, TestRecord.Preservation, true
MetaData, TestRecord.Flag, 
MetaData, TestRecord.Remarks, 
MetaData, TestRecord.LinkKey, bd5ced69-0189-4282-bac3-2601192fedf3
MetaData, TestRecord.Parameters, 
Dimension1, 101, 101
Dimension2, 1, 1
DataName, V, I
DataValue, -2, -0.024476
DataValue, -1.9600000000000002, -0.023734
DataValue, -1.9200000000000002, -0.022968000000000002
DataValue, -1.8800000000000001, -0.02221
DataValue, -1.84, -0.021460000000000003
DataValue, -1.8, -0.020690000000000004
DataValue, -1.76, -0.019940000000000003
DataValue, -1.72, -0.019182
DataValue, -1.6800000000000002, -0.018426
DataValue, -1.6400000000000001, -0.01767
DataValue, -1.6, -0.016922000000000003
DataValue, -1.56, -0.016168000000000002
DataValue, -1.52, -0.015414
DataValue, -1.48, -0.014674000000000001
DataValue, -1.4400000000000002, -0.013924
DataValue, -1.4000000000000001, -0.01319
DataValue, -1.36, -0.012454000000000002
DataValue, -1.32, -0.011722000000000002
DataValue, -1.28, -0.010998
DataValue, -1.24, -0.010278
DataValue, -1.2, -0.0095788
DataValue, -1.1600000000000001, -0.0088758
DataValue, -1.12, -0.0081814
DataValue, -1.08, -0.007504
DataValue, -1.04, -0.0068412
DataValue, -1, -0.0061946
DataValue, -0.96000000000000008, -0.005572
DataValue, -0.92, -0.004973
DataValue, -0.88, -0.004402
DataValue, -0.84000000000000008, -0.0038586000000000002
DataValue, -0.8, -0.0033472000000000003
DataValue, -0.76, -0.0028704
DataValue, -0.72000000000000008, -0.002437
DataValue, -0.68, -0.0020524000000000002
DataValue, -0.64, -0.0017184000000000001
DataValue, -0.6, -0.001411
DataValue, -0.56, -0.0011402
DataValue, -0.52, -0.0009192
DataValue, -0.48000000000000004, -0.00074864000000000007
DataValue, -0.44, -0.00061432
DataValue, -0.4, -0.00050222
DataValue, -0.36000000000000004, -0.00040298000000000005
DataValue, -0.32, -0.00031154
DataValue, -0.28, -0.00022786
DataValue, -0.24000000000000002, -0.00015294
DataValue, -0.2, -9.0858E-05
DataValue, -0.16, -4.515E-05
DataValue, -0.12000000000000001, -1.9194E-05
DataValue, -0.08, -8.1777000000000013E-06
DataValue, -0.04, -4.7397000000000005E-06
DataValue, 0, -3.5356000000000005E-06
DataValue, 0.04, -2.9195E-06
DataValue, 0.08, -2.4744000000000004E-06
DataValue, 0.12000000000000001, -2.0107E-06
DataValue, 0.16, -1.4606E-06
DataValue, 0.2, -7.0522E-07
DataValue, 0.24000000000000002, 1.11946E-06
DataValue, 0.28, 1.2048E-05
DataValue, 0.32, 2.4778000000000002E-05
DataValue, 0.36000000000000004, 3.0374E-05
DataValue, 0.4, 3.3182E-05
DataValue, 0.44, 3.6992E-05
DataValue, 0.48000000000000004, 3.6474000000000003E-05
DataValue, 0.52, 3.7452E-05
DataValue, 0.56, 3.871E-05
DataValue, 0.6, 3.9966E-05
DataValue, 0.64, 4.3952E-05
DataValue, 0.68, 4.5882E-05
DataValue, 0.72000000000000008, 5.009E-05
DataValue, 0.76, 5.4262E-05
DataValue, 0.8, 5.7858E-05
DataValue, 0.84000000000000008, 6.0910000000000005E-05
DataValue, 0.88, 6.3546E-05
DataValue, 0.92, 6.532E-05
DataValue, 0.96000000000000008, 6.7582E-05
DataValue, 1, 7.024E-05
DataValue, 1.04, 7.3388E-05
DataValue, 1.08, 8.4000000000000009E-05
DataValue, 1.12, 0.00010596000000000001
DataValue, 1.1600000000000001, 0.00014846
DataValue, 1.2, 0.00021852000000000002
DataValue, 1.24, 0.00031856
DataValue, 1.28, 0.00044352000000000004
DataValue, 1.32, 0.0005867
DataValue, 1.36, 0.00074124
DataValue, 1.4000000000000001, 0.00089906
DataValue, 1.4400000000000002, 0.00105282
DataValue, 1.48, 0.0011968
DataValue, 1.52, 0.0013296
DataValue, 1.56, 0.0014524
DataValue, 1.6, 0.0015672
DataValue, 1.6400000000000001, 0.001677
DataValue, 1.6800000000000002, 0.0017834
DataValue, 1.72, 0.0018868000000000001
DataValue, 1.76, 0.0019884
DataValue, 1.8, 0.0020892000000000003
DataValue, 1.84, 0.0021892
DataValue, 1.8800000000000001, 0.0022894
DataValue, 1.9200000000000002, 0.0023896
DataValue, 1.9600000000000002, 0.002489
DataValue, 2, 0.002589