
SetupTitle, I/V Sweep
PrimitiveTest, I/V Sweep
TestParameter, Context.MainFrame, B1500A
TestParameter, Channel.UnitType, SMU, SMU, SMU, SMU, SMU
TestParameter, Channel.Unit, SMU1:HP, SMU2:MP, SMU3:MP, SMU4:MP, SMU5:MP
TestParameter, Channel.IName, I, IDD1, IDD2, ISS, IPP
TestParameter, Channel.VName, V, VDD1, VDD2, VSS, VPP
TestParameter, Channel.Mode, V, V, V, V, V
TestParameter, Channel.Func, VAR1, CONST, CONST, CONST, CONST
TestParameter, Channel.Index, 
TestParameter, Channel.Time, 
TestParameter, Measurement.Port.Unit, SMU1:HP, SMU2:MP, SMU3:MP, SMU4:MP, SMU5:MP
TestParameter, Measurement.Port.SeriesResistor, NONE, NONE, NONE, NONE, NONE
TestParameter, Measurement.Port.Filter, ON, ON, ON, ON, ON
TestParameter, Measurement.Port.OutputVoltageComparison, 0, 0, 0, 0, 0
TestParameter, Measurement.Primary.Locus, Single
TestParameter, Measurement.Primary.Scale, LINEAR
TestParameter, Measurement.Primary.Start, -2
TestParameter, Measurement.Primary.Stop, 2
TestParameter, Measurement.Primary.Step, 0.04
TestParameter, Measurement.Primary.Compliance, 0.1
TestParameter, Measurement.Primary.PowerCompliance, 0
TestParameter, Measurement.Aborting.Condition, CONTINUE AT ANY
TestParameter, Measurement.PostOutput.Value, START
TestParameter, Measurement.PostOutput.Retention, OFF
TestParameter, Measurement.Bias.Source, -2, 1.8, 1.1, 0, 0
TestParameter, Measurement.Bias.Compliance, 0.1, 0.1, 0.1, 0.1, 0.1
TestParameter, Measurement.Monitor.Unit, SMU1:HP, SMU2:MP, SMU3:MP, SMU4:MP, SMU5:MP
TestParameter, Measurement.Monitor.Adc, HR ADC, HR ADC, HR ADC, HR ADC, HR ADC
TestParameter, Measurement.Monitor.Measurement, Compliance Side, Compliance Side, Compliance Side, Compliance Side, Compliance Side
TestParameter, Measurement.Monitor.RangingMode, LIMITED, LIMITED, LIMITED, LIMITED, LIMITED
TestParameter, Measurement.Monitor.RangeBoundary, 1nA, 1nA, 1nA, 1nA, 1nA
TestParameter, Measurement.Monitor.RangeRating, BY FULL RANGE, BY FULL RANGE, BY FULL RANGE, BY FULL RANGE, BY FULL RANGE
TestParameter, Measurement.Monitor.RangeRatingCoeff, 50, 50, 50, 50, 50
TestParameter, Measurement.Timing.Hold, 0
TestParameter, Measurement.Timing.Delay, 0
TestParameter, Measurement.Adc.HighSpeed.Mode, AUTO
TestParameter, Measurement.Adc.HighSpeed.Coeff, 1
TestParameter, Measurement.Adc.HighResolution.AutoZero, OFF
TestParameter, Measurement.Adc.HighResolution.Mode, AUTO
TestParameter, Measurement.Adc.HighResolution.Coeff, 6
TestParameter, Measurement.WaitTime.Source.Coeff, 1
TestParameter, Measurement.WaitTime.Source.Offset, 0
TestParameter, Measurement.WaitTime.Monitor.Coeff, 1
TestParameter, Measurement.WaitTime.Monitor.Offset, 0
TestParameter, Output.Graph.Enabled, true
TestParameter, Output.Graph.AutoScaling, false
TestParameter, Output.Graph.XAxis.Data, V
TestParameter, Output.Graph.XAxis.Scale, Linear
TestParameter, Output.Graph.XAxis.Left, -2
TestParameter, Output.Graph.XAxis.Right, 2
TestParameter, Output.Graph.XAxis.RunTimeAutoScale, true
TestParameter, Output.Graph.YAxis.Data, I
TestParameter, Output.Graph.YAxis.Scale, Linear
TestParameter, Output.Graph.YAxis.Bottom, -0.1
TestParameter, Output.Graph.YAxis.Top, 0.1
TestParameter, Output.Graph.YAxis.Group, 
TestParameter, Output.Graph.YAxis.RunTimeAutoScale, true
TestParameter, AutoAnalysis.Interpolation, false
TestParameter, AutoAnalysis.Var2StepCount, 1
TestParameter, AutoAnalysis.Var2StepScript, 
TestParameter, AutoAnalysis.Line1.Enabled, false
TestParameter, AutoAnalysis.Line1.Type, 1
TestParameter, AutoAnalysis.Line1.Fix, True
TestParameter, AutoAnalysis.Line1.YAxis, 0
TestParameter, AutoAnalysis.Line1.Point1.Type, 0
TestParameter, AutoAnalysis.Line1.Point1.XY.X, 
TestParameter, AutoAnalysis.Line1.Point1.XY.Y, 
TestParameter, AutoAnalysis.Line1.Point1.Data.Var, 
TestParameter, AutoAnalysis.Line1.Point1.Data.Condition, 
TestParameter, AutoAnalysis.Line1.Point1.Data.Start, false
TestParameter, AutoAnalysis.Line1.Point1.Data.StartVar, 
TestParameter, AutoAnalysis.Line1.Point1.Data.StartCondition, 
TestParameter, AutoAnalysis.Line1.Point2.Type, 0
TestParameter, AutoAnalysis.Line1.Point2.XY.X, 
TestParameter, AutoAnalysis.Line1.Point2.XY.Y, 
TestParameter, AutoAnalysis.Line1.Point2.Data.Var, 
TestParameter, AutoAnalysis.Line1.Point2.Data.Condition, 
TestParameter, AutoAnalysis.Line1.Point2.Data.Start, false
TestParameter, AutoAnalysis.Line1.Point2.Data.StartVar, 
TestParameter, AutoAnalysis.Line1.Point2.Data.StartCondition, 
TestParameter, AutoAnalysis.Line1.GradientExpr, 0
TestParameter, AutoAnalysis.Line2.Enabled, false
TestParameter, AutoAnalysis.Line2.Type, 1
TestParameter, AutoAnalysis.Line2.Fix, True
TestParameter, AutoAnalysis.Line2.YAxis, 0
TestParameter, AutoAnalysis.Line2.Point1.Type, 0
TestParameter, AutoAnalysis.Line2.Point1.XY.X, 
TestParameter, AutoAnalysis.Line2.Point1.XY.Y, 
TestParameter, AutoAnalysis.Line2.Point1.Data.Var, 
TestParameter, AutoAnalysis.Line2.Point1.Data.Condition, 
TestParameter, AutoAnalysis.Line2.Point1.Data.Start, false
TestParameter, AutoAnalysis.Line2.Point1.Data.StartVar, 
TestParameter, AutoAnalysis.Line2.Point1.Data.StartCondition, 
TestParameter, AutoAnalysis.Line2.Point2.Type, 0
TestParameter, AutoAnalysis.Line2.Point2.XY.X, 
TestParameter, AutoAnalysis.Line2.Point2.XY.Y, 
TestParameter, AutoAnalysis.Line2.Point2.Data.Var, 
TestParameter, AutoAnalysis.Line2.Point2.Data.Condition, 
TestParameter, AutoAnalysis.Line2.Point2.Data.Start, false
TestParameter, AutoAnalysis.Line2.Point2.Data.StartVar, 
TestParameter, AutoAnalysis.Line2.Point2.Data.StartCondition, 
TestParameter, AutoAnalysis.Line2.GradientExpr, 0
TestParameter, AutoAnalysis.Marker.Enabled, false
TestParameter, AutoAnalysis.Marker.Data.Var, 
TestParameter, AutoAnalysis.Marker.Data.Condition, 
TestParameter, AutoAnalysis.Marker.Data.Start, false
TestParameter, AutoAnalysis.Marker.Data.StartVar, 
TestParameter, AutoAnalysis.Marker.Data.StartCondition, 
MetaData, TestRecord.EntryPoint, true
MetaData, TestRecord.RecordTime, 10/19/2022 14:09:11
MetaData, TestRecord.TestTarget, 
MetaData, TestRecord.IterationIndex, 408
MetaData, TestRecord.Preservation, true
MetaData, TestRecord.Flag, 
MetaData, TestRecord.Remarks, 
MetaData, TestRecord.LinkKey, 6a612203-f887-478f-b188-59eb46f49130
MetaData, TestRecord.Parameters, 
Dimension1, 101, 101
Dimension2, 1, 1
DataName, V, I
DataValue, -2, -5.8925399999999995E-08
DataValue, -1.9600000000000002, -1.1778E-07
DataValue, -1.9200000000000002, -2.21E-08
DataValue, -1.8800000000000001, -7.874E-08
DataValue, -1.84, 8.3259999999999992E-08
DataValue, -1.8, -6.056E-10
DataValue, -1.76, 8.576E-08
DataValue, -1.72, 3.3728599999999995E-08
DataValue, -1.6800000000000002, 9.55E-08
DataValue, -1.6400000000000001, -4.954E-08
DataValue, -1.6, 3.2939999999999996E-09
DataValue, -1.56, -5.956E-09
DataValue, -1.52, 1.71E-08
DataValue, -1.48, 5.5898199999999993E-08
DataValue, -1.4400000000000002, 7.754E-08
DataValue, -1.4000000000000001, 3.25356E-08
DataValue, -1.36, 4.314E-08
DataValue, -1.32, -1.2074E-07
DataValue, -1.28, -2.892E-08
DataValue, -1.24, 5.96226E-08
DataValue, -1.2, 3.17946E-08
DataValue, -1.1600000000000001, 9.706E-08
DataValue, -1.12, 3.0175E-08
DataValue, -1.08, -8.3399999999999992E-08
DataValue, -1.04, 5.494E-08
DataValue, -1, 9.4753999999999989E-09
DataValue, -0.96000000000000008, 8.206E-08
DataValue, -0.92, 2.7554999999999998E-08
DataValue, -0.88, 1.1648E-07
DataValue, -0.84000000000000008, 1.4E-09
DataValue, -0.8, -2.9687799999999997E-08
DataValue, -0.76, -4.5462399999999996E-08
DataValue, -0.72000000000000008, -9.306E-08
DataValue, -0.68, 7.948E-08
DataValue, -0.64, -2.266E-08
DataValue, -0.6, 4.7053999999999992E-08
DataValue, -0.56, 3.4680799999999994E-08
DataValue, -0.52, 8.394E-08
DataValue, -0.48000000000000004, 1.9316999999999997E-08
DataValue, -0.44, 9.658E-08
DataValue, -0.4, -9.508E-08
DataValue, -0.36000000000000004, -3.826E-08
DataValue, -0.32, 5.7366399999999994E-08
DataValue, -0.28, 3.43714E-08
DataValue, -0.24000000000000002, 8.622E-08
DataValue, -0.2, 1.87464E-08
DataValue, -0.16, 8.47E-08
DataValue, -0.12000000000000001, -4.792E-08
DataValue, -0.08, -6.7103999999999995E-09
DataValue, -0.04, -7.85E-08
DataValue, 0, -2.824E-08
DataValue, 0.04, 4.8090199999999993E-08
DataValue, 0.08, 3.50392E-08
DataValue, 0.12000000000000001, 8.314E-08
DataValue, 0.16, 2.0118E-08
DataValue, 0.2, 1.3428E-07
DataValue, 0.24000000000000002, 4.06248E-08
DataValue, 0.28, 8.008E-08
DataValue, 0.32, 2.49464E-08
DataValue, 0.36000000000000004, 1.282E-07
DataValue, 0.4, -1.3432E-07
DataValue, 0.44, -4.5050199999999994E-08
DataValue, 0.48000000000000004, -8.2139999999999993E-08
DataValue, 0.52, -3.9257199999999996E-08
DataValue, 0.56, -7.822E-08
DataValue, 0.6, -2.3065999999999996E-08
DataValue, 0.64, -9.072E-08
DataValue, 0.68, 4.324E-08
DataValue, 0.72000000000000008, 1.9781799999999997E-08
DataValue, 0.76, 8.736E-08
DataValue, 0.8, -4.884E-08
DataValue, 0.84000000000000008, -6.3738E-09
DataValue, 0.88, 3.482E-08
DataValue, 0.92, -5.7254199999999995E-08
DataValue, 0.96000000000000008, -2.0329E-08
DataValue, 1, -8.848E-08
DataValue, 1.04, -9.38E-09
DataValue, 1.08, -4.616E-08
DataValue, 1.12, 1.083E-07
DataValue, 1.1600000000000001, 3.22148E-08
DataValue, 1.2, 8.652E-08
DataValue, 1.24, 2.33638E-08
DataValue, 1.28, 4.4136999999999993E-08
DataValue, 1.32, 3.5351199999999994E-08
DataValue, 1.36, 8.318E-08
DataValue, 1.4000000000000001, 1.492E-08
DataValue, 1.4400000000000002, 4.7599999999999996E-08
DataValue, 1.48, -1.064E-07
DataValue, 1.52, -3.23504E-08
DataValue, 1.56, 3.59388E-08
DataValue, 1.6, 1.408E-07
DataValue, 1.6400000000000001, 2.684E-08
DataValue, 1.6800000000000002, -5.7907999999999992E-08
DataValue, 1.72, -1.854E-08
DataValue, 1.76, -4.4979999999999996E-08
DataValue, 1.8, 1.0914E-07
DataValue, 1.84, 3.20928E-08
DataValue, 1.8800000000000001, 6.256E-08
DataValue, 1.9200000000000002, -1.0814E-07
DataValue, 1.9600000000000002, -5.1740199999999996E-08
DataValue, 2, 2.2090399999999996E-08