
SetupTitle, I/V Sweep
PrimitiveTest, I/V Sweep
TestParameter, Context.MainFrame, B1500A
TestParameter, Channel.UnitType, SMU, SMU, SMU, SMU, SMU
TestParameter, Channel.Unit, SMU1:HP, SMU2:MP, SMU3:MP, SMU4:MP, SMU5:MP
TestParameter, Channel.IName, I, IDD1, IDD2, ISS, IPP
TestParameter, Channel.VName, V, VDD1, VDD2, VSS, VPP
TestParameter, Channel.Mode, V, V, V, V, V
TestParameter, Channel.Func, VAR1, CONST, CONST, CONST, CONST
TestParameter, Channel.Index, 
TestParameter, Channel.Time, 
TestParameter, Measurement.Port.Unit, SMU1:HP, SMU2:MP, SMU3:MP, SMU4:MP, SMU5:MP
TestParameter, Measurement.Port.SeriesResistor, NONE, NONE, NONE, NONE, NONE
TestParameter, Measurement.Port.Filter, ON, ON, ON, ON, ON
TestParameter, Measurement.Port.OutputVoltageComparison, 0, 0, 0, 0, 0
TestParameter, Measurement.Primary.Locus, Single
TestParameter, Measurement.Primary.Scale, LINEAR
TestParameter, Measurement.Primary.Start, -2
TestParameter, Measurement.Primary.Stop, 2
TestParameter, Measurement.Primary.Step, 0.04
TestParameter, Measurement.Primary.Compliance, 0.1
TestParameter, Measurement.Primary.PowerCompliance, 0
TestParameter, Measurement.Aborting.Condition, CONTINUE AT ANY
TestParameter, Measurement.PostOutput.Value, START
TestParameter, Measurement.PostOutput.Retention, OFF
TestParameter, Measurement.Bias.Source, -2, 1.8, 1.1, 0, 0
TestParameter, Measurement.Bias.Compliance, 0.1, 0.1, 0.1, 0.1, 0.1
TestParameter, Measurement.Monitor.Unit, SMU1:HP, SMU2:MP, SMU3:MP, SMU4:MP, SMU5:MP
TestParameter, Measurement.Monitor.Adc, HR ADC, HR ADC, HR ADC, HR ADC, HR ADC
TestParameter, Measurement.Monitor.Measurement, Compliance Side, Compliance Side, Compliance Side, Compliance Side, Compliance Side
TestParameter, Measurement.Monitor.RangingMode, LIMITED, LIMITED, LIMITED, LIMITED, LIMITED
TestParameter, Measurement.Monitor.RangeBoundary, 1nA, 1nA, 1nA, 1nA, 1nA
TestParameter, Measurement.Monitor.RangeRating, BY FULL RANGE, BY FULL RANGE, BY FULL RANGE, BY FULL RANGE, BY FULL RANGE
TestParameter, Measurement.Monitor.RangeRatingCoeff, 50, 50, 50, 50, 50
TestParameter, Measurement.Timing.Hold, 0
TestParameter, Measurement.Timing.Delay, 0
TestParameter, Measurement.Adc.HighSpeed.Mode, AUTO
TestParameter, Measurement.Adc.HighSpeed.Coeff, 1
TestParameter, Measurement.Adc.HighResolution.AutoZero, OFF
TestParameter, Measurement.Adc.HighResolution.Mode, AUTO
TestParameter, Measurement.Adc.HighResolution.Coeff, 6
TestParameter, Measurement.WaitTime.Source.Coeff, 1
TestParameter, Measurement.WaitTime.Source.Offset, 0
TestParameter, Measurement.WaitTime.Monitor.Coeff, 1
TestParameter, Measurement.WaitTime.Monitor.Offset, 0
TestParameter, Output.Graph.Enabled, true
TestParameter, Output.Graph.AutoScaling, false
TestParameter, Output.Graph.XAxis.Data, V
TestParameter, Output.Graph.XAxis.Scale, Linear
TestParameter, Output.Graph.XAxis.Left, -2
TestParameter, Output.Graph.XAxis.Right, 2
TestParameter, Output.Graph.XAxis.RunTimeAutoScale, true
TestParameter, Output.Graph.YAxis.Data, I
TestParameter, Output.Graph.YAxis.Scale, Linear
TestParameter, Output.Graph.YAxis.Bottom, -0.1
TestParameter, Output.Graph.YAxis.Top, 0.1
TestParameter, Output.Graph.YAxis.Group, 
TestParameter, Output.Graph.YAxis.RunTimeAutoScale, true
TestParameter, AutoAnalysis.Interpolation, false
TestParameter, AutoAnalysis.Var2StepCount, 1
TestParameter, AutoAnalysis.Var2StepScript, 
TestParameter, AutoAnalysis.Line1.Enabled, false
TestParameter, AutoAnalysis.Line1.Type, 1
TestParameter, AutoAnalysis.Line1.Fix, True
TestParameter, AutoAnalysis.Line1.YAxis, 0
TestParameter, AutoAnalysis.Line1.Point1.Type, 0
TestParameter, AutoAnalysis.Line1.Point1.XY.X, 
TestParameter, AutoAnalysis.Line1.Point1.XY.Y, 
TestParameter, AutoAnalysis.Line1.Point1.Data.Var, 
TestParameter, AutoAnalysis.Line1.Point1.Data.Condition, 
TestParameter, AutoAnalysis.Line1.Point1.Data.Start, false
TestParameter, AutoAnalysis.Line1.Point1.Data.StartVar, 
TestParameter, AutoAnalysis.Line1.Point1.Data.StartCondition, 
TestParameter, AutoAnalysis.Line1.Point2.Type, 0
TestParameter, AutoAnalysis.Line1.Point2.XY.X, 
TestParameter, AutoAnalysis.Line1.Point2.XY.Y, 
TestParameter, AutoAnalysis.Line1.Point2.Data.Var, 
TestParameter, AutoAnalysis.Line1.Point2.Data.Condition, 
TestParameter, AutoAnalysis.Line1.Point2.Data.Start, false
TestParameter, AutoAnalysis.Line1.Point2.Data.StartVar, 
TestParameter, AutoAnalysis.Line1.Point2.Data.StartCondition, 
TestParameter, AutoAnalysis.Line1.GradientExpr, 0
TestParameter, AutoAnalysis.Line2.Enabled, false
TestParameter, AutoAnalysis.Line2.Type, 1
TestParameter, AutoAnalysis.Line2.Fix, True
TestParameter, AutoAnalysis.Line2.YAxis, 0
TestParameter, AutoAnalysis.Line2.Point1.Type, 0
TestParameter, AutoAnalysis.Line2.Point1.XY.X, 
TestParameter, AutoAnalysis.Line2.Point1.XY.Y, 
TestParameter, AutoAnalysis.Line2.Point1.Data.Var, 
TestParameter, AutoAnalysis.Line2.Point1.Data.Condition, 
TestParameter, AutoAnalysis.Line2.Point1.Data.Start, false
TestParameter, AutoAnalysis.Line2.Point1.Data.StartVar, 
TestParameter, AutoAnalysis.Line2.Point1.Data.StartCondition, 
TestParameter, AutoAnalysis.Line2.Point2.Type, 0
TestParameter, AutoAnalysis.Line2.Point2.XY.X, 
TestParameter, AutoAnalysis.Line2.Point2.XY.Y, 
TestParameter, AutoAnalysis.Line2.Point2.Data.Var, 
TestParameter, AutoAnalysis.Line2.Point2.Data.Condition, 
TestParameter, AutoAnalysis.Line2.Point2.Data.Start, false
TestParameter, AutoAnalysis.Line2.Point2.Data.StartVar, 
TestParameter, AutoAnalysis.Line2.Point2.Data.StartCondition, 
TestParameter, AutoAnalysis.Line2.GradientExpr, 0
TestParameter, AutoAnalysis.Marker.Enabled, false
TestParameter, AutoAnalysis.Marker.Data.Var, 
TestParameter, AutoAnalysis.Marker.Data.Condition, 
TestParameter, AutoAnalysis.Marker.Data.Start, false
TestParameter, AutoAnalysis.Marker.Data.StartVar, 
TestParameter, AutoAnalysis.Marker.Data.StartCondition, 
MetaData, TestRecord.EntryPoint, true
MetaData, TestRecord.RecordTime, 10/19/2022 14:36:23
MetaData, TestRecord.TestTarget, 
MetaData, TestRecord.IterationIndex, 462
MetaData, TestRecord.Preservation, true
MetaData, TestRecord.Flag, 
MetaData, TestRecord.Remarks, 
MetaData, TestRecord.LinkKey, ac382a4a-300b-4c12-b948-4864b11b0cf3
MetaData, TestRecord.Parameters, 
Dimension1, 101, 101
Dimension2, 1, 1
DataName, V, I
DataValue, -2, -0.099994000000000013
DataValue, -1.9600000000000002, -0.097472
DataValue, -1.9200000000000002, -0.094332000000000013
DataValue, -1.8800000000000001, -0.091210000000000013
DataValue, -1.84, -0.088074000000000013
DataValue, -1.8, -0.084934000000000009
DataValue, -1.76, -0.081794
DataValue, -1.72, -0.078642
DataValue, -1.6800000000000002, -0.07548
DataValue, -1.6400000000000001, -0.072312
DataValue, -1.6, -0.069138
DataValue, -1.56, -0.065950000000000009
DataValue, -1.52, -0.062762000000000012
DataValue, -1.48, -0.059568
DataValue, -1.4400000000000002, -0.056376
DataValue, -1.4000000000000001, -0.053198
DataValue, -1.36, -0.050012
DataValue, -1.32, -0.046846000000000006
DataValue, -1.28, -0.043692
DataValue, -1.24, -0.040566000000000005
DataValue, -1.2, -0.037468
DataValue, -1.1600000000000001, -0.0344
DataValue, -1.12, -0.031374000000000006
DataValue, -1.08, -0.028406000000000004
DataValue, -1.04, -0.025496
DataValue, -1, -0.022666000000000002
DataValue, -0.96000000000000008, -0.019912000000000003
DataValue, -0.92, -0.017266
DataValue, -0.88, -0.014758000000000002
DataValue, -0.84000000000000008, -0.012336000000000002
DataValue, -0.8, -0.010090000000000002
DataValue, -0.76, -0.0081272
DataValue, -0.72000000000000008, -0.0061958000000000004
DataValue, -0.68, -0.0045504000000000005
DataValue, -0.64, -0.0032028
DataValue, -0.6, -0.0021514
DataValue, -0.56, -0.0014156
DataValue, -0.52, -0.00093968
DataValue, -0.48000000000000004, -0.00064786
DataValue, -0.44, -0.00044936000000000005
DataValue, -0.4, -0.00030056
DataValue, -0.36000000000000004, -0.00018460000000000002
DataValue, -0.32, -9.7324E-05
DataValue, -0.28, -4.0894E-05
DataValue, -0.24000000000000002, -1.327E-05
DataValue, -0.2, -3.5340000000000004E-06
DataValue, -0.16, -8.3442E-07
DataValue, -0.12000000000000001, -1.8509999999999998E-07
DataValue, -0.08, -3.92402E-08
DataValue, -0.04, -7.3011E-09
DataValue, 0, 8.93E-12
DataValue, 0.04, 3.0977E-09
DataValue, 0.08, 9.178E-09
DataValue, 0.12000000000000001, 3.35118E-08
DataValue, 0.16, 1.3747999999999998E-07
DataValue, 0.2, 5.8324E-07
DataValue, 0.24000000000000002, 2.3624E-06
DataValue, 0.28, 8.443E-06
DataValue, 0.32, 2.0772E-05
DataValue, 0.36000000000000004, 3.931E-05
DataValue, 0.4, 6.2968E-05
DataValue, 0.44, 0.0001518
DataValue, 0.48000000000000004, 0.00014302
DataValue, 0.52, 0.00019134000000000002
DataValue, 0.56, 0.00019932
DataValue, 0.6, 0.00027754
DataValue, 0.64, 0.00043836000000000005
DataValue, 0.68, 0.00069068
DataValue, 0.72000000000000008, 0.00104224
DataValue, 0.76, 0.0015188
DataValue, 0.8, 0.0021432
DataValue, 0.84000000000000008, 0.0029166
DataValue, 0.88, 0.0038202
DataValue, 0.92, 0.0048454
DataValue, 0.96000000000000008, 0.0059802
DataValue, 1, 0.0072094
DataValue, 1.04, 0.008516000000000001
DataValue, 1.08, 0.0098932
DataValue, 1.12, 0.0113268
DataValue, 1.1600000000000001, 0.012810000000000002
DataValue, 1.2, 0.014342
DataValue, 1.24, 0.015912000000000003
DataValue, 1.28, 0.017518000000000002
DataValue, 1.32, 0.019156000000000003
DataValue, 1.36, 0.020828000000000003
DataValue, 1.4000000000000001, 0.022522
DataValue, 1.4400000000000002, 0.024236
DataValue, 1.48, 0.025970000000000003
DataValue, 1.52, 0.02773
DataValue, 1.56, 0.029506
DataValue, 1.6, 0.0313
DataValue, 1.6400000000000001, 0.033104
DataValue, 1.6800000000000002, 0.03492
DataValue, 1.72, 0.036766
DataValue, 1.76, 0.038754000000000004
DataValue, 1.8, 0.040628000000000004
DataValue, 1.84, 0.042496000000000006
DataValue, 1.8800000000000001, 0.044456
DataValue, 1.9200000000000002, 0.046338000000000004
DataValue, 1.9600000000000002, 0.048232000000000004
DataValue, 2, 0.050124