
SetupTitle, I/V Sweep
PrimitiveTest, I/V Sweep
TestParameter, Context.MainFrame, B1500A
TestParameter, Channel.UnitType, SMU, SMU, SMU, SMU, SMU
TestParameter, Channel.Unit, SMU1:HP, SMU2:MP, SMU3:MP, SMU4:MP, SMU5:MP
TestParameter, Channel.IName, I, IDD1, IDD2, ISS, IPP
TestParameter, Channel.VName, V, VDD1, VDD2, VSS, VPP
TestParameter, Channel.Mode, V, V, V, V, V
TestParameter, Channel.Func, VAR1, CONST, CONST, CONST, CONST
TestParameter, Channel.Index, 
TestParameter, Channel.Time, 
TestParameter, Measurement.Port.Unit, SMU1:HP, SMU2:MP, SMU3:MP, SMU4:MP, SMU5:MP
TestParameter, Measurement.Port.SeriesResistor, NONE, NONE, NONE, NONE, NONE
TestParameter, Measurement.Port.Filter, ON, ON, ON, ON, ON
TestParameter, Measurement.Port.OutputVoltageComparison, 0, 0, 0, 0, 0
TestParameter, Measurement.Primary.Locus, Single
TestParameter, Measurement.Primary.Scale, LINEAR
TestParameter, Measurement.Primary.Start, -2
TestParameter, Measurement.Primary.Stop, 2
TestParameter, Measurement.Primary.Step, 0.04
TestParameter, Measurement.Primary.Compliance, 0.1
TestParameter, Measurement.Primary.PowerCompliance, 0
TestParameter, Measurement.Aborting.Condition, CONTINUE AT ANY
TestParameter, Measurement.PostOutput.Value, START
TestParameter, Measurement.PostOutput.Retention, OFF
TestParameter, Measurement.Bias.Source, -2, 1.8, 1.1, 0, 0
TestParameter, Measurement.Bias.Compliance, 0.1, 0.1, 0.1, 0.1, 0.1
TestParameter, Measurement.Monitor.Unit, SMU1:HP, SMU2:MP, SMU3:MP, SMU4:MP, SMU5:MP
TestParameter, Measurement.Monitor.Adc, HR ADC, HR ADC, HR ADC, HR ADC, HR ADC
TestParameter, Measurement.Monitor.Measurement, Compliance Side, Compliance Side, Compliance Side, Compliance Side, Compliance Side
TestParameter, Measurement.Monitor.RangingMode, LIMITED, LIMITED, LIMITED, LIMITED, LIMITED
TestParameter, Measurement.Monitor.RangeBoundary, 1nA, 1nA, 1nA, 1nA, 1nA
TestParameter, Measurement.Monitor.RangeRating, BY FULL RANGE, BY FULL RANGE, BY FULL RANGE, BY FULL RANGE, BY FULL RANGE
TestParameter, Measurement.Monitor.RangeRatingCoeff, 50, 50, 50, 50, 50
TestParameter, Measurement.Timing.Hold, 0
TestParameter, Measurement.Timing.Delay, 0
TestParameter, Measurement.Adc.HighSpeed.Mode, AUTO
TestParameter, Measurement.Adc.HighSpeed.Coeff, 1
TestParameter, Measurement.Adc.HighResolution.AutoZero, OFF
TestParameter, Measurement.Adc.HighResolution.Mode, AUTO
TestParameter, Measurement.Adc.HighResolution.Coeff, 6
TestParameter, Measurement.WaitTime.Source.Coeff, 1
TestParameter, Measurement.WaitTime.Source.Offset, 0
TestParameter, Measurement.WaitTime.Monitor.Coeff, 1
TestParameter, Measurement.WaitTime.Monitor.Offset, 0
TestParameter, Output.Graph.Enabled, true
TestParameter, Output.Graph.AutoScaling, false
TestParameter, Output.Graph.XAxis.Data, V
TestParameter, Output.Graph.XAxis.Scale, Linear
TestParameter, Output.Graph.XAxis.Left, -2
TestParameter, Output.Graph.XAxis.Right, 2
TestParameter, Output.Graph.XAxis.RunTimeAutoScale, true
TestParameter, Output.Graph.YAxis.Data, I
TestParameter, Output.Graph.YAxis.Scale, Linear
TestParameter, Output.Graph.YAxis.Bottom, -0.1
TestParameter, Output.Graph.YAxis.Top, 0.1
TestParameter, Output.Graph.YAxis.Group, 
TestParameter, Output.Graph.YAxis.RunTimeAutoScale, true
TestParameter, AutoAnalysis.Interpolation, false
TestParameter, AutoAnalysis.Var2StepCount, 1
TestParameter, AutoAnalysis.Var2StepScript, 
TestParameter, AutoAnalysis.Line1.Enabled, false
TestParameter, AutoAnalysis.Line1.Type, 1
TestParameter, AutoAnalysis.Line1.Fix, True
TestParameter, AutoAnalysis.Line1.YAxis, 0
TestParameter, AutoAnalysis.Line1.Point1.Type, 0
TestParameter, AutoAnalysis.Line1.Point1.XY.X, 
TestParameter, AutoAnalysis.Line1.Point1.XY.Y, 
TestParameter, AutoAnalysis.Line1.Point1.Data.Var, 
TestParameter, AutoAnalysis.Line1.Point1.Data.Condition, 
TestParameter, AutoAnalysis.Line1.Point1.Data.Start, false
TestParameter, AutoAnalysis.Line1.Point1.Data.StartVar, 
TestParameter, AutoAnalysis.Line1.Point1.Data.StartCondition, 
TestParameter, AutoAnalysis.Line1.Point2.Type, 0
TestParameter, AutoAnalysis.Line1.Point2.XY.X, 
TestParameter, AutoAnalysis.Line1.Point2.XY.Y, 
TestParameter, AutoAnalysis.Line1.Point2.Data.Var, 
TestParameter, AutoAnalysis.Line1.Point2.Data.Condition, 
TestParameter, AutoAnalysis.Line1.Point2.Data.Start, false
TestParameter, AutoAnalysis.Line1.Point2.Data.StartVar, 
TestParameter, AutoAnalysis.Line1.Point2.Data.StartCondition, 
TestParameter, AutoAnalysis.Line1.GradientExpr, 0
TestParameter, AutoAnalysis.Line2.Enabled, false
TestParameter, AutoAnalysis.Line2.Type, 1
TestParameter, AutoAnalysis.Line2.Fix, True
TestParameter, AutoAnalysis.Line2.YAxis, 0
TestParameter, AutoAnalysis.Line2.Point1.Type, 0
TestParameter, AutoAnalysis.Line2.Point1.XY.X, 
TestParameter, AutoAnalysis.Line2.Point1.XY.Y, 
TestParameter, AutoAnalysis.Line2.Point1.Data.Var, 
TestParameter, AutoAnalysis.Line2.Point1.Data.Condition, 
TestParameter, AutoAnalysis.Line2.Point1.Data.Start, false
TestParameter, AutoAnalysis.Line2.Point1.Data.StartVar, 
TestParameter, AutoAnalysis.Line2.Point1.Data.StartCondition, 
TestParameter, AutoAnalysis.Line2.Point2.Type, 0
TestParameter, AutoAnalysis.Line2.Point2.XY.X, 
TestParameter, AutoAnalysis.Line2.Point2.XY.Y, 
TestParameter, AutoAnalysis.Line2.Point2.Data.Var, 
TestParameter, AutoAnalysis.Line2.Point2.Data.Condition, 
TestParameter, AutoAnalysis.Line2.Point2.Data.Start, false
TestParameter, AutoAnalysis.Line2.Point2.Data.StartVar, 
TestParameter, AutoAnalysis.Line2.Point2.Data.StartCondition, 
TestParameter, AutoAnalysis.Line2.GradientExpr, 0
TestParameter, AutoAnalysis.Marker.Enabled, false
TestParameter, AutoAnalysis.Marker.Data.Var, 
TestParameter, AutoAnalysis.Marker.Data.Condition, 
TestParameter, AutoAnalysis.Marker.Data.Start, false
TestParameter, AutoAnalysis.Marker.Data.StartVar, 
TestParameter, AutoAnalysis.Marker.Data.StartCondition, 
MetaData, TestRecord.EntryPoint, true
MetaData, TestRecord.RecordTime, 10/19/2022 14:43:29
MetaData, TestRecord.TestTarget, 
MetaData, TestRecord.IterationIndex, 485
MetaData, TestRecord.Preservation, true
MetaData, TestRecord.Flag, 
MetaData, TestRecord.Remarks, 
MetaData, TestRecord.LinkKey, 9e040fdf-be4e-4097-b8c3-0c5fc3eb785d
MetaData, TestRecord.Parameters, 
Dimension1, 101, 101
Dimension2, 1, 1
DataName, V, I
DataValue, -2, -0.059484
DataValue, -1.9600000000000002, -0.058442000000000008
DataValue, -1.9200000000000002, -0.057408000000000008
DataValue, -1.8800000000000001, -0.056292
DataValue, -1.84, -0.055378000000000004
DataValue, -1.8, -0.054234000000000004
DataValue, -1.76, -0.053142
DataValue, -1.72, -0.051972000000000004
DataValue, -1.6800000000000002, -0.050886000000000008
DataValue, -1.6400000000000001, -0.049754000000000007
DataValue, -1.6, -0.048662000000000004
DataValue, -1.56, -0.047508
DataValue, -1.52, -0.046340000000000006
DataValue, -1.48, -0.045108
DataValue, -1.4400000000000002, -0.043946000000000006
DataValue, -1.4000000000000001, -0.04284
DataValue, -1.36, -0.041678000000000007
DataValue, -1.32, -0.04052
DataValue, -1.28, -0.039290000000000005
DataValue, -1.24, -0.038116000000000004
DataValue, -1.2, -0.036898
DataValue, -1.1600000000000001, -0.035710000000000006
DataValue, -1.12, -0.034530000000000005
DataValue, -1.08, -0.033338
DataValue, -1.04, -0.032132
DataValue, -1, -0.030904000000000004
DataValue, -0.96000000000000008, -0.029706000000000003
DataValue, -0.92, -0.028486
DataValue, -0.88, -0.027282
DataValue, -0.84000000000000008, -0.026062000000000002
DataValue, -0.8, -0.024844
DataValue, -0.76, -0.023622
DataValue, -0.72000000000000008, -0.022392000000000002
DataValue, -0.68, -0.021168000000000003
DataValue, -0.64, -0.019940000000000003
DataValue, -0.6, -0.018714
DataValue, -0.56, -0.017476000000000002
DataValue, -0.52, -0.016244
DataValue, -0.48000000000000004, -0.015004000000000002
DataValue, -0.44, -0.013772000000000001
DataValue, -0.4, -0.012532000000000002
DataValue, -0.36000000000000004, -0.011294
DataValue, -0.32, -0.010048000000000001
DataValue, -0.28, -0.008807800000000001
DataValue, -0.24000000000000002, -0.007556
DataValue, -0.2, -0.006307
DataValue, -0.16, -0.0050508
DataValue, -0.12000000000000001, -0.0037948
DataValue, -0.08, -0.0025332
DataValue, -0.04, -0.0012706
DataValue, 0, -6.5777000000000006E-06
DataValue, 0.04, 0.0012606
DataValue, 0.08, 0.002532
DataValue, 0.12000000000000001, 0.0038016
DataValue, 0.16, 0.0050756
DataValue, 0.2, 0.0063506000000000005
DataValue, 0.24000000000000002, 0.0076282
DataValue, 0.28, 0.008905
DataValue, 0.32, 0.0101844
DataValue, 0.36000000000000004, 0.0114626
DataValue, 0.4, 0.012748
DataValue, 0.44, 0.01403
DataValue, 0.48000000000000004, 0.015304000000000002
DataValue, 0.52, 0.016578000000000002
DataValue, 0.56, 0.017852000000000003
DataValue, 0.6, 0.019126
DataValue, 0.64, 0.020398000000000003
DataValue, 0.68, 0.021664000000000003
DataValue, 0.72000000000000008, 0.022924000000000003
DataValue, 0.76, 0.024192
DataValue, 0.8, 0.025450000000000004
DataValue, 0.84000000000000008, 0.026712000000000003
DataValue, 0.88, 0.027964000000000003
DataValue, 0.92, 0.029220000000000003
DataValue, 0.96000000000000008, 0.03046
DataValue, 1, 0.031708
DataValue, 1.04, 0.032952
DataValue, 1.08, 0.034204000000000005
DataValue, 1.12, 0.035434
DataValue, 1.1600000000000001, 0.036676
DataValue, 1.2, 0.037904
DataValue, 1.24, 0.039162
DataValue, 1.28, 0.040406000000000004
DataValue, 1.32, 0.04166
DataValue, 1.36, 0.042948000000000007
DataValue, 1.4000000000000001, 0.044224000000000006
DataValue, 1.4400000000000002, 0.04556
DataValue, 1.48, 0.046906
DataValue, 1.52, 0.048334
DataValue, 1.56, 0.049694
DataValue, 1.6, 0.051116
DataValue, 1.6400000000000001, 0.052532
DataValue, 1.6800000000000002, 0.054102000000000004
DataValue, 1.72, 0.055540000000000006
DataValue, 1.76, 0.057138000000000008
DataValue, 1.8, 0.058608000000000007
DataValue, 1.84, 0.060072000000000007
DataValue, 1.8800000000000001, 0.061544000000000008
DataValue, 1.9200000000000002, 0.063184
DataValue, 1.9600000000000002, 0.06465
DataValue, 2, 0.066156