
SetupTitle, I/V Sweep
PrimitiveTest, I/V Sweep
TestParameter, Context.MainFrame, B1500A
TestParameter, Channel.UnitType, SMU, SMU, SMU, SMU, SMU
TestParameter, Channel.Unit, SMU1:HP, SMU2:MP, SMU3:MP, SMU4:MP, SMU5:MP
TestParameter, Channel.IName, I, IDD1, IDD2, ISS, IPP
TestParameter, Channel.VName, V, VDD1, VDD2, VSS, VPP
TestParameter, Channel.Mode, V, V, V, V, V
TestParameter, Channel.Func, VAR1, CONST, CONST, CONST, CONST
TestParameter, Channel.Index, 
TestParameter, Channel.Time, 
TestParameter, Measurement.Port.Unit, SMU1:HP, SMU2:MP, SMU3:MP, SMU4:MP, SMU5:MP
TestParameter, Measurement.Port.SeriesResistor, NONE, NONE, NONE, NONE, NONE
TestParameter, Measurement.Port.Filter, ON, ON, ON, ON, ON
TestParameter, Measurement.Port.OutputVoltageComparison, 0, 0, 0, 0, 0
TestParameter, Measurement.Primary.Locus, Single
TestParameter, Measurement.Primary.Scale, LINEAR
TestParameter, Measurement.Primary.Start, -2
TestParameter, Measurement.Primary.Stop, 2
TestParameter, Measurement.Primary.Step, 0.04
TestParameter, Measurement.Primary.Compliance, 0.1
TestParameter, Measurement.Primary.PowerCompliance, 0
TestParameter, Measurement.Aborting.Condition, CONTINUE AT ANY
TestParameter, Measurement.PostOutput.Value, START
TestParameter, Measurement.PostOutput.Retention, OFF
TestParameter, Measurement.Bias.Source, -2, 1.8, 1.1, 0, 0
TestParameter, Measurement.Bias.Compliance, 0.1, 0.1, 0.1, 0.1, 0.1
TestParameter, Measurement.Monitor.Unit, SMU1:HP, SMU2:MP, SMU3:MP, SMU4:MP, SMU5:MP
TestParameter, Measurement.Monitor.Adc, HR ADC, HR ADC, HR ADC, HR ADC, HR ADC
TestParameter, Measurement.Monitor.Measurement, Compliance Side, Compliance Side, Compliance Side, Compliance Side, Compliance Side
TestParameter, Measurement.Monitor.RangingMode, LIMITED, LIMITED, LIMITED, LIMITED, LIMITED
TestParameter, Measurement.Monitor.RangeBoundary, 1nA, 1nA, 1nA, 1nA, 1nA
TestParameter, Measurement.Monitor.RangeRating, BY FULL RANGE, BY FULL RANGE, BY FULL RANGE, BY FULL RANGE, BY FULL RANGE
TestParameter, Measurement.Monitor.RangeRatingCoeff, 50, 50, 50, 50, 50
TestParameter, Measurement.Timing.Hold, 0
TestParameter, Measurement.Timing.Delay, 0
TestParameter, Measurement.Adc.HighSpeed.Mode, AUTO
TestParameter, Measurement.Adc.HighSpeed.Coeff, 1
TestParameter, Measurement.Adc.HighResolution.AutoZero, OFF
TestParameter, Measurement.Adc.HighResolution.Mode, AUTO
TestParameter, Measurement.Adc.HighResolution.Coeff, 6
TestParameter, Measurement.WaitTime.Source.Coeff, 1
TestParameter, Measurement.WaitTime.Source.Offset, 0
TestParameter, Measurement.WaitTime.Monitor.Coeff, 1
TestParameter, Measurement.WaitTime.Monitor.Offset, 0
TestParameter, Output.Graph.Enabled, true
TestParameter, Output.Graph.AutoScaling, false
TestParameter, Output.Graph.XAxis.Data, V
TestParameter, Output.Graph.XAxis.Scale, Linear
TestParameter, Output.Graph.XAxis.Left, -2
TestParameter, Output.Graph.XAxis.Right, 2
TestParameter, Output.Graph.XAxis.RunTimeAutoScale, true
TestParameter, Output.Graph.YAxis.Data, I
TestParameter, Output.Graph.YAxis.Scale, Linear
TestParameter, Output.Graph.YAxis.Bottom, -0.1
TestParameter, Output.Graph.YAxis.Top, 0.1
TestParameter, Output.Graph.YAxis.Group, 
TestParameter, Output.Graph.YAxis.RunTimeAutoScale, true
TestParameter, AutoAnalysis.Interpolation, false
TestParameter, AutoAnalysis.Var2StepCount, 1
TestParameter, AutoAnalysis.Var2StepScript, 
TestParameter, AutoAnalysis.Line1.Enabled, false
TestParameter, AutoAnalysis.Line1.Type, 1
TestParameter, AutoAnalysis.Line1.Fix, True
TestParameter, AutoAnalysis.Line1.YAxis, 0
TestParameter, AutoAnalysis.Line1.Point1.Type, 0
TestParameter, AutoAnalysis.Line1.Point1.XY.X, 
TestParameter, AutoAnalysis.Line1.Point1.XY.Y, 
TestParameter, AutoAnalysis.Line1.Point1.Data.Var, 
TestParameter, AutoAnalysis.Line1.Point1.Data.Condition, 
TestParameter, AutoAnalysis.Line1.Point1.Data.Start, false
TestParameter, AutoAnalysis.Line1.Point1.Data.StartVar, 
TestParameter, AutoAnalysis.Line1.Point1.Data.StartCondition, 
TestParameter, AutoAnalysis.Line1.Point2.Type, 0
TestParameter, AutoAnalysis.Line1.Point2.XY.X, 
TestParameter, AutoAnalysis.Line1.Point2.XY.Y, 
TestParameter, AutoAnalysis.Line1.Point2.Data.Var, 
TestParameter, AutoAnalysis.Line1.Point2.Data.Condition, 
TestParameter, AutoAnalysis.Line1.Point2.Data.Start, false
TestParameter, AutoAnalysis.Line1.Point2.Data.StartVar, 
TestParameter, AutoAnalysis.Line1.Point2.Data.StartCondition, 
TestParameter, AutoAnalysis.Line1.GradientExpr, 0
TestParameter, AutoAnalysis.Line2.Enabled, false
TestParameter, AutoAnalysis.Line2.Type, 1
TestParameter, AutoAnalysis.Line2.Fix, True
TestParameter, AutoAnalysis.Line2.YAxis, 0
TestParameter, AutoAnalysis.Line2.Point1.Type, 0
TestParameter, AutoAnalysis.Line2.Point1.XY.X, 
TestParameter, AutoAnalysis.Line2.Point1.XY.Y, 
TestParameter, AutoAnalysis.Line2.Point1.Data.Var, 
TestParameter, AutoAnalysis.Line2.Point1.Data.Condition, 
TestParameter, AutoAnalysis.Line2.Point1.Data.Start, false
TestParameter, AutoAnalysis.Line2.Point1.Data.StartVar, 
TestParameter, AutoAnalysis.Line2.Point1.Data.StartCondition, 
TestParameter, AutoAnalysis.Line2.Point2.Type, 0
TestParameter, AutoAnalysis.Line2.Point2.XY.X, 
TestParameter, AutoAnalysis.Line2.Point2.XY.Y, 
TestParameter, AutoAnalysis.Line2.Point2.Data.Var, 
TestParameter, AutoAnalysis.Line2.Point2.Data.Condition, 
TestParameter, AutoAnalysis.Line2.Point2.Data.Start, false
TestParameter, AutoAnalysis.Line2.Point2.Data.StartVar, 
TestParameter, AutoAnalysis.Line2.Point2.Data.StartCondition, 
TestParameter, AutoAnalysis.Line2.GradientExpr, 0
TestParameter, AutoAnalysis.Marker.Enabled, false
TestParameter, AutoAnalysis.Marker.Data.Var, 
TestParameter, AutoAnalysis.Marker.Data.Condition, 
TestParameter, AutoAnalysis.Marker.Data.Start, false
TestParameter, AutoAnalysis.Marker.Data.StartVar, 
TestParameter, AutoAnalysis.Marker.Data.StartCondition, 
MetaData, TestRecord.EntryPoint, true
MetaData, TestRecord.RecordTime, 10/19/2022 14:44:15
MetaData, TestRecord.TestTarget, 
MetaData, TestRecord.IterationIndex, 487
MetaData, TestRecord.Preservation, true
MetaData, TestRecord.Flag, 
MetaData, TestRecord.Remarks, 
MetaData, TestRecord.LinkKey, 07bed568-0648-45b3-a3f2-3e9773a087af
MetaData, TestRecord.Parameters, 
Dimension1, 101, 101
Dimension2, 1, 1
DataName, V, I
DataValue, -2, -0.040062
DataValue, -1.9600000000000002, -0.039252
DataValue, -1.9200000000000002, -0.038592
DataValue, -1.8800000000000001, -0.03815
DataValue, -1.84, -0.037426
DataValue, -1.8, -0.036566
DataValue, -1.76, -0.035570000000000004
DataValue, -1.72, -0.034534
DataValue, -1.6800000000000002, -0.03359
DataValue, -1.6400000000000001, -0.03275
DataValue, -1.6, -0.031914000000000005
DataValue, -1.56, -0.031062000000000003
DataValue, -1.52, -0.030194000000000002
DataValue, -1.48, -0.029322
DataValue, -1.4400000000000002, -0.028444000000000004
DataValue, -1.4000000000000001, -0.027556000000000004
DataValue, -1.36, -0.026656000000000003
DataValue, -1.32, -0.02576
DataValue, -1.28, -0.024842000000000003
DataValue, -1.24, -0.023926000000000003
DataValue, -1.2, -0.022994
DataValue, -1.1600000000000001, -0.022060000000000003
DataValue, -1.12, -0.021122000000000002
DataValue, -1.08, -0.020178
DataValue, -1.04, -0.01923
DataValue, -1, -0.018276
DataValue, -0.96000000000000008, -0.017326
DataValue, -0.92, -0.016366000000000002
DataValue, -0.88, -0.015410000000000002
DataValue, -0.84000000000000008, -0.014452000000000001
DataValue, -0.8, -0.013490000000000002
DataValue, -0.76, -0.012536
DataValue, -0.72000000000000008, -0.011576000000000001
DataValue, -0.68, -0.01063
DataValue, -0.64, -0.0096906
DataValue, -0.6, -0.008753
DataValue, -0.56, -0.0078288
DataValue, -0.52, -0.0069144
DataValue, -0.48000000000000004, -0.0060172
DataValue, -0.44, -0.0051412
DataValue, -0.4, -0.0042912
DataValue, -0.36000000000000004, -0.0034748
DataValue, -0.32, -0.0027024
DataValue, -0.28, -0.0019868
DataValue, -0.24000000000000002, -0.0013486
DataValue, -0.2, -0.00081750000000000008
DataValue, -0.16, -0.00042388
DataValue, -0.12000000000000001, -0.00018666
DataValue, -0.08, -7.3364E-05
DataValue, -0.04, -2.2232E-05
DataValue, 0, 8.8123199999999985E-08
DataValue, 0.04, 1.0732E-05
DataValue, 0.08, 1.7436E-05
DataValue, 0.12000000000000001, 2.487E-05
DataValue, 0.16, 3.6848000000000004E-05
DataValue, 0.2, 5.9452E-05
DataValue, 0.24000000000000002, 9.404400000000001E-05
DataValue, 0.28, 0.00011080000000000001
DataValue, 0.32, 0.00013948
DataValue, 0.36000000000000004, 0.00020308000000000001
DataValue, 0.4, 0.00029076000000000004
DataValue, 0.44, 0.00041368000000000004
DataValue, 0.48000000000000004, 0.00058264
DataValue, 0.52, 0.00080904
DataValue, 0.56, 0.0010992200000000001
DataValue, 0.6, 0.0014584
DataValue, 0.64, 0.0018808
DataValue, 0.68, 0.0023502
DataValue, 0.72000000000000008, 0.002906
DataValue, 0.76, 0.0035396
DataValue, 0.8, 0.0042508
DataValue, 0.84000000000000008, 0.005031
DataValue, 0.88, 0.0058716
DataValue, 0.92, 0.0067622
DataValue, 0.96000000000000008, 0.0076982000000000005
DataValue, 1, 0.008667600000000001
DataValue, 1.04, 0.0096692000000000011
DataValue, 1.08, 0.0106896
DataValue, 1.12, 0.011734000000000001
DataValue, 1.1600000000000001, 0.012792000000000001
DataValue, 1.2, 0.013862000000000001
DataValue, 1.24, 0.014928000000000002
DataValue, 1.28, 0.016004
DataValue, 1.32, 0.017098000000000002
DataValue, 1.36, 0.018216000000000003
DataValue, 1.4000000000000001, 0.019308000000000002
DataValue, 1.4400000000000002, 0.0204
DataValue, 1.48, 0.021498000000000003
DataValue, 1.52, 0.022612000000000004
DataValue, 1.56, 0.023778
DataValue, 1.6, 0.024886000000000002
DataValue, 1.6400000000000001, 0.02602
DataValue, 1.6800000000000002, 0.026828
DataValue, 1.72, 0.028148000000000003
DataValue, 1.76, 0.029618000000000002
DataValue, 1.8, 0.030904000000000004
DataValue, 1.84, 0.032238
DataValue, 1.8800000000000001, 0.033216
DataValue, 1.9200000000000002, 0.034082
DataValue, 1.9600000000000002, 0.035082
DataValue, 2, 0.035152