
SetupTitle, I/V Sweep
PrimitiveTest, I/V Sweep
TestParameter, Context.MainFrame, B1500A
TestParameter, Channel.UnitType, SMU, SMU, SMU, SMU, SMU
TestParameter, Channel.Unit, SMU1:HP, SMU2:MP, SMU3:MP, SMU4:MP, SMU5:MP
TestParameter, Channel.IName, I, IDD1, IDD2, ISS, IPP
TestParameter, Channel.VName, V, VDD1, VDD2, VSS, VPP
TestParameter, Channel.Mode, V, V, V, V, V
TestParameter, Channel.Func, CONST, VAR1, CONST, CONST, CONST
TestParameter, Channel.Index, 
TestParameter, Channel.Time, 
TestParameter, Measurement.Port.Unit, SMU1:HP, SMU2:MP, SMU3:MP, SMU4:MP, SMU5:MP
TestParameter, Measurement.Port.SeriesResistor, NONE, NONE, NONE, NONE, NONE
TestParameter, Measurement.Port.Filter, ON, ON, ON, ON, ON
TestParameter, Measurement.Port.OutputVoltageComparison, 0, 0, 0, 0, 0
TestParameter, Measurement.Primary.Locus, Single
TestParameter, Measurement.Primary.Scale, LINEAR
TestParameter, Measurement.Primary.Start, -2
TestParameter, Measurement.Primary.Stop, 2
TestParameter, Measurement.Primary.Step, 0.04
TestParameter, Measurement.Primary.Compliance, 0.1
TestParameter, Measurement.Primary.PowerCompliance, 0
TestParameter, Measurement.Aborting.Condition, CONTINUE AT ANY
TestParameter, Measurement.PostOutput.Value, START
TestParameter, Measurement.PostOutput.Retention, OFF
TestParameter, Measurement.Bias.Source, 0, -2, 0, 0, 0
TestParameter, Measurement.Bias.Compliance, 0.1, 0.1, 0.1, 0.1, 0.1
TestParameter, Measurement.Monitor.Unit, SMU1:HP, SMU2:MP, SMU3:MP, SMU4:MP, SMU5:MP
TestParameter, Measurement.Monitor.Adc, HR ADC, HR ADC, HR ADC, HR ADC, HR ADC
TestParameter, Measurement.Monitor.Measurement, Compliance Side, Compliance Side, Compliance Side, Compliance Side, Compliance Side
TestParameter, Measurement.Monitor.RangingMode, LIMITED, LIMITED, LIMITED, LIMITED, LIMITED
TestParameter, Measurement.Monitor.RangeBoundary, 1nA, 1nA, 1nA, 1nA, 1nA
TestParameter, Measurement.Monitor.RangeRating, BY FULL RANGE, BY FULL RANGE, BY FULL RANGE, BY FULL RANGE, BY FULL RANGE
TestParameter, Measurement.Monitor.RangeRatingCoeff, 50, 50, 50, 50, 50
TestParameter, Measurement.Timing.Hold, 0
TestParameter, Measurement.Timing.Delay, 0
TestParameter, Measurement.Adc.HighSpeed.Mode, AUTO
TestParameter, Measurement.Adc.HighSpeed.Coeff, 1
TestParameter, Measurement.Adc.HighResolution.AutoZero, OFF
TestParameter, Measurement.Adc.HighResolution.Mode, AUTO
TestParameter, Measurement.Adc.HighResolution.Coeff, 6
TestParameter, Measurement.WaitTime.Source.Coeff, 1
TestParameter, Measurement.WaitTime.Source.Offset, 0
TestParameter, Measurement.WaitTime.Monitor.Coeff, 1
TestParameter, Measurement.WaitTime.Monitor.Offset, 0
TestParameter, Output.Graph.Enabled, true
TestParameter, Output.Graph.AutoScaling, false
TestParameter, Output.Graph.XAxis.Data, VDD1
TestParameter, Output.Graph.XAxis.Scale, Linear
TestParameter, Output.Graph.XAxis.Left, -2
TestParameter, Output.Graph.XAxis.Right, 2
TestParameter, Output.Graph.XAxis.RunTimeAutoScale, true
TestParameter, Output.Graph.YAxis.Data, IDD1
TestParameter, Output.Graph.YAxis.Scale, Linear
TestParameter, Output.Graph.YAxis.Bottom, -0.1
TestParameter, Output.Graph.YAxis.Top, 0.1
TestParameter, Output.Graph.YAxis.Group, 
TestParameter, Output.Graph.YAxis.RunTimeAutoScale, true
TestParameter, AutoAnalysis.Interpolation, false
TestParameter, AutoAnalysis.Var2StepCount, 1
TestParameter, AutoAnalysis.Var2StepScript, 
TestParameter, AutoAnalysis.Line1.Enabled, false
TestParameter, AutoAnalysis.Line1.Type, 1
TestParameter, AutoAnalysis.Line1.Fix, True
TestParameter, AutoAnalysis.Line1.YAxis, 0
TestParameter, AutoAnalysis.Line1.Point1.Type, 0
TestParameter, AutoAnalysis.Line1.Point1.XY.X, 
TestParameter, AutoAnalysis.Line1.Point1.XY.Y, 
TestParameter, AutoAnalysis.Line1.Point1.Data.Var, 
TestParameter, AutoAnalysis.Line1.Point1.Data.Condition, 
TestParameter, AutoAnalysis.Line1.Point1.Data.Start, false
TestParameter, AutoAnalysis.Line1.Point1.Data.StartVar, 
TestParameter, AutoAnalysis.Line1.Point1.Data.StartCondition, 
TestParameter, AutoAnalysis.Line1.Point2.Type, 0
TestParameter, AutoAnalysis.Line1.Point2.XY.X, 
TestParameter, AutoAnalysis.Line1.Point2.XY.Y, 
TestParameter, AutoAnalysis.Line1.Point2.Data.Var, 
TestParameter, AutoAnalysis.Line1.Point2.Data.Condition, 
TestParameter, AutoAnalysis.Line1.Point2.Data.Start, false
TestParameter, AutoAnalysis.Line1.Point2.Data.StartVar, 
TestParameter, AutoAnalysis.Line1.Point2.Data.StartCondition, 
TestParameter, AutoAnalysis.Line1.GradientExpr, 0
TestParameter, AutoAnalysis.Line2.Enabled, false
TestParameter, AutoAnalysis.Line2.Type, 1
TestParameter, AutoAnalysis.Line2.Fix, True
TestParameter, AutoAnalysis.Line2.YAxis, 0
TestParameter, AutoAnalysis.Line2.Point1.Type, 0
TestParameter, AutoAnalysis.Line2.Point1.XY.X, 
TestParameter, AutoAnalysis.Line2.Point1.XY.Y, 
TestParameter, AutoAnalysis.Line2.Point1.Data.Var, 
TestParameter, AutoAnalysis.Line2.Point1.Data.Condition, 
TestParameter, AutoAnalysis.Line2.Point1.Data.Start, false
TestParameter, AutoAnalysis.Line2.Point1.Data.StartVar, 
TestParameter, AutoAnalysis.Line2.Point1.Data.StartCondition, 
TestParameter, AutoAnalysis.Line2.Point2.Type, 0
TestParameter, AutoAnalysis.Line2.Point2.XY.X, 
TestParameter, AutoAnalysis.Line2.Point2.XY.Y, 
TestParameter, AutoAnalysis.Line2.Point2.Data.Var, 
TestParameter, AutoAnalysis.Line2.Point2.Data.Condition, 
TestParameter, AutoAnalysis.Line2.Point2.Data.Start, false
TestParameter, AutoAnalysis.Line2.Point2.Data.StartVar, 
TestParameter, AutoAnalysis.Line2.Point2.Data.StartCondition, 
TestParameter, AutoAnalysis.Line2.GradientExpr, 0
TestParameter, AutoAnalysis.Marker.Enabled, false
TestParameter, AutoAnalysis.Marker.Data.Var, 
TestParameter, AutoAnalysis.Marker.Data.Condition, 
TestParameter, AutoAnalysis.Marker.Data.Start, false
TestParameter, AutoAnalysis.Marker.Data.StartVar, 
TestParameter, AutoAnalysis.Marker.Data.StartCondition, 
MetaData, TestRecord.EntryPoint, true
MetaData, TestRecord.RecordTime, 10/19/2022 13:14:49
MetaData, TestRecord.TestTarget, 
MetaData, TestRecord.IterationIndex, 265
MetaData, TestRecord.Preservation, true
MetaData, TestRecord.Flag, 
MetaData, TestRecord.Remarks, 
MetaData, TestRecord.LinkKey, fbf5299c-ace4-4934-b77e-a4580a30fa9a
MetaData, TestRecord.Parameters, 
Dimension1, 101, 101
Dimension2, 1, 1
DataName, VDD1, IDD1
DataValue, -2, -0.0056074
DataValue, -1.9600000000000002, -0.0053304
DataValue, -1.9200000000000002, -0.0050618
DataValue, -1.8800000000000001, -0.004803
DataValue, -1.84, -0.0045522
DataValue, -1.8, -0.0043102
DataValue, -1.76, -0.0040764
DataValue, -1.72, -0.0038514
DataValue, -1.6800000000000002, -0.0036346
DataValue, -1.6400000000000001, -0.0034260000000000002
DataValue, -1.6, -0.0032256
DataValue, -1.56, -0.0030310000000000003
DataValue, -1.52, -0.002846
DataValue, -1.48, -0.0026674
DataValue, -1.4400000000000002, -0.0024956
DataValue, -1.4000000000000001, -0.0023302
DataValue, -1.36, -0.0021696000000000003
DataValue, -1.32, -0.0020134000000000003
DataValue, -1.28, -0.0018606
DataValue, -1.24, -0.0017102
DataValue, -1.2, -0.0015616
DataValue, -1.1600000000000001, -0.0014148000000000001
DataValue, -1.12, -0.00127
DataValue, -1.08, -0.0011266
DataValue, -1.04, -0.00098656
DataValue, -1, -0.00084764000000000009
DataValue, -0.96000000000000008, -0.00071238000000000009
DataValue, -0.92, -0.00058134000000000007
DataValue, -0.88, -0.00045660000000000004
DataValue, -0.84000000000000008, -0.00033968000000000003
DataValue, -0.8, -0.00023414
DataValue, -0.76, -0.0001449
DataValue, -0.72000000000000008, -7.6314E-05
DataValue, -0.68, -3.2002E-05
DataValue, -0.64, -1.0698E-05
DataValue, -0.6, -3.4887E-06
DataValue, -0.56, -1.2176000000000002E-06
DataValue, -0.52, -3.88E-07
DataValue, -0.48000000000000004, -1.7138E-07
DataValue, -0.44, -7.9935599999999987E-08
DataValue, -0.4, -3.7034999999999994E-08
DataValue, -0.36000000000000004, -2.0949799999999998E-08
DataValue, -0.32, -1.5582199999999998E-08
DataValue, -0.28, -1.2681999999999999E-08
DataValue, -0.24000000000000002, -1.1576399999999999E-08
DataValue, -0.2, -8.3577999999999986E-09
DataValue, -0.16, -7.0945999999999991E-09
DataValue, -0.12000000000000001, 5.4857E-09
DataValue, -0.08, 6.1194E-09
DataValue, -0.04, 1.3866E-09
DataValue, 0, 4.6968E-09
DataValue, 0.04, 1.4290999999999999E-08
DataValue, 0.08, 2.52658E-08
DataValue, 0.12000000000000001, 9.40184E-08
DataValue, 0.16, 3.029E-07
DataValue, 0.2, 1.1147E-06
DataValue, 0.24000000000000002, 4.0154000000000006E-06
DataValue, 0.28, 1.2366E-05
DataValue, 0.32, 3.3652E-05
DataValue, 0.36000000000000004, 7.5094E-05
DataValue, 0.4, 0.0001418
DataValue, 0.44, 0.0002345
DataValue, 0.48000000000000004, 0.00035108000000000003
DataValue, 0.52, 0.00048894
DataValue, 0.56, 0.00064526
DataValue, 0.6, 0.00081668000000000008
DataValue, 0.64, 0.0010001
DataValue, 0.68, 0.0011894
DataValue, 0.72000000000000008, 0.0013914
DataValue, 0.76, 0.0016024000000000001
DataValue, 0.8, 0.0018216
DataValue, 0.84000000000000008, 0.00205
DataValue, 0.88, 0.0022890000000000002
DataValue, 0.92, 0.0025382
DataValue, 0.96000000000000008, 0.0028016
DataValue, 1, 0.0030784000000000002
DataValue, 1.04, 0.0033748000000000003
DataValue, 1.08, 0.0036854
DataValue, 1.12, 0.0040134
DataValue, 1.1600000000000001, 0.0043534
DataValue, 1.2, 0.0047112000000000005
DataValue, 1.24, 0.0050778
DataValue, 1.28, 0.0054492
DataValue, 1.32, 0.0058214
DataValue, 1.36, 0.00621
DataValue, 1.4000000000000001, 0.0065942
DataValue, 1.4400000000000002, 0.0069864
DataValue, 1.48, 0.0073744000000000006
DataValue, 1.52, 0.0077692
DataValue, 1.56, 0.008164
DataValue, 1.6, 0.0085564
DataValue, 1.6400000000000001, 0.0089506
DataValue, 1.6800000000000002, 0.0093468
DataValue, 1.72, 0.0097442
DataValue, 1.76, 0.010138
DataValue, 1.8, 0.0105316
DataValue, 1.84, 0.010928
DataValue, 1.8800000000000001, 0.0113286
DataValue, 1.9200000000000002, 0.011766
DataValue, 1.9600000000000002, 0.012206000000000002
DataValue, 2, 0.012592