
SetupTitle, I/V Sweep
PrimitiveTest, I/V Sweep
TestParameter, Context.MainFrame, B1500A
TestParameter, Channel.UnitType, SMU, SMU, SMU, SMU, SMU
TestParameter, Channel.Unit, SMU1:HP, SMU2:MP, SMU3:MP, SMU4:MP, SMU5:MP
TestParameter, Channel.IName, I, IDD1, IDD2, ISS, IPP
TestParameter, Channel.VName, V, VDD1, VDD2, VSS, VPP
TestParameter, Channel.Mode, V, V, V, V, V
TestParameter, Channel.Func, VAR1, CONST, CONST, CONST, CONST
TestParameter, Channel.Index, 
TestParameter, Channel.Time, 
TestParameter, Measurement.Port.Unit, SMU1:HP, SMU2:MP, SMU3:MP, SMU4:MP, SMU5:MP
TestParameter, Measurement.Port.SeriesResistor, NONE, NONE, NONE, NONE, NONE
TestParameter, Measurement.Port.Filter, ON, ON, ON, ON, ON
TestParameter, Measurement.Port.OutputVoltageComparison, 0, 0, 0, 0, 0
TestParameter, Measurement.Primary.Locus, Single
TestParameter, Measurement.Primary.Scale, LINEAR
TestParameter, Measurement.Primary.Start, -2
TestParameter, Measurement.Primary.Stop, 2
TestParameter, Measurement.Primary.Step, 0.04
TestParameter, Measurement.Primary.Compliance, 0.1
TestParameter, Measurement.Primary.PowerCompliance, 0
TestParameter, Measurement.Aborting.Condition, CONTINUE AT ANY
TestParameter, Measurement.PostOutput.Value, START
TestParameter, Measurement.PostOutput.Retention, OFF
TestParameter, Measurement.Bias.Source, -2, 1.8, 1.1, 0, 0
TestParameter, Measurement.Bias.Compliance, 0.1, 0.1, 0.1, 0.1, 0.1
TestParameter, Measurement.Monitor.Unit, SMU1:HP, SMU2:MP, SMU3:MP, SMU4:MP, SMU5:MP
TestParameter, Measurement.Monitor.Adc, HR ADC, HR ADC, HR ADC, HR ADC, HR ADC
TestParameter, Measurement.Monitor.Measurement, Compliance Side, Compliance Side, Compliance Side, Compliance Side, Compliance Side
TestParameter, Measurement.Monitor.RangingMode, LIMITED, LIMITED, LIMITED, LIMITED, LIMITED
TestParameter, Measurement.Monitor.RangeBoundary, 1nA, 1nA, 1nA, 1nA, 1nA
TestParameter, Measurement.Monitor.RangeRating, BY FULL RANGE, BY FULL RANGE, BY FULL RANGE, BY FULL RANGE, BY FULL RANGE
TestParameter, Measurement.Monitor.RangeRatingCoeff, 50, 50, 50, 50, 50
TestParameter, Measurement.Timing.Hold, 0
TestParameter, Measurement.Timing.Delay, 0
TestParameter, Measurement.Adc.HighSpeed.Mode, AUTO
TestParameter, Measurement.Adc.HighSpeed.Coeff, 1
TestParameter, Measurement.Adc.HighResolution.AutoZero, OFF
TestParameter, Measurement.Adc.HighResolution.Mode, AUTO
TestParameter, Measurement.Adc.HighResolution.Coeff, 6
TestParameter, Measurement.WaitTime.Source.Coeff, 1
TestParameter, Measurement.WaitTime.Source.Offset, 0
TestParameter, Measurement.WaitTime.Monitor.Coeff, 1
TestParameter, Measurement.WaitTime.Monitor.Offset, 0
TestParameter, Output.Graph.Enabled, true
TestParameter, Output.Graph.AutoScaling, false
TestParameter, Output.Graph.XAxis.Data, V
TestParameter, Output.Graph.XAxis.Scale, Linear
TestParameter, Output.Graph.XAxis.Left, -2
TestParameter, Output.Graph.XAxis.Right, 2
TestParameter, Output.Graph.XAxis.RunTimeAutoScale, true
TestParameter, Output.Graph.YAxis.Data, I
TestParameter, Output.Graph.YAxis.Scale, Linear
TestParameter, Output.Graph.YAxis.Bottom, -0.1
TestParameter, Output.Graph.YAxis.Top, 0.1
TestParameter, Output.Graph.YAxis.Group, 
TestParameter, Output.Graph.YAxis.RunTimeAutoScale, true
TestParameter, AutoAnalysis.Interpolation, false
TestParameter, AutoAnalysis.Var2StepCount, 1
TestParameter, AutoAnalysis.Var2StepScript, 
TestParameter, AutoAnalysis.Line1.Enabled, false
TestParameter, AutoAnalysis.Line1.Type, 1
TestParameter, AutoAnalysis.Line1.Fix, True
TestParameter, AutoAnalysis.Line1.YAxis, 0
TestParameter, AutoAnalysis.Line1.Point1.Type, 0
TestParameter, AutoAnalysis.Line1.Point1.XY.X, 
TestParameter, AutoAnalysis.Line1.Point1.XY.Y, 
TestParameter, AutoAnalysis.Line1.Point1.Data.Var, 
TestParameter, AutoAnalysis.Line1.Point1.Data.Condition, 
TestParameter, AutoAnalysis.Line1.Point1.Data.Start, false
TestParameter, AutoAnalysis.Line1.Point1.Data.StartVar, 
TestParameter, AutoAnalysis.Line1.Point1.Data.StartCondition, 
TestParameter, AutoAnalysis.Line1.Point2.Type, 0
TestParameter, AutoAnalysis.Line1.Point2.XY.X, 
TestParameter, AutoAnalysis.Line1.Point2.XY.Y, 
TestParameter, AutoAnalysis.Line1.Point2.Data.Var, 
TestParameter, AutoAnalysis.Line1.Point2.Data.Condition, 
TestParameter, AutoAnalysis.Line1.Point2.Data.Start, false
TestParameter, AutoAnalysis.Line1.Point2.Data.StartVar, 
TestParameter, AutoAnalysis.Line1.Point2.Data.StartCondition, 
TestParameter, AutoAnalysis.Line1.GradientExpr, 0
TestParameter, AutoAnalysis.Line2.Enabled, false
TestParameter, AutoAnalysis.Line2.Type, 1
TestParameter, AutoAnalysis.Line2.Fix, True
TestParameter, AutoAnalysis.Line2.YAxis, 0
TestParameter, AutoAnalysis.Line2.Point1.Type, 0
TestParameter, AutoAnalysis.Line2.Point1.XY.X, 
TestParameter, AutoAnalysis.Line2.Point1.XY.Y, 
TestParameter, AutoAnalysis.Line2.Point1.Data.Var, 
TestParameter, AutoAnalysis.Line2.Point1.Data.Condition, 
TestParameter, AutoAnalysis.Line2.Point1.Data.Start, false
TestParameter, AutoAnalysis.Line2.Point1.Data.StartVar, 
TestParameter, AutoAnalysis.Line2.Point1.Data.StartCondition, 
TestParameter, AutoAnalysis.Line2.Point2.Type, 0
TestParameter, AutoAnalysis.Line2.Point2.XY.X, 
TestParameter, AutoAnalysis.Line2.Point2.XY.Y, 
TestParameter, AutoAnalysis.Line2.Point2.Data.Var, 
TestParameter, AutoAnalysis.Line2.Point2.Data.Condition, 
TestParameter, AutoAnalysis.Line2.Point2.Data.Start, false
TestParameter, AutoAnalysis.Line2.Point2.Data.StartVar, 
TestParameter, AutoAnalysis.Line2.Point2.Data.StartCondition, 
TestParameter, AutoAnalysis.Line2.GradientExpr, 0
TestParameter, AutoAnalysis.Marker.Enabled, false
TestParameter, AutoAnalysis.Marker.Data.Var, 
TestParameter, AutoAnalysis.Marker.Data.Condition, 
TestParameter, AutoAnalysis.Marker.Data.Start, false
TestParameter, AutoAnalysis.Marker.Data.StartVar, 
TestParameter, AutoAnalysis.Marker.Data.StartCondition, 
MetaData, TestRecord.EntryPoint, true
MetaData, TestRecord.RecordTime, 10/19/2022 13:27:42
MetaData, TestRecord.TestTarget, 
MetaData, TestRecord.IterationIndex, 288
MetaData, TestRecord.Preservation, true
MetaData, TestRecord.Flag, 
MetaData, TestRecord.Remarks, 
MetaData, TestRecord.LinkKey, 0dd75d5b-bb94-432e-886a-87c88978d235
MetaData, TestRecord.Parameters, 
Dimension1, 101, 101
Dimension2, 1, 1
DataName, V, I
DataValue, -2, 4.17436E-08
DataValue, -1.9600000000000002, -3.4842599999999995E-08
DataValue, -1.9200000000000002, 2.15384E-08
DataValue, -1.8800000000000001, -7.423399999999999E-09
DataValue, -1.84, -2.2179999999999997E-10
DataValue, -1.8, 8.5382E-09
DataValue, -1.76, -6.2528E-09
DataValue, -1.72, 1.4892199999999998E-08
DataValue, -1.6800000000000002, -2.70652E-08
DataValue, -1.6400000000000001, 2.8009199999999997E-08
DataValue, -1.6, -4.2461199999999996E-08
DataValue, -1.56, 4.6603E-08
DataValue, -1.52, -4.8850199999999995E-08
DataValue, -1.48, 5.0709399999999996E-08
DataValue, -1.4400000000000002, -5.13906E-08
DataValue, -1.4000000000000001, 4.7865799999999996E-08
DataValue, -1.36, -3.88736E-08
DataValue, -1.32, 1.62326E-08
DataValue, -1.28, -1.97866E-08
DataValue, -1.24, -8.692E-10
DataValue, -1.2, 1.17642E-08
DataValue, -1.1600000000000001, -2.41666E-08
DataValue, -1.12, 3.8950599999999994E-08
DataValue, -1.08, -4.7194399999999994E-08
DataValue, -1.04, 4.81352E-08
DataValue, -1, -5.0565599999999996E-08
DataValue, -0.96000000000000008, 4.9807799999999994E-08
DataValue, -0.92, -5.0379999999999992E-08
DataValue, -0.88, 5.0836999999999994E-08
DataValue, -0.84000000000000008, -4.5488E-08
DataValue, -0.8, 3.7677599999999993E-08
DataValue, -0.76, -2.7770799999999997E-08
DataValue, -0.72000000000000008, 1.2147199999999999E-08
DataValue, -0.68, -1.137E-09
DataValue, -0.64, -9.0485999999999987E-09
DataValue, -0.6, 1.8664599999999997E-08
DataValue, -0.56, -3.14568E-08
DataValue, -0.52, 4.80236E-08
DataValue, -0.48000000000000004, -4.7938199999999993E-08
DataValue, -0.44, 4.7586599999999993E-08
DataValue, -0.4, -4.7983399999999995E-08
DataValue, -0.36000000000000004, 4.9208999999999994E-08
DataValue, -0.32, -5.0476599999999994E-08
DataValue, -0.28, 5.1634999999999992E-08
DataValue, -0.24000000000000002, -4.7105599999999997E-08
DataValue, -0.2, 3.8288399999999994E-08
DataValue, -0.16, -2.8448399999999996E-08
DataValue, -0.12000000000000001, 1.4411599999999999E-08
DataValue, -0.08, -4.4674E-09
DataValue, -0.04, -6.8923999999999991E-09
DataValue, 0, 3.4974E-08
DataValue, 0.04, -4.5676399999999993E-08
DataValue, 0.08, 4.7765399999999993E-08
DataValue, 0.12000000000000001, -5.1303799999999996E-08
DataValue, 0.16, 4.70174E-08
DataValue, 0.2, -3.8296599999999994E-08
DataValue, 0.24000000000000002, 2.9390399999999996E-08
DataValue, 0.28, -1.31174E-08
DataValue, 0.32, 8.3959999999999987E-10
DataValue, 0.36000000000000004, 1.0170599999999999E-08
DataValue, 0.4, -2.21676E-08
DataValue, 0.44, 3.69838E-08
DataValue, 0.48000000000000004, -4.59204E-08
DataValue, 0.52, 5.0471799999999993E-08
DataValue, 0.56, -5.0817399999999993E-08
DataValue, 0.6, 5.1572399999999995E-08
DataValue, 0.64, -4.7212999999999994E-08
DataValue, 0.68, 3.8506999999999995E-08
DataValue, 0.72000000000000008, -2.8495199999999996E-08
DataValue, 0.76, 1.3231399999999998E-08
DataValue, 0.8, -1.7501999999999998E-09
DataValue, 0.84000000000000008, -5.7592E-09
DataValue, 0.88, 2.8975999999999996E-09
DataValue, 0.92, -1.2343399999999999E-08
DataValue, 0.96000000000000008, 2.0975599999999997E-08
DataValue, 1, -3.8688599999999995E-08
DataValue, 1.04, 3.3695199999999996E-08
DataValue, 1.08, -3.02904E-08
DataValue, 1.12, 4.9755799999999995E-08
DataValue, 1.1600000000000001, -5.00432E-08
DataValue, 1.2, 4.9308399999999996E-08
DataValue, 1.24, -5.0636399999999993E-08
DataValue, 1.28, 5.07038E-08
DataValue, 1.32, -5.0928399999999993E-08
DataValue, 1.36, 4.9912399999999992E-08
DataValue, 1.4000000000000001, -5.1090799999999993E-08
DataValue, 1.4400000000000002, 5.17494E-08
DataValue, 1.48, -5.1126399999999993E-08
DataValue, 1.52, 5.0821799999999993E-08
DataValue, 1.56, -5.0621399999999996E-08
DataValue, 1.6, 4.7471599999999995E-08
DataValue, 1.6400000000000001, -4.7686399999999996E-08
DataValue, 1.6800000000000002, 4.73068E-08
DataValue, 1.72, -3.45848E-08
DataValue, 1.76, 3.6812399999999994E-08
DataValue, 1.8, -3.4418799999999995E-08
DataValue, 1.84, 1.3217399999999999E-08
DataValue, 1.8800000000000001, -1.6312199999999998E-08
DataValue, 1.9200000000000002, 1.34648E-08
DataValue, 1.9600000000000002, 4.0947999999999995E-09
DataValue, 2, -1.0767999999999998E-09