
SetupTitle, I/V Sweep
PrimitiveTest, I/V Sweep
TestParameter, Context.MainFrame, B1500A
TestParameter, Channel.UnitType, SMU, SMU, SMU, SMU, SMU
TestParameter, Channel.Unit, SMU1:HP, SMU2:MP, SMU3:MP, SMU4:MP, SMU5:MP
TestParameter, Channel.IName, I, IDD1, IDD2, ISS, IPP
TestParameter, Channel.VName, V, VDD1, VDD2, VSS, VPP
TestParameter, Channel.Mode, V, V, V, V, V
TestParameter, Channel.Func, VAR1, CONST, CONST, CONST, CONST
TestParameter, Channel.Index, 
TestParameter, Channel.Time, 
TestParameter, Measurement.Port.Unit, SMU1:HP, SMU2:MP, SMU3:MP, SMU4:MP, SMU5:MP
TestParameter, Measurement.Port.SeriesResistor, NONE, NONE, NONE, NONE, NONE
TestParameter, Measurement.Port.Filter, ON, ON, ON, ON, ON
TestParameter, Measurement.Port.OutputVoltageComparison, 0, 0, 0, 0, 0
TestParameter, Measurement.Primary.Locus, Single
TestParameter, Measurement.Primary.Scale, LINEAR
TestParameter, Measurement.Primary.Start, -2
TestParameter, Measurement.Primary.Stop, 2
TestParameter, Measurement.Primary.Step, 0.04
TestParameter, Measurement.Primary.Compliance, 0.1
TestParameter, Measurement.Primary.PowerCompliance, 0
TestParameter, Measurement.Aborting.Condition, CONTINUE AT ANY
TestParameter, Measurement.PostOutput.Value, START
TestParameter, Measurement.PostOutput.Retention, OFF
TestParameter, Measurement.Bias.Source, -2, 1.8, 1.1, 0, 0
TestParameter, Measurement.Bias.Compliance, 0.1, 0.1, 0.1, 0.1, 0.1
TestParameter, Measurement.Monitor.Unit, SMU1:HP, SMU2:MP, SMU3:MP, SMU4:MP, SMU5:MP
TestParameter, Measurement.Monitor.Adc, HR ADC, HR ADC, HR ADC, HR ADC, HR ADC
TestParameter, Measurement.Monitor.Measurement, Compliance Side, Compliance Side, Compliance Side, Compliance Side, Compliance Side
TestParameter, Measurement.Monitor.RangingMode, LIMITED, LIMITED, LIMITED, LIMITED, LIMITED
TestParameter, Measurement.Monitor.RangeBoundary, 1nA, 1nA, 1nA, 1nA, 1nA
TestParameter, Measurement.Monitor.RangeRating, BY FULL RANGE, BY FULL RANGE, BY FULL RANGE, BY FULL RANGE, BY FULL RANGE
TestParameter, Measurement.Monitor.RangeRatingCoeff, 50, 50, 50, 50, 50
TestParameter, Measurement.Timing.Hold, 0
TestParameter, Measurement.Timing.Delay, 0
TestParameter, Measurement.Adc.HighSpeed.Mode, AUTO
TestParameter, Measurement.Adc.HighSpeed.Coeff, 1
TestParameter, Measurement.Adc.HighResolution.AutoZero, OFF
TestParameter, Measurement.Adc.HighResolution.Mode, AUTO
TestParameter, Measurement.Adc.HighResolution.Coeff, 6
TestParameter, Measurement.WaitTime.Source.Coeff, 1
TestParameter, Measurement.WaitTime.Source.Offset, 0
TestParameter, Measurement.WaitTime.Monitor.Coeff, 1
TestParameter, Measurement.WaitTime.Monitor.Offset, 0
TestParameter, Output.Graph.Enabled, true
TestParameter, Output.Graph.AutoScaling, false
TestParameter, Output.Graph.XAxis.Data, V
TestParameter, Output.Graph.XAxis.Scale, Linear
TestParameter, Output.Graph.XAxis.Left, -2
TestParameter, Output.Graph.XAxis.Right, 2
TestParameter, Output.Graph.XAxis.RunTimeAutoScale, true
TestParameter, Output.Graph.YAxis.Data, I
TestParameter, Output.Graph.YAxis.Scale, Linear
TestParameter, Output.Graph.YAxis.Bottom, -0.1
TestParameter, Output.Graph.YAxis.Top, 0.1
TestParameter, Output.Graph.YAxis.Group, 
TestParameter, Output.Graph.YAxis.RunTimeAutoScale, true
TestParameter, AutoAnalysis.Interpolation, false
TestParameter, AutoAnalysis.Var2StepCount, 1
TestParameter, AutoAnalysis.Var2StepScript, 
TestParameter, AutoAnalysis.Line1.Enabled, false
TestParameter, AutoAnalysis.Line1.Type, 1
TestParameter, AutoAnalysis.Line1.Fix, True
TestParameter, AutoAnalysis.Line1.YAxis, 0
TestParameter, AutoAnalysis.Line1.Point1.Type, 0
TestParameter, AutoAnalysis.Line1.Point1.XY.X, 
TestParameter, AutoAnalysis.Line1.Point1.XY.Y, 
TestParameter, AutoAnalysis.Line1.Point1.Data.Var, 
TestParameter, AutoAnalysis.Line1.Point1.Data.Condition, 
TestParameter, AutoAnalysis.Line1.Point1.Data.Start, false
TestParameter, AutoAnalysis.Line1.Point1.Data.StartVar, 
TestParameter, AutoAnalysis.Line1.Point1.Data.StartCondition, 
TestParameter, AutoAnalysis.Line1.Point2.Type, 0
TestParameter, AutoAnalysis.Line1.Point2.XY.X, 
TestParameter, AutoAnalysis.Line1.Point2.XY.Y, 
TestParameter, AutoAnalysis.Line1.Point2.Data.Var, 
TestParameter, AutoAnalysis.Line1.Point2.Data.Condition, 
TestParameter, AutoAnalysis.Line1.Point2.Data.Start, false
TestParameter, AutoAnalysis.Line1.Point2.Data.StartVar, 
TestParameter, AutoAnalysis.Line1.Point2.Data.StartCondition, 
TestParameter, AutoAnalysis.Line1.GradientExpr, 0
TestParameter, AutoAnalysis.Line2.Enabled, false
TestParameter, AutoAnalysis.Line2.Type, 1
TestParameter, AutoAnalysis.Line2.Fix, True
TestParameter, AutoAnalysis.Line2.YAxis, 0
TestParameter, AutoAnalysis.Line2.Point1.Type, 0
TestParameter, AutoAnalysis.Line2.Point1.XY.X, 
TestParameter, AutoAnalysis.Line2.Point1.XY.Y, 
TestParameter, AutoAnalysis.Line2.Point1.Data.Var, 
TestParameter, AutoAnalysis.Line2.Point1.Data.Condition, 
TestParameter, AutoAnalysis.Line2.Point1.Data.Start, false
TestParameter, AutoAnalysis.Line2.Point1.Data.StartVar, 
TestParameter, AutoAnalysis.Line2.Point1.Data.StartCondition, 
TestParameter, AutoAnalysis.Line2.Point2.Type, 0
TestParameter, AutoAnalysis.Line2.Point2.XY.X, 
TestParameter, AutoAnalysis.Line2.Point2.XY.Y, 
TestParameter, AutoAnalysis.Line2.Point2.Data.Var, 
TestParameter, AutoAnalysis.Line2.Point2.Data.Condition, 
TestParameter, AutoAnalysis.Line2.Point2.Data.Start, false
TestParameter, AutoAnalysis.Line2.Point2.Data.StartVar, 
TestParameter, AutoAnalysis.Line2.Point2.Data.StartCondition, 
TestParameter, AutoAnalysis.Line2.GradientExpr, 0
TestParameter, AutoAnalysis.Marker.Enabled, false
TestParameter, AutoAnalysis.Marker.Data.Var, 
TestParameter, AutoAnalysis.Marker.Data.Condition, 
TestParameter, AutoAnalysis.Marker.Data.Start, false
TestParameter, AutoAnalysis.Marker.Data.StartVar, 
TestParameter, AutoAnalysis.Marker.Data.StartCondition, 
MetaData, TestRecord.EntryPoint, true
MetaData, TestRecord.RecordTime, 10/19/2022 13:30:09
MetaData, TestRecord.TestTarget, 
MetaData, TestRecord.IterationIndex, 293
MetaData, TestRecord.Preservation, true
MetaData, TestRecord.Flag, 
MetaData, TestRecord.Remarks, 
MetaData, TestRecord.LinkKey, be8682d2-76dc-452e-9ebb-fc5ec7cd8d20
MetaData, TestRecord.Parameters, 
Dimension1, 101, 101
Dimension2, 1, 1
DataName, V, I
DataValue, -2, 4.5406E-09
DataValue, -1.9600000000000002, -1.2401999999999999E-08
DataValue, -1.9200000000000002, 2.6329599999999996E-08
DataValue, -1.8800000000000001, -2.3684399999999997E-08
DataValue, -1.84, 2.13798E-08
DataValue, -1.8, -3.5927399999999997E-08
DataValue, -1.76, 3.12166E-08
DataValue, -1.72, -2.8887199999999997E-08
DataValue, -1.6800000000000002, 3.8864799999999993E-08
DataValue, -1.6400000000000001, -3.5382E-08
DataValue, -1.6, 3.1103799999999994E-08
DataValue, -1.56, -4.5802999999999997E-08
DataValue, -1.52, 4.8077599999999994E-08
DataValue, -1.48, -5.1073399999999992E-08
DataValue, -1.4400000000000002, 4.52102E-08
DataValue, -1.4000000000000001, -3.5613199999999994E-08
DataValue, -1.36, 2.2774199999999997E-08
DataValue, -1.32, -7.1285999999999996E-09
DataValue, -1.28, -3.7595999999999993E-09
DataValue, -1.24, 1.4382599999999999E-08
DataValue, -1.2, -2.9053999999999997E-08
DataValue, -1.1600000000000001, 4.3179399999999994E-08
DataValue, -1.12, -4.80072E-08
DataValue, -1.08, 5.0015999999999996E-08
DataValue, -1.04, -5.0677799999999995E-08
DataValue, -1, 5.1637999999999996E-08
DataValue, -0.96000000000000008, -5.12884E-08
DataValue, -0.92, 4.6275799999999993E-08
DataValue, -0.88, -3.6917E-08
DataValue, -0.84000000000000008, 2.5553199999999998E-08
DataValue, -0.8, -8.9067999999999991E-09
DataValue, -0.76, -1.1478E-09
DataValue, -0.72000000000000008, 1.18074E-08
DataValue, -0.68, -2.4644399999999997E-08
DataValue, -0.64, 4.11066E-08
DataValue, -0.6, -4.77142E-08
DataValue, -0.56, 4.8032199999999994E-08
DataValue, -0.52, -5.0671E-08
DataValue, -0.48000000000000004, 5.1621199999999994E-08
DataValue, -0.44, -4.8080399999999993E-08
DataValue, -0.4, 3.9216E-08
DataValue, -0.36000000000000004, -2.9289E-08
DataValue, -0.32, 1.5708799999999998E-08
DataValue, -0.28, 9.025199999999999E-09
DataValue, -0.24000000000000002, -9.9808E-09
DataValue, -0.2, 2.2091E-08
DataValue, -0.16, -3.8503199999999995E-08
DataValue, -0.12000000000000001, 4.6026E-08
DataValue, -0.08, -4.8727799999999994E-08
DataValue, -0.04, 5.11194E-08
DataValue, 0, -4.7106E-08
DataValue, 0.04, 3.8507599999999995E-08
DataValue, 0.08, -3.2626E-08
DataValue, 0.12000000000000001, 1.4156399999999998E-08
DataValue, 0.16, -1.1656E-09
DataValue, 0.2, -9.935E-09
DataValue, 0.24000000000000002, 2.20514E-08
DataValue, 0.28, -3.8461199999999994E-08
DataValue, 0.32, 4.6696199999999994E-08
DataValue, 0.36000000000000004, -4.90852E-08
DataValue, 0.4, 5.0988599999999992E-08
DataValue, 0.44, -5.1803199999999995E-08
DataValue, 0.48000000000000004, 4.80062E-08
DataValue, 0.52, -3.8860199999999996E-08
DataValue, 0.56, 3.4438999999999995E-08
DataValue, 0.6, -3.5680799999999996E-08
DataValue, 0.64, 2.3975399999999996E-08
DataValue, 0.68, -7.9265999999999987E-09
DataValue, 0.72000000000000008, -3.2033999999999995E-09
DataValue, 0.76, 1.2742E-08
DataValue, 0.8, -2.4572999999999998E-08
DataValue, 0.84000000000000008, 4.1039399999999996E-08
DataValue, 0.88, -4.7994799999999996E-08
DataValue, 0.92, 4.9332599999999994E-08
DataValue, 0.96000000000000008, -5.0589799999999994E-08
DataValue, 1, 5.1250399999999994E-08
DataValue, 1.04, -4.5176399999999995E-08
DataValue, 1.08, 3.75136E-08
DataValue, 1.12, -2.9339599999999998E-08
DataValue, 1.1600000000000001, 2.7508199999999998E-08
DataValue, 1.2, -2.99584E-08
DataValue, 1.24, 3.36458E-08
DataValue, 1.28, -3.52464E-08
DataValue, 1.32, 3.7309999999999995E-08
DataValue, 1.36, -1.78122E-08
DataValue, 1.4000000000000001, 5.7752E-09
DataValue, 1.4400000000000002, -7.9756E-09
DataValue, 1.48, -8.7375999999999984E-09
DataValue, 1.52, 2.49486E-08
DataValue, 1.56, -2.2727199999999997E-08
DataValue, 1.6, 3.5291599999999994E-08
DataValue, 1.6400000000000001, -4.7095999999999994E-08
DataValue, 1.6800000000000002, 4.5328599999999993E-08
DataValue, 1.72, -4.6846599999999994E-08
DataValue, 1.76, 5.01722E-08
DataValue, 1.8, -4.9497799999999993E-08
DataValue, 1.84, 5.1130799999999992E-08
DataValue, 1.8800000000000001, -5.0655799999999996E-08
DataValue, 1.9200000000000002, 5.0170199999999996E-08
DataValue, 1.9600000000000002, -5.0952999999999993E-08
DataValue, 2, 5.03286E-08