
SetupTitle, I/V Sweep
PrimitiveTest, I/V Sweep
TestParameter, Context.MainFrame, B1500A
TestParameter, Channel.UnitType, SMU, SMU, SMU, SMU, SMU
TestParameter, Channel.Unit, SMU1:HP, SMU2:MP, SMU3:MP, SMU4:MP, SMU5:MP
TestParameter, Channel.IName, I, IDD1, IDD2, ISS, IPP
TestParameter, Channel.VName, V, VDD1, VDD2, VSS, VPP
TestParameter, Channel.Mode, V, V, V, V, V
TestParameter, Channel.Func, VAR1, CONST, CONST, CONST, CONST
TestParameter, Channel.Index, 
TestParameter, Channel.Time, 
TestParameter, Measurement.Port.Unit, SMU1:HP, SMU2:MP, SMU3:MP, SMU4:MP, SMU5:MP
TestParameter, Measurement.Port.SeriesResistor, NONE, NONE, NONE, NONE, NONE
TestParameter, Measurement.Port.Filter, ON, ON, ON, ON, ON
TestParameter, Measurement.Port.OutputVoltageComparison, 0, 0, 0, 0, 0
TestParameter, Measurement.Primary.Locus, Single
TestParameter, Measurement.Primary.Scale, LINEAR
TestParameter, Measurement.Primary.Start, -2
TestParameter, Measurement.Primary.Stop, 2
TestParameter, Measurement.Primary.Step, 0.04
TestParameter, Measurement.Primary.Compliance, 0.1
TestParameter, Measurement.Primary.PowerCompliance, 0
TestParameter, Measurement.Aborting.Condition, CONTINUE AT ANY
TestParameter, Measurement.PostOutput.Value, START
TestParameter, Measurement.PostOutput.Retention, OFF
TestParameter, Measurement.Bias.Source, -2, 1.8, 1.1, 0, 0
TestParameter, Measurement.Bias.Compliance, 0.1, 0.1, 0.1, 0.1, 0.1
TestParameter, Measurement.Monitor.Unit, SMU1:HP, SMU2:MP, SMU3:MP, SMU4:MP, SMU5:MP
TestParameter, Measurement.Monitor.Adc, HR ADC, HR ADC, HR ADC, HR ADC, HR ADC
TestParameter, Measurement.Monitor.Measurement, Compliance Side, Compliance Side, Compliance Side, Compliance Side, Compliance Side
TestParameter, Measurement.Monitor.RangingMode, LIMITED, LIMITED, LIMITED, LIMITED, LIMITED
TestParameter, Measurement.Monitor.RangeBoundary, 1nA, 1nA, 1nA, 1nA, 1nA
TestParameter, Measurement.Monitor.RangeRating, BY FULL RANGE, BY FULL RANGE, BY FULL RANGE, BY FULL RANGE, BY FULL RANGE
TestParameter, Measurement.Monitor.RangeRatingCoeff, 50, 50, 50, 50, 50
TestParameter, Measurement.Timing.Hold, 0
TestParameter, Measurement.Timing.Delay, 0
TestParameter, Measurement.Adc.HighSpeed.Mode, AUTO
TestParameter, Measurement.Adc.HighSpeed.Coeff, 1
TestParameter, Measurement.Adc.HighResolution.AutoZero, OFF
TestParameter, Measurement.Adc.HighResolution.Mode, AUTO
TestParameter, Measurement.Adc.HighResolution.Coeff, 6
TestParameter, Measurement.WaitTime.Source.Coeff, 1
TestParameter, Measurement.WaitTime.Source.Offset, 0
TestParameter, Measurement.WaitTime.Monitor.Coeff, 1
TestParameter, Measurement.WaitTime.Monitor.Offset, 0
TestParameter, Output.Graph.Enabled, true
TestParameter, Output.Graph.AutoScaling, false
TestParameter, Output.Graph.XAxis.Data, V
TestParameter, Output.Graph.XAxis.Scale, Linear
TestParameter, Output.Graph.XAxis.Left, -2
TestParameter, Output.Graph.XAxis.Right, 2
TestParameter, Output.Graph.XAxis.RunTimeAutoScale, true
TestParameter, Output.Graph.YAxis.Data, I
TestParameter, Output.Graph.YAxis.Scale, Linear
TestParameter, Output.Graph.YAxis.Bottom, -0.1
TestParameter, Output.Graph.YAxis.Top, 0.1
TestParameter, Output.Graph.YAxis.Group, 
TestParameter, Output.Graph.YAxis.RunTimeAutoScale, true
TestParameter, AutoAnalysis.Interpolation, false
TestParameter, AutoAnalysis.Var2StepCount, 1
TestParameter, AutoAnalysis.Var2StepScript, 
TestParameter, AutoAnalysis.Line1.Enabled, false
TestParameter, AutoAnalysis.Line1.Type, 1
TestParameter, AutoAnalysis.Line1.Fix, True
TestParameter, AutoAnalysis.Line1.YAxis, 0
TestParameter, AutoAnalysis.Line1.Point1.Type, 0
TestParameter, AutoAnalysis.Line1.Point1.XY.X, 
TestParameter, AutoAnalysis.Line1.Point1.XY.Y, 
TestParameter, AutoAnalysis.Line1.Point1.Data.Var, 
TestParameter, AutoAnalysis.Line1.Point1.Data.Condition, 
TestParameter, AutoAnalysis.Line1.Point1.Data.Start, false
TestParameter, AutoAnalysis.Line1.Point1.Data.StartVar, 
TestParameter, AutoAnalysis.Line1.Point1.Data.StartCondition, 
TestParameter, AutoAnalysis.Line1.Point2.Type, 0
TestParameter, AutoAnalysis.Line1.Point2.XY.X, 
TestParameter, AutoAnalysis.Line1.Point2.XY.Y, 
TestParameter, AutoAnalysis.Line1.Point2.Data.Var, 
TestParameter, AutoAnalysis.Line1.Point2.Data.Condition, 
TestParameter, AutoAnalysis.Line1.Point2.Data.Start, false
TestParameter, AutoAnalysis.Line1.Point2.Data.StartVar, 
TestParameter, AutoAnalysis.Line1.Point2.Data.StartCondition, 
TestParameter, AutoAnalysis.Line1.GradientExpr, 0
TestParameter, AutoAnalysis.Line2.Enabled, false
TestParameter, AutoAnalysis.Line2.Type, 1
TestParameter, AutoAnalysis.Line2.Fix, True
TestParameter, AutoAnalysis.Line2.YAxis, 0
TestParameter, AutoAnalysis.Line2.Point1.Type, 0
TestParameter, AutoAnalysis.Line2.Point1.XY.X, 
TestParameter, AutoAnalysis.Line2.Point1.XY.Y, 
TestParameter, AutoAnalysis.Line2.Point1.Data.Var, 
TestParameter, AutoAnalysis.Line2.Point1.Data.Condition, 
TestParameter, AutoAnalysis.Line2.Point1.Data.Start, false
TestParameter, AutoAnalysis.Line2.Point1.Data.StartVar, 
TestParameter, AutoAnalysis.Line2.Point1.Data.StartCondition, 
TestParameter, AutoAnalysis.Line2.Point2.Type, 0
TestParameter, AutoAnalysis.Line2.Point2.XY.X, 
TestParameter, AutoAnalysis.Line2.Point2.XY.Y, 
TestParameter, AutoAnalysis.Line2.Point2.Data.Var, 
TestParameter, AutoAnalysis.Line2.Point2.Data.Condition, 
TestParameter, AutoAnalysis.Line2.Point2.Data.Start, false
TestParameter, AutoAnalysis.Line2.Point2.Data.StartVar, 
TestParameter, AutoAnalysis.Line2.Point2.Data.StartCondition, 
TestParameter, AutoAnalysis.Line2.GradientExpr, 0
TestParameter, AutoAnalysis.Marker.Enabled, false
TestParameter, AutoAnalysis.Marker.Data.Var, 
TestParameter, AutoAnalysis.Marker.Data.Condition, 
TestParameter, AutoAnalysis.Marker.Data.Start, false
TestParameter, AutoAnalysis.Marker.Data.StartVar, 
TestParameter, AutoAnalysis.Marker.Data.StartCondition, 
MetaData, TestRecord.EntryPoint, true
MetaData, TestRecord.RecordTime, 10/19/2022 13:20:04
MetaData, TestRecord.TestTarget, 
MetaData, TestRecord.IterationIndex, 276
MetaData, TestRecord.Preservation, true
MetaData, TestRecord.Flag, 
MetaData, TestRecord.Remarks, 
MetaData, TestRecord.LinkKey, d8c46935-85be-4929-a069-8fbddcde880f
MetaData, TestRecord.Parameters, 
Dimension1, 101, 101
Dimension2, 1, 1
DataName, V, I
DataValue, -2, -0.038700000000000005
DataValue, -1.9600000000000002, -0.038224
DataValue, -1.9200000000000002, -0.03753
DataValue, -1.8800000000000001, -0.036362000000000005
DataValue, -1.84, -0.035184
DataValue, -1.8, -0.034732000000000006
DataValue, -1.76, -0.033888
DataValue, -1.72, -0.032676000000000004
DataValue, -1.6800000000000002, -0.031608000000000004
DataValue, -1.6400000000000001, -0.030568
DataValue, -1.6, -0.030136000000000003
DataValue, -1.56, -0.028338000000000002
DataValue, -1.52, -0.027176000000000002
DataValue, -1.48, -0.025414000000000003
DataValue, -1.4400000000000002, -0.024658000000000003
DataValue, -1.4000000000000001, -0.024506000000000003
DataValue, -1.36, -0.023482000000000003
DataValue, -1.32, -0.022268000000000003
DataValue, -1.28, -0.021896000000000002
DataValue, -1.24, -0.021086
DataValue, -1.2, -0.020422000000000003
DataValue, -1.1600000000000001, -0.019388000000000002
DataValue, -1.12, -0.018658
DataValue, -1.08, -0.017898
DataValue, -1.04, -0.01665
DataValue, -1, -0.015884000000000002
DataValue, -0.96000000000000008, -0.015260000000000001
DataValue, -0.92, -0.014636000000000001
DataValue, -0.88, -0.014008000000000001
DataValue, -0.84000000000000008, -0.013380000000000001
DataValue, -0.8, -0.012718000000000002
DataValue, -0.76, -0.012062000000000002
DataValue, -0.72000000000000008, -0.011408000000000002
DataValue, -0.68, -0.010728000000000001
DataValue, -0.64, -0.010066
DataValue, -0.6, -0.0094174
DataValue, -0.56, -0.008760200000000001
DataValue, -0.52, -0.0081038
DataValue, -0.48000000000000004, -0.00745
DataValue, -0.44, -0.0068176
DataValue, -0.4, -0.0061730000000000005
DataValue, -0.36000000000000004, -0.0055506
DataValue, -0.32, -0.00494
DataValue, -0.28, -0.0043506000000000005
DataValue, -0.24000000000000002, -0.003786
DataValue, -0.2, -0.0032538000000000003
DataValue, -0.16, -0.0027572
DataValue, -0.12000000000000001, -0.0022988
DataValue, -0.08, -0.0018842
DataValue, -0.04, -0.0015128000000000001
DataValue, 0, -0.0011948
DataValue, 0.04, -0.00093406
DataValue, 0.08, -0.0007062
DataValue, 0.12000000000000001, -0.00052414
DataValue, 0.16, -0.00037712000000000005
DataValue, 0.2, -0.0002613
DataValue, 0.24000000000000002, -0.00017156000000000002
DataValue, 0.28, -0.00010552
DataValue, 0.32, -6.3568E-05
DataValue, 0.36000000000000004, -2.7624000000000002E-05
DataValue, 0.4, -1.1232E-05
DataValue, 0.44, -4.4738E-06
DataValue, 0.48000000000000004, -1.0964000000000002E-06
DataValue, 0.52, -2.7924E-07
DataValue, 0.56, -6.7727599999999988E-08
DataValue, 0.6, -1.7938599999999998E-08
DataValue, 0.64, -6.0615E-09
DataValue, 0.68, -2.7854E-09
DataValue, 0.72000000000000008, -1.6435E-09
DataValue, 0.76, -1.2324E-09
DataValue, 0.8, -9.7363E-10
DataValue, 0.84000000000000008, -7.9781000000000006E-10
DataValue, 0.88, -7.0104000000000009E-10
DataValue, 0.92, -5.9571E-10
DataValue, 0.96000000000000008, -5.4452E-10
DataValue, 1, -4.6034000000000004E-10
DataValue, 1.04, -4.1108000000000004E-10
DataValue, 1.08, -2.9111000000000004E-10
DataValue, 1.12, -9.661E-11
DataValue, 1.1600000000000001, 4.4194000000000003E-10
DataValue, 1.2, 1.5593E-09
DataValue, 1.24, 3.639E-09
DataValue, 1.28, 7.3888999999999996E-09
DataValue, 1.32, 1.34868E-08
DataValue, 1.36, 2.2882799999999996E-08
DataValue, 1.4000000000000001, 3.73856E-08
DataValue, 1.4400000000000002, 5.7820799999999995E-08
DataValue, 1.48, 8.70756E-08
DataValue, 1.52, 1.2648E-07
DataValue, 1.56, 1.7932E-07
DataValue, 1.6, 2.5126E-07
DataValue, 1.6400000000000001, 3.5314E-07
DataValue, 1.6800000000000002, 5.2864E-07
DataValue, 1.72, 9.7934E-07
DataValue, 1.76, 2.6565000000000003E-06
DataValue, 1.8, 1.0146E-05
DataValue, 1.84, 4.2074000000000004E-05
DataValue, 1.8800000000000001, 0.00015546
DataValue, 1.9200000000000002, 0.00042302
DataValue, 1.9600000000000002, 0.00085366
DataValue, 2, 0.001396