
SetupTitle, I/V Sweep
PrimitiveTest, I/V Sweep
TestParameter, Context.MainFrame, B1500A
TestParameter, Channel.UnitType, SMU, SMU, SMU, SMU, SMU
TestParameter, Channel.Unit, SMU1:HP, SMU2:MP, SMU3:MP, SMU4:MP, SMU5:MP
TestParameter, Channel.IName, I, IDD1, IDD2, ISS, IPP
TestParameter, Channel.VName, V, VDD1, VDD2, VSS, VPP
TestParameter, Channel.Mode, V, V, V, V, V
TestParameter, Channel.Func, VAR1, CONST, CONST, CONST, CONST
TestParameter, Channel.Index, 
TestParameter, Channel.Time, 
TestParameter, Measurement.Port.Unit, SMU1:HP, SMU2:MP, SMU3:MP, SMU4:MP, SMU5:MP
TestParameter, Measurement.Port.SeriesResistor, NONE, NONE, NONE, NONE, NONE
TestParameter, Measurement.Port.Filter, ON, ON, ON, ON, ON
TestParameter, Measurement.Port.OutputVoltageComparison, 0, 0, 0, 0, 0
TestParameter, Measurement.Primary.Locus, Single
TestParameter, Measurement.Primary.Scale, LINEAR
TestParameter, Measurement.Primary.Start, -2
TestParameter, Measurement.Primary.Stop, 2
TestParameter, Measurement.Primary.Step, 0.04
TestParameter, Measurement.Primary.Compliance, 0.1
TestParameter, Measurement.Primary.PowerCompliance, 0
TestParameter, Measurement.Aborting.Condition, CONTINUE AT ANY
TestParameter, Measurement.PostOutput.Value, START
TestParameter, Measurement.PostOutput.Retention, OFF
TestParameter, Measurement.Bias.Source, -2, 1.8, 1.1, 0, 0
TestParameter, Measurement.Bias.Compliance, 0.1, 0.1, 0.1, 0.1, 0.1
TestParameter, Measurement.Monitor.Unit, SMU1:HP, SMU2:MP, SMU3:MP, SMU4:MP, SMU5:MP
TestParameter, Measurement.Monitor.Adc, HR ADC, HR ADC, HR ADC, HR ADC, HR ADC
TestParameter, Measurement.Monitor.Measurement, Compliance Side, Compliance Side, Compliance Side, Compliance Side, Compliance Side
TestParameter, Measurement.Monitor.RangingMode, LIMITED, LIMITED, LIMITED, LIMITED, LIMITED
TestParameter, Measurement.Monitor.RangeBoundary, 1nA, 1nA, 1nA, 1nA, 1nA
TestParameter, Measurement.Monitor.RangeRating, BY FULL RANGE, BY FULL RANGE, BY FULL RANGE, BY FULL RANGE, BY FULL RANGE
TestParameter, Measurement.Monitor.RangeRatingCoeff, 50, 50, 50, 50, 50
TestParameter, Measurement.Timing.Hold, 0
TestParameter, Measurement.Timing.Delay, 0
TestParameter, Measurement.Adc.HighSpeed.Mode, AUTO
TestParameter, Measurement.Adc.HighSpeed.Coeff, 1
TestParameter, Measurement.Adc.HighResolution.AutoZero, OFF
TestParameter, Measurement.Adc.HighResolution.Mode, AUTO
TestParameter, Measurement.Adc.HighResolution.Coeff, 6
TestParameter, Measurement.WaitTime.Source.Coeff, 1
TestParameter, Measurement.WaitTime.Source.Offset, 0
TestParameter, Measurement.WaitTime.Monitor.Coeff, 1
TestParameter, Measurement.WaitTime.Monitor.Offset, 0
TestParameter, Output.Graph.Enabled, true
TestParameter, Output.Graph.AutoScaling, false
TestParameter, Output.Graph.XAxis.Data, V
TestParameter, Output.Graph.XAxis.Scale, Linear
TestParameter, Output.Graph.XAxis.Left, -2
TestParameter, Output.Graph.XAxis.Right, 2
TestParameter, Output.Graph.XAxis.RunTimeAutoScale, true
TestParameter, Output.Graph.YAxis.Data, I
TestParameter, Output.Graph.YAxis.Scale, Linear
TestParameter, Output.Graph.YAxis.Bottom, -0.1
TestParameter, Output.Graph.YAxis.Top, 0.1
TestParameter, Output.Graph.YAxis.Group, 
TestParameter, Output.Graph.YAxis.RunTimeAutoScale, true
TestParameter, AutoAnalysis.Interpolation, false
TestParameter, AutoAnalysis.Var2StepCount, 1
TestParameter, AutoAnalysis.Var2StepScript, 
TestParameter, AutoAnalysis.Line1.Enabled, false
TestParameter, AutoAnalysis.Line1.Type, 1
TestParameter, AutoAnalysis.Line1.Fix, True
TestParameter, AutoAnalysis.Line1.YAxis, 0
TestParameter, AutoAnalysis.Line1.Point1.Type, 0
TestParameter, AutoAnalysis.Line1.Point1.XY.X, 
TestParameter, AutoAnalysis.Line1.Point1.XY.Y, 
TestParameter, AutoAnalysis.Line1.Point1.Data.Var, 
TestParameter, AutoAnalysis.Line1.Point1.Data.Condition, 
TestParameter, AutoAnalysis.Line1.Point1.Data.Start, false
TestParameter, AutoAnalysis.Line1.Point1.Data.StartVar, 
TestParameter, AutoAnalysis.Line1.Point1.Data.StartCondition, 
TestParameter, AutoAnalysis.Line1.Point2.Type, 0
TestParameter, AutoAnalysis.Line1.Point2.XY.X, 
TestParameter, AutoAnalysis.Line1.Point2.XY.Y, 
TestParameter, AutoAnalysis.Line1.Point2.Data.Var, 
TestParameter, AutoAnalysis.Line1.Point2.Data.Condition, 
TestParameter, AutoAnalysis.Line1.Point2.Data.Start, false
TestParameter, AutoAnalysis.Line1.Point2.Data.StartVar, 
TestParameter, AutoAnalysis.Line1.Point2.Data.StartCondition, 
TestParameter, AutoAnalysis.Line1.GradientExpr, 0
TestParameter, AutoAnalysis.Line2.Enabled, false
TestParameter, AutoAnalysis.Line2.Type, 1
TestParameter, AutoAnalysis.Line2.Fix, True
TestParameter, AutoAnalysis.Line2.YAxis, 0
TestParameter, AutoAnalysis.Line2.Point1.Type, 0
TestParameter, AutoAnalysis.Line2.Point1.XY.X, 
TestParameter, AutoAnalysis.Line2.Point1.XY.Y, 
TestParameter, AutoAnalysis.Line2.Point1.Data.Var, 
TestParameter, AutoAnalysis.Line2.Point1.Data.Condition, 
TestParameter, AutoAnalysis.Line2.Point1.Data.Start, false
TestParameter, AutoAnalysis.Line2.Point1.Data.StartVar, 
TestParameter, AutoAnalysis.Line2.Point1.Data.StartCondition, 
TestParameter, AutoAnalysis.Line2.Point2.Type, 0
TestParameter, AutoAnalysis.Line2.Point2.XY.X, 
TestParameter, AutoAnalysis.Line2.Point2.XY.Y, 
TestParameter, AutoAnalysis.Line2.Point2.Data.Var, 
TestParameter, AutoAnalysis.Line2.Point2.Data.Condition, 
TestParameter, AutoAnalysis.Line2.Point2.Data.Start, false
TestParameter, AutoAnalysis.Line2.Point2.Data.StartVar, 
TestParameter, AutoAnalysis.Line2.Point2.Data.StartCondition, 
TestParameter, AutoAnalysis.Line2.GradientExpr, 0
TestParameter, AutoAnalysis.Marker.Enabled, false
TestParameter, AutoAnalysis.Marker.Data.Var, 
TestParameter, AutoAnalysis.Marker.Data.Condition, 
TestParameter, AutoAnalysis.Marker.Data.Start, false
TestParameter, AutoAnalysis.Marker.Data.StartVar, 
TestParameter, AutoAnalysis.Marker.Data.StartCondition, 
MetaData, TestRecord.EntryPoint, true
MetaData, TestRecord.RecordTime, 10/19/2022 13:28:58
MetaData, TestRecord.TestTarget, 
MetaData, TestRecord.IterationIndex, 291
MetaData, TestRecord.Preservation, true
MetaData, TestRecord.Flag, 
MetaData, TestRecord.Remarks, 
MetaData, TestRecord.LinkKey, e7061d41-c10d-4365-84fd-95105d5b858f
MetaData, TestRecord.Parameters, 
Dimension1, 101, 101
Dimension2, 1, 1
DataName, V, I
DataValue, -2, -0.01008
DataValue, -1.9600000000000002, -0.0098374
DataValue, -1.9200000000000002, -0.0096088
DataValue, -1.8800000000000001, -0.0093778
DataValue, -1.84, -0.0091254
DataValue, -1.8, -0.008874
DataValue, -1.76, -0.0086384000000000009
DataValue, -1.72, -0.0084208
DataValue, -1.6800000000000002, -0.0081824
DataValue, -1.6400000000000001, -0.007948
DataValue, -1.6, -0.007704
DataValue, -1.56, -0.007472
DataValue, -1.52, -0.0072564000000000005
DataValue, -1.48, -0.007026
DataValue, -1.4400000000000002, -0.006792
DataValue, -1.4000000000000001, -0.006553
DataValue, -1.36, -0.006317
DataValue, -1.32, -0.0060816
DataValue, -1.28, -0.005845
DataValue, -1.24, -0.0056136
DataValue, -1.2, -0.0053786
DataValue, -1.1600000000000001, -0.0051524
DataValue, -1.12, -0.0049252
DataValue, -1.08, -0.0047006
DataValue, -1.04, -0.0044774
DataValue, -1, -0.0042564000000000005
DataValue, -0.96000000000000008, -0.004045
DataValue, -0.92, -0.0038274
DataValue, -0.88, -0.0036198000000000003
DataValue, -0.84000000000000008, -0.0034124
DataValue, -0.8, -0.0032114
DataValue, -0.76, -0.0030132
DataValue, -0.72000000000000008, -0.002813
DataValue, -0.68, -0.0026232
DataValue, -0.64, -0.0024438
DataValue, -0.6, -0.0022608
DataValue, -0.56, -0.0020858
DataValue, -0.52, -0.0019152
DataValue, -0.48000000000000004, -0.0017490000000000001
DataValue, -0.44, -0.0015904
DataValue, -0.4, -0.0014402
DataValue, -0.36000000000000004, -0.001295
DataValue, -0.32, -0.001158
DataValue, -0.28, -0.0010302
DataValue, -0.24000000000000002, -0.0009099
DataValue, -0.2, -0.00079714
DataValue, -0.16, -0.00069086000000000006
DataValue, -0.12000000000000001, -0.00059472000000000008
DataValue, -0.08, -0.00050504
DataValue, -0.04, -0.00042424000000000004
DataValue, 0, -0.0003511
DataValue, 0.04, -0.00028676
DataValue, 0.08, -0.00022988000000000002
DataValue, 0.12000000000000001, -0.00018252
DataValue, 0.16, -0.00014256000000000002
DataValue, 0.2, -0.00011056000000000001
DataValue, 0.24000000000000002, -8.659000000000001E-05
DataValue, 0.28, -6.7156E-05
DataValue, 0.32, -5.2430000000000005E-05
DataValue, 0.36000000000000004, -4.1578E-05
DataValue, 0.4, -3.2726E-05
DataValue, 0.44, -2.5684E-05
DataValue, 0.48000000000000004, -2.007E-05
DataValue, 0.52, -1.5254E-05
DataValue, 0.56, -1.1536000000000001E-05
DataValue, 0.6, -8.4590000000000015E-06
DataValue, 0.64, -5.8661000000000005E-06
DataValue, 0.68, -3.895E-06
DataValue, 0.72000000000000008, -2.476E-06
DataValue, 0.76, -1.4633000000000003E-06
DataValue, 0.8, -8.91E-07
DataValue, 0.84000000000000008, -4.1791999999999997E-07
DataValue, 0.88, -2.1399999999999998E-07
DataValue, 0.92, -1.3004E-07
DataValue, 0.96000000000000008, -5.98464E-08
DataValue, 1, -2.5896199999999997E-08
DataValue, 1.04, -9.3549999999999984E-09
DataValue, 1.08, -2.3834E-09
DataValue, 1.12, 1.0291E-09
DataValue, 1.1600000000000001, 4.1198E-09
DataValue, 1.2, 9.0221E-09
DataValue, 1.24, 2.05308E-08
DataValue, 1.28, 5.6377799999999993E-08
DataValue, 1.32, 1.8036E-07
DataValue, 1.36, 6.3584E-07
DataValue, 1.4000000000000001, 2.1855E-06
DataValue, 1.4400000000000002, 7.5429000000000011E-06
DataValue, 1.48, 2.3524E-05
DataValue, 1.52, 6.6712000000000008E-05
DataValue, 1.56, 0.0001474
DataValue, 1.6, 0.00026734
DataValue, 1.6400000000000001, 0.00041608000000000004
DataValue, 1.6800000000000002, 0.00058514
DataValue, 1.72, 0.00077042000000000007
DataValue, 1.76, 0.00096714
DataValue, 1.8, 0.0011686
DataValue, 1.84, 0.0013864
DataValue, 1.8800000000000001, 0.001613
DataValue, 1.9200000000000002, 0.001848
DataValue, 1.9600000000000002, 0.0020942
DataValue, 2, 0.0023526000000000003