
SetupTitle, I/V Sweep
PrimitiveTest, I/V Sweep
TestParameter, Context.MainFrame, B1500A
TestParameter, Channel.UnitType, SMU, SMU, SMU, SMU, SMU
TestParameter, Channel.Unit, SMU1:HP, SMU2:MP, SMU3:MP, SMU4:MP, SMU5:MP
TestParameter, Channel.IName, I, IDD1, IDD2, ISS, IPP
TestParameter, Channel.VName, V, VDD1, VDD2, VSS, VPP
TestParameter, Channel.Mode, V, V, V, V, V
TestParameter, Channel.Func, VAR1, CONST, CONST, CONST, CONST
TestParameter, Channel.Index, 
TestParameter, Channel.Time, 
TestParameter, Measurement.Port.Unit, SMU1:HP, SMU2:MP, SMU3:MP, SMU4:MP, SMU5:MP
TestParameter, Measurement.Port.SeriesResistor, NONE, NONE, NONE, NONE, NONE
TestParameter, Measurement.Port.Filter, ON, ON, ON, ON, ON
TestParameter, Measurement.Port.OutputVoltageComparison, 0, 0, 0, 0, 0
TestParameter, Measurement.Primary.Locus, Single
TestParameter, Measurement.Primary.Scale, LINEAR
TestParameter, Measurement.Primary.Start, -2
TestParameter, Measurement.Primary.Stop, 2
TestParameter, Measurement.Primary.Step, 0.04
TestParameter, Measurement.Primary.Compliance, 0.1
TestParameter, Measurement.Primary.PowerCompliance, 0
TestParameter, Measurement.Aborting.Condition, CONTINUE AT ANY
TestParameter, Measurement.PostOutput.Value, START
TestParameter, Measurement.PostOutput.Retention, OFF
TestParameter, Measurement.Bias.Source, -2, 1.8, 1.1, 0, 0
TestParameter, Measurement.Bias.Compliance, 0.1, 0.1, 0.1, 0.1, 0.1
TestParameter, Measurement.Monitor.Unit, SMU1:HP, SMU2:MP, SMU3:MP, SMU4:MP, SMU5:MP
TestParameter, Measurement.Monitor.Adc, HR ADC, HR ADC, HR ADC, HR ADC, HR ADC
TestParameter, Measurement.Monitor.Measurement, Compliance Side, Compliance Side, Compliance Side, Compliance Side, Compliance Side
TestParameter, Measurement.Monitor.RangingMode, LIMITED, LIMITED, LIMITED, LIMITED, LIMITED
TestParameter, Measurement.Monitor.RangeBoundary, 1nA, 1nA, 1nA, 1nA, 1nA
TestParameter, Measurement.Monitor.RangeRating, BY FULL RANGE, BY FULL RANGE, BY FULL RANGE, BY FULL RANGE, BY FULL RANGE
TestParameter, Measurement.Monitor.RangeRatingCoeff, 50, 50, 50, 50, 50
TestParameter, Measurement.Timing.Hold, 0
TestParameter, Measurement.Timing.Delay, 0
TestParameter, Measurement.Adc.HighSpeed.Mode, AUTO
TestParameter, Measurement.Adc.HighSpeed.Coeff, 1
TestParameter, Measurement.Adc.HighResolution.AutoZero, OFF
TestParameter, Measurement.Adc.HighResolution.Mode, AUTO
TestParameter, Measurement.Adc.HighResolution.Coeff, 6
TestParameter, Measurement.WaitTime.Source.Coeff, 1
TestParameter, Measurement.WaitTime.Source.Offset, 0
TestParameter, Measurement.WaitTime.Monitor.Coeff, 1
TestParameter, Measurement.WaitTime.Monitor.Offset, 0
TestParameter, Output.Graph.Enabled, true
TestParameter, Output.Graph.AutoScaling, false
TestParameter, Output.Graph.XAxis.Data, V
TestParameter, Output.Graph.XAxis.Scale, Linear
TestParameter, Output.Graph.XAxis.Left, -2
TestParameter, Output.Graph.XAxis.Right, 2
TestParameter, Output.Graph.XAxis.RunTimeAutoScale, true
TestParameter, Output.Graph.YAxis.Data, I
TestParameter, Output.Graph.YAxis.Scale, Linear
TestParameter, Output.Graph.YAxis.Bottom, -0.1
TestParameter, Output.Graph.YAxis.Top, 0.1
TestParameter, Output.Graph.YAxis.Group, 
TestParameter, Output.Graph.YAxis.RunTimeAutoScale, true
TestParameter, AutoAnalysis.Interpolation, false
TestParameter, AutoAnalysis.Var2StepCount, 1
TestParameter, AutoAnalysis.Var2StepScript, 
TestParameter, AutoAnalysis.Line1.Enabled, false
TestParameter, AutoAnalysis.Line1.Type, 1
TestParameter, AutoAnalysis.Line1.Fix, True
TestParameter, AutoAnalysis.Line1.YAxis, 0
TestParameter, AutoAnalysis.Line1.Point1.Type, 0
TestParameter, AutoAnalysis.Line1.Point1.XY.X, 
TestParameter, AutoAnalysis.Line1.Point1.XY.Y, 
TestParameter, AutoAnalysis.Line1.Point1.Data.Var, 
TestParameter, AutoAnalysis.Line1.Point1.Data.Condition, 
TestParameter, AutoAnalysis.Line1.Point1.Data.Start, false
TestParameter, AutoAnalysis.Line1.Point1.Data.StartVar, 
TestParameter, AutoAnalysis.Line1.Point1.Data.StartCondition, 
TestParameter, AutoAnalysis.Line1.Point2.Type, 0
TestParameter, AutoAnalysis.Line1.Point2.XY.X, 
TestParameter, AutoAnalysis.Line1.Point2.XY.Y, 
TestParameter, AutoAnalysis.Line1.Point2.Data.Var, 
TestParameter, AutoAnalysis.Line1.Point2.Data.Condition, 
TestParameter, AutoAnalysis.Line1.Point2.Data.Start, false
TestParameter, AutoAnalysis.Line1.Point2.Data.StartVar, 
TestParameter, AutoAnalysis.Line1.Point2.Data.StartCondition, 
TestParameter, AutoAnalysis.Line1.GradientExpr, 0
TestParameter, AutoAnalysis.Line2.Enabled, false
TestParameter, AutoAnalysis.Line2.Type, 1
TestParameter, AutoAnalysis.Line2.Fix, True
TestParameter, AutoAnalysis.Line2.YAxis, 0
TestParameter, AutoAnalysis.Line2.Point1.Type, 0
TestParameter, AutoAnalysis.Line2.Point1.XY.X, 
TestParameter, AutoAnalysis.Line2.Point1.XY.Y, 
TestParameter, AutoAnalysis.Line2.Point1.Data.Var, 
TestParameter, AutoAnalysis.Line2.Point1.Data.Condition, 
TestParameter, AutoAnalysis.Line2.Point1.Data.Start, false
TestParameter, AutoAnalysis.Line2.Point1.Data.StartVar, 
TestParameter, AutoAnalysis.Line2.Point1.Data.StartCondition, 
TestParameter, AutoAnalysis.Line2.Point2.Type, 0
TestParameter, AutoAnalysis.Line2.Point2.XY.X, 
TestParameter, AutoAnalysis.Line2.Point2.XY.Y, 
TestParameter, AutoAnalysis.Line2.Point2.Data.Var, 
TestParameter, AutoAnalysis.Line2.Point2.Data.Condition, 
TestParameter, AutoAnalysis.Line2.Point2.Data.Start, false
TestParameter, AutoAnalysis.Line2.Point2.Data.StartVar, 
TestParameter, AutoAnalysis.Line2.Point2.Data.StartCondition, 
TestParameter, AutoAnalysis.Line2.GradientExpr, 0
TestParameter, AutoAnalysis.Marker.Enabled, false
TestParameter, AutoAnalysis.Marker.Data.Var, 
TestParameter, AutoAnalysis.Marker.Data.Condition, 
TestParameter, AutoAnalysis.Marker.Data.Start, false
TestParameter, AutoAnalysis.Marker.Data.StartVar, 
TestParameter, AutoAnalysis.Marker.Data.StartCondition, 
MetaData, TestRecord.EntryPoint, true
MetaData, TestRecord.RecordTime, 10/19/2022 13:21:36
MetaData, TestRecord.TestTarget, 
MetaData, TestRecord.IterationIndex, 278
MetaData, TestRecord.Preservation, true
MetaData, TestRecord.Flag, 
MetaData, TestRecord.Remarks, 
MetaData, TestRecord.LinkKey, d5d6d602-2d0c-4f2c-a1e1-e1d0f202df31
MetaData, TestRecord.Parameters, 
Dimension1, 101, 101
Dimension2, 1, 1
DataName, V, I
DataValue, -2, -0.024176000000000003
DataValue, -1.9600000000000002, -0.023726
DataValue, -1.9200000000000002, -0.023256000000000002
DataValue, -1.8800000000000001, -0.022892000000000003
DataValue, -1.84, -0.022546000000000004
DataValue, -1.8, -0.022262
DataValue, -1.76, -0.021904000000000003
DataValue, -1.72, -0.021532000000000003
DataValue, -1.6800000000000002, -0.021162
DataValue, -1.6400000000000001, -0.020802
DataValue, -1.6, -0.020454000000000003
DataValue, -1.56, -0.020108
DataValue, -1.52, -0.019748
DataValue, -1.48, -0.019314
DataValue, -1.4400000000000002, -0.018942
DataValue, -1.4000000000000001, -0.018594000000000003
DataValue, -1.36, -0.018244000000000003
DataValue, -1.32, -0.017884
DataValue, -1.28, -0.017506
DataValue, -1.24, -0.017156
DataValue, -1.2, -0.016786000000000002
DataValue, -1.1600000000000001, -0.016436000000000003
DataValue, -1.12, -0.01607
DataValue, -1.08, -0.015700000000000002
DataValue, -1.04, -0.015346000000000002
DataValue, -1, -0.014992000000000002
DataValue, -0.96000000000000008, -0.014624000000000002
DataValue, -0.92, -0.014266000000000001
DataValue, -0.88, -0.013908000000000002
DataValue, -0.84000000000000008, -0.013548000000000001
DataValue, -0.8, -0.013194
DataValue, -0.76, -0.012822000000000002
DataValue, -0.72000000000000008, -0.012464000000000001
DataValue, -0.68, -0.012104000000000002
DataValue, -0.64, -0.011742
DataValue, -0.6, -0.01139
DataValue, -0.56, -0.011026000000000001
DataValue, -0.52, -0.010678000000000002
DataValue, -0.48000000000000004, -0.010316
DataValue, -0.44, -0.0099712
DataValue, -0.4, -0.00961
DataValue, -0.36000000000000004, -0.0092478
DataValue, -0.32, -0.0088888
DataValue, -0.28, -0.0085392
DataValue, -0.24000000000000002, -0.0081732
DataValue, -0.2, -0.0078064
DataValue, -0.16, -0.0074572
DataValue, -0.12000000000000001, -0.0071002
DataValue, -0.08, -0.0067458
DataValue, -0.04, -0.006379
DataValue, 0, -0.0060234
DataValue, 0.04, -0.0056948
DataValue, 0.08, -0.005315
DataValue, 0.12000000000000001, -0.004969
DataValue, 0.16, -0.0046404
DataValue, 0.2, -0.0042674
DataValue, 0.24000000000000002, -0.0039176
DataValue, 0.28, -0.003574
DataValue, 0.32, -0.0032364
DataValue, 0.36000000000000004, -0.0029032
DataValue, 0.4, -0.0025778
DataValue, 0.44, -0.0022786
DataValue, 0.48000000000000004, -0.0019624
DataValue, 0.52, -0.0016608
DataValue, 0.56, -0.0013792000000000001
DataValue, 0.6, -0.0011134
DataValue, 0.64, -0.00087404000000000008
DataValue, 0.68, -0.00066202
DataValue, 0.72000000000000008, -0.00048494000000000006
DataValue, 0.76, -0.00034474
DataValue, 0.8, -0.0002402
DataValue, 0.84000000000000008, -0.00016212
DataValue, 0.88, -0.00010728
DataValue, 0.92, -7.1244E-05
DataValue, 0.96000000000000008, -4.4576E-05
DataValue, 1, -2.588E-05
DataValue, 1.04, -1.3520000000000001E-05
DataValue, 1.08, -5.9160000000000006E-06
DataValue, 1.12, 6.1476E-07
DataValue, 1.1600000000000001, 8.0461E-06
DataValue, 1.2, 1.9088E-05
DataValue, 1.24, 3.9348000000000003E-05
DataValue, 1.28, 7.0882E-05
DataValue, 1.32, 0.00011384000000000001
DataValue, 1.36, 0.00019694000000000002
DataValue, 1.4000000000000001, 0.00032020000000000003
DataValue, 1.4400000000000002, 0.00048762
DataValue, 1.48, 0.00069524000000000007
DataValue, 1.52, 0.0009403800000000001
DataValue, 1.56, 0.001209
DataValue, 1.6, 0.0015058
DataValue, 1.6400000000000001, 0.0018182
DataValue, 1.6800000000000002, 0.0021446
DataValue, 1.72, 0.002483
DataValue, 1.76, 0.002831
DataValue, 1.8, 0.0031892
DataValue, 1.84, 0.0035544
DataValue, 1.8800000000000001, 0.0039268
DataValue, 1.9200000000000002, 0.0043068
DataValue, 1.9600000000000002, 0.0046926
DataValue, 2, 0.0050844