
SetupTitle, I/V Sweep
PrimitiveTest, I/V Sweep
TestParameter, Context.MainFrame, B1500A
TestParameter, Channel.UnitType, SMU, SMU, SMU, SMU, SMU
TestParameter, Channel.Unit, SMU1:HP, SMU2:MP, SMU3:MP, SMU4:MP, SMU5:MP
TestParameter, Channel.IName, I, IDD1, IDD2, ISS, IPP
TestParameter, Channel.VName, V, VDD1, VDD2, VSS, VPP
TestParameter, Channel.Mode, V, V, V, V, V
TestParameter, Channel.Func, CONST, CONST, VAR1, CONST, CONST
TestParameter, Channel.Index, 
TestParameter, Channel.Time, 
TestParameter, Measurement.Port.Unit, SMU1:HP, SMU2:MP, SMU3:MP, SMU4:MP, SMU5:MP
TestParameter, Measurement.Port.SeriesResistor, NONE, NONE, NONE, NONE, NONE
TestParameter, Measurement.Port.Filter, ON, ON, ON, ON, ON
TestParameter, Measurement.Port.OutputVoltageComparison, 0, 0, 0, 0, 0
TestParameter, Measurement.Primary.Locus, Single
TestParameter, Measurement.Primary.Scale, LINEAR
TestParameter, Measurement.Primary.Start, -2
TestParameter, Measurement.Primary.Stop, 2
TestParameter, Measurement.Primary.Step, 0.04
TestParameter, Measurement.Primary.Compliance, 0.1
TestParameter, Measurement.Primary.PowerCompliance, 0
TestParameter, Measurement.Aborting.Condition, CONTINUE AT ANY
TestParameter, Measurement.PostOutput.Value, START
TestParameter, Measurement.PostOutput.Retention, OFF
TestParameter, Measurement.Bias.Source, 0, 0, -2, 0, 0
TestParameter, Measurement.Bias.Compliance, 0.1, 0.1, 0.1, 0.1, 0.1
TestParameter, Measurement.Monitor.Unit, SMU1:HP, SMU2:MP, SMU3:MP, SMU4:MP, SMU5:MP
TestParameter, Measurement.Monitor.Adc, HR ADC, HR ADC, HR ADC, HR ADC, HR ADC
TestParameter, Measurement.Monitor.Measurement, Compliance Side, Compliance Side, Compliance Side, Compliance Side, Compliance Side
TestParameter, Measurement.Monitor.RangingMode, LIMITED, LIMITED, LIMITED, LIMITED, LIMITED
TestParameter, Measurement.Monitor.RangeBoundary, 1nA, 1nA, 1nA, 1nA, 1nA
TestParameter, Measurement.Monitor.RangeRating, BY FULL RANGE, BY FULL RANGE, BY FULL RANGE, BY FULL RANGE, BY FULL RANGE
TestParameter, Measurement.Monitor.RangeRatingCoeff, 50, 50, 50, 50, 50
TestParameter, Measurement.Timing.Hold, 0
TestParameter, Measurement.Timing.Delay, 0
TestParameter, Measurement.Adc.HighSpeed.Mode, AUTO
TestParameter, Measurement.Adc.HighSpeed.Coeff, 1
TestParameter, Measurement.Adc.HighResolution.AutoZero, OFF
TestParameter, Measurement.Adc.HighResolution.Mode, AUTO
TestParameter, Measurement.Adc.HighResolution.Coeff, 6
TestParameter, Measurement.WaitTime.Source.Coeff, 1
TestParameter, Measurement.WaitTime.Source.Offset, 0
TestParameter, Measurement.WaitTime.Monitor.Coeff, 1
TestParameter, Measurement.WaitTime.Monitor.Offset, 0
TestParameter, Output.Graph.Enabled, true
TestParameter, Output.Graph.AutoScaling, false
TestParameter, Output.Graph.XAxis.Data, VDD2
TestParameter, Output.Graph.XAxis.Scale, Linear
TestParameter, Output.Graph.XAxis.Left, -2
TestParameter, Output.Graph.XAxis.Right, 2
TestParameter, Output.Graph.XAxis.RunTimeAutoScale, true
TestParameter, Output.Graph.YAxis.Data, IDD2
TestParameter, Output.Graph.YAxis.Scale, Linear
TestParameter, Output.Graph.YAxis.Bottom, -0.1
TestParameter, Output.Graph.YAxis.Top, 0.1
TestParameter, Output.Graph.YAxis.Group, 
TestParameter, Output.Graph.YAxis.RunTimeAutoScale, true
TestParameter, AutoAnalysis.Interpolation, false
TestParameter, AutoAnalysis.Var2StepCount, 1
TestParameter, AutoAnalysis.Var2StepScript, 
TestParameter, AutoAnalysis.Line1.Enabled, false
TestParameter, AutoAnalysis.Line1.Type, 1
TestParameter, AutoAnalysis.Line1.Fix, True
TestParameter, AutoAnalysis.Line1.YAxis, 0
TestParameter, AutoAnalysis.Line1.Point1.Type, 0
TestParameter, AutoAnalysis.Line1.Point1.XY.X, 
TestParameter, AutoAnalysis.Line1.Point1.XY.Y, 
TestParameter, AutoAnalysis.Line1.Point1.Data.Var, 
TestParameter, AutoAnalysis.Line1.Point1.Data.Condition, 
TestParameter, AutoAnalysis.Line1.Point1.Data.Start, false
TestParameter, AutoAnalysis.Line1.Point1.Data.StartVar, 
TestParameter, AutoAnalysis.Line1.Point1.Data.StartCondition, 
TestParameter, AutoAnalysis.Line1.Point2.Type, 0
TestParameter, AutoAnalysis.Line1.Point2.XY.X, 
TestParameter, AutoAnalysis.Line1.Point2.XY.Y, 
TestParameter, AutoAnalysis.Line1.Point2.Data.Var, 
TestParameter, AutoAnalysis.Line1.Point2.Data.Condition, 
TestParameter, AutoAnalysis.Line1.Point2.Data.Start, false
TestParameter, AutoAnalysis.Line1.Point2.Data.StartVar, 
TestParameter, AutoAnalysis.Line1.Point2.Data.StartCondition, 
TestParameter, AutoAnalysis.Line1.GradientExpr, 0
TestParameter, AutoAnalysis.Line2.Enabled, false
TestParameter, AutoAnalysis.Line2.Type, 1
TestParameter, AutoAnalysis.Line2.Fix, True
TestParameter, AutoAnalysis.Line2.YAxis, 0
TestParameter, AutoAnalysis.Line2.Point1.Type, 0
TestParameter, AutoAnalysis.Line2.Point1.XY.X, 
TestParameter, AutoAnalysis.Line2.Point1.XY.Y, 
TestParameter, AutoAnalysis.Line2.Point1.Data.Var, 
TestParameter, AutoAnalysis.Line2.Point1.Data.Condition, 
TestParameter, AutoAnalysis.Line2.Point1.Data.Start, false
TestParameter, AutoAnalysis.Line2.Point1.Data.StartVar, 
TestParameter, AutoAnalysis.Line2.Point1.Data.StartCondition, 
TestParameter, AutoAnalysis.Line2.Point2.Type, 0
TestParameter, AutoAnalysis.Line2.Point2.XY.X, 
TestParameter, AutoAnalysis.Line2.Point2.XY.Y, 
TestParameter, AutoAnalysis.Line2.Point2.Data.Var, 
TestParameter, AutoAnalysis.Line2.Point2.Data.Condition, 
TestParameter, AutoAnalysis.Line2.Point2.Data.Start, false
TestParameter, AutoAnalysis.Line2.Point2.Data.StartVar, 
TestParameter, AutoAnalysis.Line2.Point2.Data.StartCondition, 
TestParameter, AutoAnalysis.Line2.GradientExpr, 0
TestParameter, AutoAnalysis.Marker.Enabled, false
TestParameter, AutoAnalysis.Marker.Data.Var, 
TestParameter, AutoAnalysis.Marker.Data.Condition, 
TestParameter, AutoAnalysis.Marker.Data.Start, false
TestParameter, AutoAnalysis.Marker.Data.StartVar, 
TestParameter, AutoAnalysis.Marker.Data.StartCondition, 
MetaData, TestRecord.EntryPoint, true
MetaData, TestRecord.RecordTime, 10/19/2022 13:15:24
MetaData, TestRecord.TestTarget, 
MetaData, TestRecord.IterationIndex, 267
MetaData, TestRecord.Preservation, true
MetaData, TestRecord.Flag, 
MetaData, TestRecord.Remarks, 
MetaData, TestRecord.LinkKey, a1fd268f-2a6d-41e1-ad91-bf7609ab7377
MetaData, TestRecord.Parameters, 
Dimension1, 101, 101
Dimension2, 1, 1
DataName, VDD2, IDD2
DataValue, -2, -0.0083910000000000009
DataValue, -1.9600000000000002, -0.0077462
DataValue, -1.9200000000000002, -0.0071388
DataValue, -1.8800000000000001, -0.006568
DataValue, -1.84, -0.006035
DataValue, -1.8, -0.0055374000000000005
DataValue, -1.76, -0.0050746
DataValue, -1.72, -0.004644
DataValue, -1.6800000000000002, -0.0042456
DataValue, -1.6400000000000001, -0.0038754
DataValue, -1.6, -0.003538
DataValue, -1.56, -0.003221
DataValue, -1.52, -0.0029306000000000002
DataValue, -1.48, -0.0026636
DataValue, -1.4400000000000002, -0.0024142
DataValue, -1.4000000000000001, -0.0021834
DataValue, -1.36, -0.0019712
DataValue, -1.32, -0.001774
DataValue, -1.28, -0.0015916
DataValue, -1.24, -0.0014248
DataValue, -1.2, -0.0012692
DataValue, -1.1600000000000001, -0.0011272
DataValue, -1.12, -0.00100814
DataValue, -1.08, -0.00088188
DataValue, -1.04, -0.00076986
DataValue, -1, -0.00066464000000000009
DataValue, -0.96000000000000008, -0.00056622
DataValue, -0.92, -0.00047486
DataValue, -0.88, -0.00038516
DataValue, -0.84000000000000008, -0.00030038
DataValue, -0.8, -0.00022532000000000002
DataValue, -0.76, -0.00015088000000000002
DataValue, -0.72000000000000008, -9.1828E-05
DataValue, -0.68, -4.3586E-05
DataValue, -0.64, -1.7116E-05
DataValue, -0.6, -6.7447000000000008E-06
DataValue, -0.56, -2.5625000000000005E-06
DataValue, -0.52, -9.587E-07
DataValue, -0.48000000000000004, 1.0814000000000001E-06
DataValue, -0.44, 2.6958E-06
DataValue, -0.4, 4.0927000000000006E-06
DataValue, -0.36000000000000004, 5.2259E-06
DataValue, -0.32, 6.1958000000000009E-06
DataValue, -0.28, 7.0642000000000009E-06
DataValue, -0.24000000000000002, 7.7856E-06
DataValue, -0.2, 8.4046E-06
DataValue, -0.16, 8.9193000000000012E-06
DataValue, -0.12000000000000001, 9.4756000000000012E-06
DataValue, -0.08, 1.0442000000000001E-05
DataValue, -0.04, 1.5306000000000002E-05
DataValue, 0, 2.008E-05
DataValue, 0.04, 2.5416000000000002E-05
DataValue, 0.08, 3.1588E-05
DataValue, 0.12000000000000001, 3.8404E-05
DataValue, 0.16, 4.6240000000000005E-05
DataValue, 0.2, 5.5674E-05
DataValue, 0.24000000000000002, 6.3258E-05
DataValue, 0.28, 7.4256E-05
DataValue, 0.32, 8.4236E-05
DataValue, 0.36000000000000004, 9.0562E-05
DataValue, 0.4, 0.000100964
DataValue, 0.44, 4.9106E-05
DataValue, 0.48000000000000004, 6.079E-05
DataValue, 0.52, 7.323E-05
DataValue, 0.56, 8.8254E-05
DataValue, 0.6, 0.00010558
DataValue, 0.64, 0.00010518
DataValue, 0.68, 0.0001566
DataValue, 0.72000000000000008, 0.00023868
DataValue, 0.76, 0.00036258000000000004
DataValue, 0.8, 0.00054536
DataValue, 0.84000000000000008, 0.00080678
DataValue, 0.88, 0.001158
DataValue, 0.92, 0.0016324
DataValue, 0.96000000000000008, 0.0022164
DataValue, 1, 0.0029086
DataValue, 1.04, 0.003692
DataValue, 1.08, 0.0045684
DataValue, 1.12, 0.0055212
DataValue, 1.1600000000000001, 0.0065328
DataValue, 1.2, 0.0075944
DataValue, 1.24, 0.0087048
DataValue, 1.28, 0.009849
DataValue, 1.32, 0.0110344
DataValue, 1.36, 0.01221
DataValue, 1.4000000000000001, 0.013448000000000002
DataValue, 1.4400000000000002, 0.014688000000000001
DataValue, 1.48, 0.015952
DataValue, 1.52, 0.017194
DataValue, 1.56, 0.018464
DataValue, 1.6, 0.019700000000000002
DataValue, 1.6400000000000001, 0.020964000000000003
DataValue, 1.6800000000000002, 0.022202000000000003
DataValue, 1.72, 0.023474000000000002
DataValue, 1.76, 0.024718000000000004
DataValue, 1.8, 0.025946000000000004
DataValue, 1.84, 0.027156000000000003
DataValue, 1.8800000000000001, 0.028304000000000003
DataValue, 1.9200000000000002, 0.028776000000000003
DataValue, 1.9600000000000002, 0.028652000000000004
DataValue, 2, 0.030702000000000004