
SetupTitle, I/V Sweep
PrimitiveTest, I/V Sweep
TestParameter, Context.MainFrame, B1500A
TestParameter, Channel.UnitType, SMU, SMU, SMU, SMU, SMU
TestParameter, Channel.Unit, SMU1:HP, SMU2:MP, SMU3:MP, SMU4:MP, SMU5:MP
TestParameter, Channel.IName, I, IDD1, IDD2, ISS, IPP
TestParameter, Channel.VName, V, VDD1, VDD2, VSS, VPP
TestParameter, Channel.Mode, V, V, V, V, V
TestParameter, Channel.Func, VAR1, CONST, CONST, CONST, CONST
TestParameter, Channel.Index, 
TestParameter, Channel.Time, 
TestParameter, Measurement.Port.Unit, SMU1:HP, SMU2:MP, SMU3:MP, SMU4:MP, SMU5:MP
TestParameter, Measurement.Port.SeriesResistor, NONE, NONE, NONE, NONE, NONE
TestParameter, Measurement.Port.Filter, ON, ON, ON, ON, ON
TestParameter, Measurement.Port.OutputVoltageComparison, 0, 0, 0, 0, 0
TestParameter, Measurement.Primary.Locus, Single
TestParameter, Measurement.Primary.Scale, LINEAR
TestParameter, Measurement.Primary.Start, -2
TestParameter, Measurement.Primary.Stop, 2
TestParameter, Measurement.Primary.Step, 0.04
TestParameter, Measurement.Primary.Compliance, 0.1
TestParameter, Measurement.Primary.PowerCompliance, 0
TestParameter, Measurement.Aborting.Condition, CONTINUE AT ANY
TestParameter, Measurement.PostOutput.Value, START
TestParameter, Measurement.PostOutput.Retention, OFF
TestParameter, Measurement.Bias.Source, -2, 1.8, 1.1, 0, 0
TestParameter, Measurement.Bias.Compliance, 0.1, 0.1, 0.1, 0.1, 0.1
TestParameter, Measurement.Monitor.Unit, SMU1:HP, SMU2:MP, SMU3:MP, SMU4:MP, SMU5:MP
TestParameter, Measurement.Monitor.Adc, HR ADC, HR ADC, HR ADC, HR ADC, HR ADC
TestParameter, Measurement.Monitor.Measurement, Compliance Side, Compliance Side, Compliance Side, Compliance Side, Compliance Side
TestParameter, Measurement.Monitor.RangingMode, LIMITED, LIMITED, LIMITED, LIMITED, LIMITED
TestParameter, Measurement.Monitor.RangeBoundary, 1nA, 1nA, 1nA, 1nA, 1nA
TestParameter, Measurement.Monitor.RangeRating, BY FULL RANGE, BY FULL RANGE, BY FULL RANGE, BY FULL RANGE, BY FULL RANGE
TestParameter, Measurement.Monitor.RangeRatingCoeff, 50, 50, 50, 50, 50
TestParameter, Measurement.Timing.Hold, 0
TestParameter, Measurement.Timing.Delay, 0
TestParameter, Measurement.Adc.HighSpeed.Mode, AUTO
TestParameter, Measurement.Adc.HighSpeed.Coeff, 1
TestParameter, Measurement.Adc.HighResolution.AutoZero, OFF
TestParameter, Measurement.Adc.HighResolution.Mode, AUTO
TestParameter, Measurement.Adc.HighResolution.Coeff, 6
TestParameter, Measurement.WaitTime.Source.Coeff, 1
TestParameter, Measurement.WaitTime.Source.Offset, 0
TestParameter, Measurement.WaitTime.Monitor.Coeff, 1
TestParameter, Measurement.WaitTime.Monitor.Offset, 0
TestParameter, Output.Graph.Enabled, true
TestParameter, Output.Graph.AutoScaling, false
TestParameter, Output.Graph.XAxis.Data, V
TestParameter, Output.Graph.XAxis.Scale, Linear
TestParameter, Output.Graph.XAxis.Left, -2
TestParameter, Output.Graph.XAxis.Right, 2
TestParameter, Output.Graph.XAxis.RunTimeAutoScale, true
TestParameter, Output.Graph.YAxis.Data, I
TestParameter, Output.Graph.YAxis.Scale, Linear
TestParameter, Output.Graph.YAxis.Bottom, -0.1
TestParameter, Output.Graph.YAxis.Top, 0.1
TestParameter, Output.Graph.YAxis.Group, 
TestParameter, Output.Graph.YAxis.RunTimeAutoScale, true
TestParameter, AutoAnalysis.Interpolation, false
TestParameter, AutoAnalysis.Var2StepCount, 1
TestParameter, AutoAnalysis.Var2StepScript, 
TestParameter, AutoAnalysis.Line1.Enabled, false
TestParameter, AutoAnalysis.Line1.Type, 1
TestParameter, AutoAnalysis.Line1.Fix, True
TestParameter, AutoAnalysis.Line1.YAxis, 0
TestParameter, AutoAnalysis.Line1.Point1.Type, 0
TestParameter, AutoAnalysis.Line1.Point1.XY.X, 
TestParameter, AutoAnalysis.Line1.Point1.XY.Y, 
TestParameter, AutoAnalysis.Line1.Point1.Data.Var, 
TestParameter, AutoAnalysis.Line1.Point1.Data.Condition, 
TestParameter, AutoAnalysis.Line1.Point1.Data.Start, false
TestParameter, AutoAnalysis.Line1.Point1.Data.StartVar, 
TestParameter, AutoAnalysis.Line1.Point1.Data.StartCondition, 
TestParameter, AutoAnalysis.Line1.Point2.Type, 0
TestParameter, AutoAnalysis.Line1.Point2.XY.X, 
TestParameter, AutoAnalysis.Line1.Point2.XY.Y, 
TestParameter, AutoAnalysis.Line1.Point2.Data.Var, 
TestParameter, AutoAnalysis.Line1.Point2.Data.Condition, 
TestParameter, AutoAnalysis.Line1.Point2.Data.Start, false
TestParameter, AutoAnalysis.Line1.Point2.Data.StartVar, 
TestParameter, AutoAnalysis.Line1.Point2.Data.StartCondition, 
TestParameter, AutoAnalysis.Line1.GradientExpr, 0
TestParameter, AutoAnalysis.Line2.Enabled, false
TestParameter, AutoAnalysis.Line2.Type, 1
TestParameter, AutoAnalysis.Line2.Fix, True
TestParameter, AutoAnalysis.Line2.YAxis, 0
TestParameter, AutoAnalysis.Line2.Point1.Type, 0
TestParameter, AutoAnalysis.Line2.Point1.XY.X, 
TestParameter, AutoAnalysis.Line2.Point1.XY.Y, 
TestParameter, AutoAnalysis.Line2.Point1.Data.Var, 
TestParameter, AutoAnalysis.Line2.Point1.Data.Condition, 
TestParameter, AutoAnalysis.Line2.Point1.Data.Start, false
TestParameter, AutoAnalysis.Line2.Point1.Data.StartVar, 
TestParameter, AutoAnalysis.Line2.Point1.Data.StartCondition, 
TestParameter, AutoAnalysis.Line2.Point2.Type, 0
TestParameter, AutoAnalysis.Line2.Point2.XY.X, 
TestParameter, AutoAnalysis.Line2.Point2.XY.Y, 
TestParameter, AutoAnalysis.Line2.Point2.Data.Var, 
TestParameter, AutoAnalysis.Line2.Point2.Data.Condition, 
TestParameter, AutoAnalysis.Line2.Point2.Data.Start, false
TestParameter, AutoAnalysis.Line2.Point2.Data.StartVar, 
TestParameter, AutoAnalysis.Line2.Point2.Data.StartCondition, 
TestParameter, AutoAnalysis.Line2.GradientExpr, 0
TestParameter, AutoAnalysis.Marker.Enabled, false
TestParameter, AutoAnalysis.Marker.Data.Var, 
TestParameter, AutoAnalysis.Marker.Data.Condition, 
TestParameter, AutoAnalysis.Marker.Data.Start, false
TestParameter, AutoAnalysis.Marker.Data.StartVar, 
TestParameter, AutoAnalysis.Marker.Data.StartCondition, 
MetaData, TestRecord.EntryPoint, true
MetaData, TestRecord.RecordTime, 10/19/2022 13:28:13
MetaData, TestRecord.TestTarget, 
MetaData, TestRecord.IterationIndex, 290
MetaData, TestRecord.Preservation, true
MetaData, TestRecord.Flag, 
MetaData, TestRecord.Remarks, 
MetaData, TestRecord.LinkKey, ca1584c8-27e5-4610-bd2f-6f226ccc2af2
MetaData, TestRecord.Parameters, 
Dimension1, 101, 101
Dimension2, 1, 1
DataName, V, I
DataValue, -2, -0.039182
DataValue, -1.9600000000000002, -0.038472000000000006
DataValue, -1.9200000000000002, -0.037912
DataValue, -1.8800000000000001, -0.036300000000000006
DataValue, -1.84, -0.035212
DataValue, -1.8, -0.034612000000000004
DataValue, -1.76, -0.033824
DataValue, -1.72, -0.033184000000000005
DataValue, -1.6800000000000002, -0.032416
DataValue, -1.6400000000000001, -0.03164
DataValue, -1.6, -0.030856
DataValue, -1.56, -0.030058
DataValue, -1.52, -0.02926
DataValue, -1.48, -0.028442000000000002
DataValue, -1.4400000000000002, -0.027648000000000002
DataValue, -1.4000000000000001, -0.026852
DataValue, -1.36, -0.026050000000000004
DataValue, -1.32, -0.025236
DataValue, -1.28, -0.024436000000000003
DataValue, -1.24, -0.023636
DataValue, -1.2, -0.022836000000000002
DataValue, -1.1600000000000001, -0.022032000000000003
DataValue, -1.12, -0.021240000000000002
DataValue, -1.08, -0.020426000000000003
DataValue, -1.04, -0.019646
DataValue, -1, -0.018878000000000002
DataValue, -0.96000000000000008, -0.018088
DataValue, -0.92, -0.017296000000000002
DataValue, -0.88, -0.016528
DataValue, -0.84000000000000008, -0.015808000000000003
DataValue, -0.8, -0.015094000000000002
DataValue, -0.76, -0.014386000000000001
DataValue, -0.72000000000000008, -0.013702
DataValue, -0.68, -0.013066000000000001
DataValue, -0.64, -0.012522000000000002
DataValue, -0.6, -0.011988
DataValue, -0.56, -0.011274000000000001
DataValue, -0.52, -0.010696
DataValue, -0.48000000000000004, -0.010286000000000002
DataValue, -0.44, -0.0096738
DataValue, -0.4, -0.0091802
DataValue, -0.36000000000000004, -0.0086632
DataValue, -0.32, -0.0082666
DataValue, -0.28, -0.007752
DataValue, -0.24000000000000002, -0.0071846
DataValue, -0.2, -0.0068042
DataValue, -0.16, -0.0062966
DataValue, -0.12000000000000001, -0.0058318
DataValue, -0.08, -0.0054082
DataValue, -0.04, -0.0048994
DataValue, 0, -0.0045108
DataValue, 0.04, -0.0040908
DataValue, 0.08, -0.0036844
DataValue, 0.12000000000000001, -0.0032898000000000003
DataValue, 0.16, -0.002922
DataValue, 0.2, -0.0025356000000000003
DataValue, 0.24000000000000002, -0.0021922
DataValue, 0.28, -0.0018692000000000001
DataValue, 0.32, -0.0015698
DataValue, 0.36000000000000004, -0.0012956
DataValue, 0.4, -0.0010526
DataValue, 0.44, -0.00083090000000000008
DataValue, 0.48000000000000004, -0.00064386
DataValue, 0.52, -0.00049766
DataValue, 0.56, -0.00036716
DataValue, 0.6, -0.00026294
DataValue, 0.64, -0.00019002
DataValue, 0.68, -0.00013010000000000002
DataValue, 0.72000000000000008, -8.9452E-05
DataValue, 0.76, -6.1618E-05
DataValue, 0.8, -4.3116E-05
DataValue, 0.84000000000000008, -3.0396000000000002E-05
DataValue, 0.88, -2.12E-05
DataValue, 0.92, -1.4174E-05
DataValue, 0.96000000000000008, -9.4928000000000017E-06
DataValue, 1, -4.8456000000000007E-06
DataValue, 1.04, -1.8172000000000002E-06
DataValue, 1.08, -3.0924E-07
DataValue, 1.12, 8.4283999999999994E-07
DataValue, 1.1600000000000001, 1.2956000000000001E-06
DataValue, 1.2, 1.6336000000000001E-06
DataValue, 1.24, 1.9429E-06
DataValue, 1.28, 2.3288E-06
DataValue, 1.32, 2.9060000000000002E-06
DataValue, 1.36, 3.9053000000000005E-06
DataValue, 1.4000000000000001, 5.6888000000000005E-06
DataValue, 1.4400000000000002, 9.3242000000000013E-06
DataValue, 1.48, 1.6324E-05
DataValue, 1.52, 3.0334E-05
DataValue, 1.56, 5.4598E-05
DataValue, 1.6, 9.465E-05
DataValue, 1.6400000000000001, 0.00014888
DataValue, 1.6800000000000002, 0.00022994
DataValue, 1.72, 0.00033238
DataValue, 1.76, 0.00045548
DataValue, 1.8, 0.00059660000000000008
DataValue, 1.84, 0.0007548600000000001
DataValue, 1.8800000000000001, 0.00092874000000000006
DataValue, 1.9200000000000002, 0.00111498
DataValue, 1.9600000000000002, 0.0013066
DataValue, 2, 0.0015142