
SetupTitle, I/V Sweep
PrimitiveTest, I/V Sweep
TestParameter, Context.MainFrame, B1500A
TestParameter, Channel.UnitType, SMU, SMU, SMU, SMU, SMU
TestParameter, Channel.Unit, SMU1:HP, SMU2:MP, SMU3:MP, SMU4:MP, SMU5:MP
TestParameter, Channel.IName, I, IDD1, IDD2, ISS, IPP
TestParameter, Channel.VName, V, VDD1, VDD2, VSS, VPP
TestParameter, Channel.Mode, V, V, V, V, V
TestParameter, Channel.Func, VAR1, CONST, CONST, CONST, CONST
TestParameter, Channel.Index, 
TestParameter, Channel.Time, 
TestParameter, Measurement.Port.Unit, SMU1:HP, SMU2:MP, SMU3:MP, SMU4:MP, SMU5:MP
TestParameter, Measurement.Port.SeriesResistor, NONE, NONE, NONE, NONE, NONE
TestParameter, Measurement.Port.Filter, ON, ON, ON, ON, ON
TestParameter, Measurement.Port.OutputVoltageComparison, 0, 0, 0, 0, 0
TestParameter, Measurement.Primary.Locus, Single
TestParameter, Measurement.Primary.Scale, LINEAR
TestParameter, Measurement.Primary.Start, -2
TestParameter, Measurement.Primary.Stop, 2
TestParameter, Measurement.Primary.Step, 0.04
TestParameter, Measurement.Primary.Compliance, 0.1
TestParameter, Measurement.Primary.PowerCompliance, 0
TestParameter, Measurement.Aborting.Condition, CONTINUE AT ANY
TestParameter, Measurement.PostOutput.Value, START
TestParameter, Measurement.PostOutput.Retention, OFF
TestParameter, Measurement.Bias.Source, -2, 1.8, 1.1, 0, 0
TestParameter, Measurement.Bias.Compliance, 0.1, 0.1, 0.1, 0.1, 0.1
TestParameter, Measurement.Monitor.Unit, SMU1:HP, SMU2:MP, SMU3:MP, SMU4:MP, SMU5:MP
TestParameter, Measurement.Monitor.Adc, HR ADC, HR ADC, HR ADC, HR ADC, HR ADC
TestParameter, Measurement.Monitor.Measurement, Compliance Side, Compliance Side, Compliance Side, Compliance Side, Compliance Side
TestParameter, Measurement.Monitor.RangingMode, LIMITED, LIMITED, LIMITED, LIMITED, LIMITED
TestParameter, Measurement.Monitor.RangeBoundary, 1nA, 1nA, 1nA, 1nA, 1nA
TestParameter, Measurement.Monitor.RangeRating, BY FULL RANGE, BY FULL RANGE, BY FULL RANGE, BY FULL RANGE, BY FULL RANGE
TestParameter, Measurement.Monitor.RangeRatingCoeff, 50, 50, 50, 50, 50
TestParameter, Measurement.Timing.Hold, 0
TestParameter, Measurement.Timing.Delay, 0
TestParameter, Measurement.Adc.HighSpeed.Mode, AUTO
TestParameter, Measurement.Adc.HighSpeed.Coeff, 1
TestParameter, Measurement.Adc.HighResolution.AutoZero, OFF
TestParameter, Measurement.Adc.HighResolution.Mode, AUTO
TestParameter, Measurement.Adc.HighResolution.Coeff, 6
TestParameter, Measurement.WaitTime.Source.Coeff, 1
TestParameter, Measurement.WaitTime.Source.Offset, 0
TestParameter, Measurement.WaitTime.Monitor.Coeff, 1
TestParameter, Measurement.WaitTime.Monitor.Offset, 0
TestParameter, Output.Graph.Enabled, true
TestParameter, Output.Graph.AutoScaling, false
TestParameter, Output.Graph.XAxis.Data, V
TestParameter, Output.Graph.XAxis.Scale, Linear
TestParameter, Output.Graph.XAxis.Left, -2
TestParameter, Output.Graph.XAxis.Right, 2
TestParameter, Output.Graph.XAxis.RunTimeAutoScale, true
TestParameter, Output.Graph.YAxis.Data, I
TestParameter, Output.Graph.YAxis.Scale, Linear
TestParameter, Output.Graph.YAxis.Bottom, -0.1
TestParameter, Output.Graph.YAxis.Top, 0.1
TestParameter, Output.Graph.YAxis.Group, 
TestParameter, Output.Graph.YAxis.RunTimeAutoScale, true
TestParameter, AutoAnalysis.Interpolation, false
TestParameter, AutoAnalysis.Var2StepCount, 1
TestParameter, AutoAnalysis.Var2StepScript, 
TestParameter, AutoAnalysis.Line1.Enabled, false
TestParameter, AutoAnalysis.Line1.Type, 1
TestParameter, AutoAnalysis.Line1.Fix, True
TestParameter, AutoAnalysis.Line1.YAxis, 0
TestParameter, AutoAnalysis.Line1.Point1.Type, 0
TestParameter, AutoAnalysis.Line1.Point1.XY.X, 
TestParameter, AutoAnalysis.Line1.Point1.XY.Y, 
TestParameter, AutoAnalysis.Line1.Point1.Data.Var, 
TestParameter, AutoAnalysis.Line1.Point1.Data.Condition, 
TestParameter, AutoAnalysis.Line1.Point1.Data.Start, false
TestParameter, AutoAnalysis.Line1.Point1.Data.StartVar, 
TestParameter, AutoAnalysis.Line1.Point1.Data.StartCondition, 
TestParameter, AutoAnalysis.Line1.Point2.Type, 0
TestParameter, AutoAnalysis.Line1.Point2.XY.X, 
TestParameter, AutoAnalysis.Line1.Point2.XY.Y, 
TestParameter, AutoAnalysis.Line1.Point2.Data.Var, 
TestParameter, AutoAnalysis.Line1.Point2.Data.Condition, 
TestParameter, AutoAnalysis.Line1.Point2.Data.Start, false
TestParameter, AutoAnalysis.Line1.Point2.Data.StartVar, 
TestParameter, AutoAnalysis.Line1.Point2.Data.StartCondition, 
TestParameter, AutoAnalysis.Line1.GradientExpr, 0
TestParameter, AutoAnalysis.Line2.Enabled, false
TestParameter, AutoAnalysis.Line2.Type, 1
TestParameter, AutoAnalysis.Line2.Fix, True
TestParameter, AutoAnalysis.Line2.YAxis, 0
TestParameter, AutoAnalysis.Line2.Point1.Type, 0
TestParameter, AutoAnalysis.Line2.Point1.XY.X, 
TestParameter, AutoAnalysis.Line2.Point1.XY.Y, 
TestParameter, AutoAnalysis.Line2.Point1.Data.Var, 
TestParameter, AutoAnalysis.Line2.Point1.Data.Condition, 
TestParameter, AutoAnalysis.Line2.Point1.Data.Start, false
TestParameter, AutoAnalysis.Line2.Point1.Data.StartVar, 
TestParameter, AutoAnalysis.Line2.Point1.Data.StartCondition, 
TestParameter, AutoAnalysis.Line2.Point2.Type, 0
TestParameter, AutoAnalysis.Line2.Point2.XY.X, 
TestParameter, AutoAnalysis.Line2.Point2.XY.Y, 
TestParameter, AutoAnalysis.Line2.Point2.Data.Var, 
TestParameter, AutoAnalysis.Line2.Point2.Data.Condition, 
TestParameter, AutoAnalysis.Line2.Point2.Data.Start, false
TestParameter, AutoAnalysis.Line2.Point2.Data.StartVar, 
TestParameter, AutoAnalysis.Line2.Point2.Data.StartCondition, 
TestParameter, AutoAnalysis.Line2.GradientExpr, 0
TestParameter, AutoAnalysis.Marker.Enabled, false
TestParameter, AutoAnalysis.Marker.Data.Var, 
TestParameter, AutoAnalysis.Marker.Data.Condition, 
TestParameter, AutoAnalysis.Marker.Data.Start, false
TestParameter, AutoAnalysis.Marker.Data.StartVar, 
TestParameter, AutoAnalysis.Marker.Data.StartCondition, 
MetaData, TestRecord.EntryPoint, true
MetaData, TestRecord.RecordTime, 10/19/2022 13:27:01
MetaData, TestRecord.TestTarget, 
MetaData, TestRecord.IterationIndex, 287
MetaData, TestRecord.Preservation, true
MetaData, TestRecord.Flag, 
MetaData, TestRecord.Remarks, 
MetaData, TestRecord.LinkKey, c18a016b-5f0f-41d6-ae9e-d02bbbcf2090
MetaData, TestRecord.Parameters, 
Dimension1, 101, 101
Dimension2, 1, 1
DataName, V, I
DataValue, -2, -0.035460000000000005
DataValue, -1.9600000000000002, -0.035032
DataValue, -1.9200000000000002, -0.03432
DataValue, -1.8800000000000001, -0.033228
DataValue, -1.84, -0.032562
DataValue, -1.8, -0.031880000000000006
DataValue, -1.76, -0.031784
DataValue, -1.72, -0.030940000000000002
DataValue, -1.6800000000000002, -0.030082
DataValue, -1.6400000000000001, -0.029148000000000004
DataValue, -1.6, -0.028182000000000002
DataValue, -1.56, -0.027266000000000002
DataValue, -1.52, -0.026556000000000003
DataValue, -1.48, -0.02585
DataValue, -1.4400000000000002, -0.025158000000000003
DataValue, -1.4000000000000001, -0.024456000000000002
DataValue, -1.36, -0.023752000000000002
DataValue, -1.32, -0.023048000000000003
DataValue, -1.28, -0.022342
DataValue, -1.24, -0.021626000000000003
DataValue, -1.2, -0.020926
DataValue, -1.1600000000000001, -0.02023
DataValue, -1.12, -0.019484
DataValue, -1.08, -0.018826000000000002
DataValue, -1.04, -0.018136000000000003
DataValue, -1, -0.017418000000000003
DataValue, -0.96000000000000008, -0.016758000000000002
DataValue, -0.92, -0.016072000000000003
DataValue, -0.88, -0.015422000000000002
DataValue, -0.84000000000000008, -0.014776000000000001
DataValue, -0.8, -0.014162000000000001
DataValue, -0.76, -0.013562000000000001
DataValue, -0.72000000000000008, -0.012932
DataValue, -0.68, -0.012356
DataValue, -0.64, -0.011826000000000001
DataValue, -0.6, -0.011294
DataValue, -0.56, -0.010806000000000001
DataValue, -0.52, -0.01029
DataValue, -0.48000000000000004, -0.0097096
DataValue, -0.44, -0.0092028
DataValue, -0.4, -0.008679000000000001
DataValue, -0.36000000000000004, -0.008223
DataValue, -0.32, -0.0078174
DataValue, -0.28, -0.007364
DataValue, -0.24000000000000002, -0.0069384
DataValue, -0.2, -0.0064326
DataValue, -0.16, -0.0059376
DataValue, -0.12000000000000001, -0.0054848
DataValue, -0.08, -0.0050862
DataValue, -0.04, -0.0046618
DataValue, 0, -0.004231
DataValue, 0.04, -0.0038876
DataValue, 0.08, -0.0034638
DataValue, 0.12000000000000001, -0.0031128
DataValue, 0.16, -0.0027276
DataValue, 0.2, -0.0023924000000000003
DataValue, 0.24000000000000002, -0.002109
DataValue, 0.28, -0.0017716000000000001
DataValue, 0.32, -0.0014808
DataValue, 0.36000000000000004, -0.0012292
DataValue, 0.4, -0.0009954
DataValue, 0.44, -0.00078922000000000009
DataValue, 0.48000000000000004, -0.00061962000000000009
DataValue, 0.52, -0.00046988000000000005
DataValue, 0.56, -0.0003511
DataValue, 0.6, -0.000257
DataValue, 0.64, -0.00018662
DataValue, 0.68, -0.00012728000000000002
DataValue, 0.72000000000000008, -8.7864E-05
DataValue, 0.76, -6.0228E-05
DataValue, 0.8, -4.2254E-05
DataValue, 0.84000000000000008, -2.9976000000000002E-05
DataValue, 0.88, -2.0806E-05
DataValue, 0.92, -1.3888E-05
DataValue, 0.96000000000000008, -9.3796E-06
DataValue, 1, -4.7962000000000008E-06
DataValue, 1.04, -1.8975000000000003E-06
DataValue, 1.08, -4.013E-07
DataValue, 1.12, 7.11E-07
DataValue, 1.1600000000000001, 1.10808E-06
DataValue, 1.2, 1.4897000000000001E-06
DataValue, 1.24, 1.7814000000000002E-06
DataValue, 1.28, 2.1575E-06
DataValue, 1.32, 2.7508000000000004E-06
DataValue, 1.36, 3.7706000000000004E-06
DataValue, 1.4000000000000001, 5.7436E-06
DataValue, 1.4400000000000002, 9.9053000000000015E-06
DataValue, 1.48, 1.7292E-05
DataValue, 1.52, 3.21E-05
DataValue, 1.56, 5.6958E-05
DataValue, 1.6, 9.6318000000000009E-05
DataValue, 1.6400000000000001, 0.00014910000000000002
DataValue, 1.6800000000000002, 0.00022956000000000002
DataValue, 1.72, 0.00033212000000000004
DataValue, 1.76, 0.00045526000000000003
DataValue, 1.8, 0.00059658
DataValue, 1.84, 0.00075244
DataValue, 1.8800000000000001, 0.00091664
DataValue, 1.9200000000000002, 0.00109134
DataValue, 1.9600000000000002, 0.0012718
DataValue, 2, 0.001472