
SetupTitle, I/V Sweep
PrimitiveTest, I/V Sweep
TestParameter, Context.MainFrame, B1500A
TestParameter, Channel.UnitType, SMU, SMU, SMU, SMU, SMU
TestParameter, Channel.Unit, SMU1:HP, SMU2:MP, SMU3:MP, SMU4:MP, SMU5:MP
TestParameter, Channel.IName, I, IDD1, IDD2, ISS, IPP
TestParameter, Channel.VName, V, VDD1, VDD2, VSS, VPP
TestParameter, Channel.Mode, V, V, V, V, V
TestParameter, Channel.Func, VAR1, CONST, CONST, CONST, CONST
TestParameter, Channel.Index, 
TestParameter, Channel.Time, 
TestParameter, Measurement.Port.Unit, SMU1:HP, SMU2:MP, SMU3:MP, SMU4:MP, SMU5:MP
TestParameter, Measurement.Port.SeriesResistor, NONE, NONE, NONE, NONE, NONE
TestParameter, Measurement.Port.Filter, ON, ON, ON, ON, ON
TestParameter, Measurement.Port.OutputVoltageComparison, 0, 0, 0, 0, 0
TestParameter, Measurement.Primary.Locus, Single
TestParameter, Measurement.Primary.Scale, LINEAR
TestParameter, Measurement.Primary.Start, -2
TestParameter, Measurement.Primary.Stop, 2
TestParameter, Measurement.Primary.Step, 0.04
TestParameter, Measurement.Primary.Compliance, 0.1
TestParameter, Measurement.Primary.PowerCompliance, 0
TestParameter, Measurement.Aborting.Condition, CONTINUE AT ANY
TestParameter, Measurement.PostOutput.Value, START
TestParameter, Measurement.PostOutput.Retention, OFF
TestParameter, Measurement.Bias.Source, -2, 1.8, 1.1, 0, 0
TestParameter, Measurement.Bias.Compliance, 0.1, 0.1, 0.1, 0.1, 0.1
TestParameter, Measurement.Monitor.Unit, SMU1:HP, SMU2:MP, SMU3:MP, SMU4:MP, SMU5:MP
TestParameter, Measurement.Monitor.Adc, HR ADC, HR ADC, HR ADC, HR ADC, HR ADC
TestParameter, Measurement.Monitor.Measurement, Compliance Side, Compliance Side, Compliance Side, Compliance Side, Compliance Side
TestParameter, Measurement.Monitor.RangingMode, LIMITED, LIMITED, LIMITED, LIMITED, LIMITED
TestParameter, Measurement.Monitor.RangeBoundary, 1nA, 1nA, 1nA, 1nA, 1nA
TestParameter, Measurement.Monitor.RangeRating, BY FULL RANGE, BY FULL RANGE, BY FULL RANGE, BY FULL RANGE, BY FULL RANGE
TestParameter, Measurement.Monitor.RangeRatingCoeff, 50, 50, 50, 50, 50
TestParameter, Measurement.Timing.Hold, 0
TestParameter, Measurement.Timing.Delay, 0
TestParameter, Measurement.Adc.HighSpeed.Mode, AUTO
TestParameter, Measurement.Adc.HighSpeed.Coeff, 1
TestParameter, Measurement.Adc.HighResolution.AutoZero, OFF
TestParameter, Measurement.Adc.HighResolution.Mode, AUTO
TestParameter, Measurement.Adc.HighResolution.Coeff, 6
TestParameter, Measurement.WaitTime.Source.Coeff, 1
TestParameter, Measurement.WaitTime.Source.Offset, 0
TestParameter, Measurement.WaitTime.Monitor.Coeff, 1
TestParameter, Measurement.WaitTime.Monitor.Offset, 0
TestParameter, Output.Graph.Enabled, true
TestParameter, Output.Graph.AutoScaling, false
TestParameter, Output.Graph.XAxis.Data, V
TestParameter, Output.Graph.XAxis.Scale, Linear
TestParameter, Output.Graph.XAxis.Left, -2
TestParameter, Output.Graph.XAxis.Right, 2
TestParameter, Output.Graph.XAxis.RunTimeAutoScale, true
TestParameter, Output.Graph.YAxis.Data, I
TestParameter, Output.Graph.YAxis.Scale, Linear
TestParameter, Output.Graph.YAxis.Bottom, -0.1
TestParameter, Output.Graph.YAxis.Top, 0.1
TestParameter, Output.Graph.YAxis.Group, 
TestParameter, Output.Graph.YAxis.RunTimeAutoScale, true
TestParameter, AutoAnalysis.Interpolation, false
TestParameter, AutoAnalysis.Var2StepCount, 1
TestParameter, AutoAnalysis.Var2StepScript, 
TestParameter, AutoAnalysis.Line1.Enabled, false
TestParameter, AutoAnalysis.Line1.Type, 1
TestParameter, AutoAnalysis.Line1.Fix, True
TestParameter, AutoAnalysis.Line1.YAxis, 0
TestParameter, AutoAnalysis.Line1.Point1.Type, 0
TestParameter, AutoAnalysis.Line1.Point1.XY.X, 
TestParameter, AutoAnalysis.Line1.Point1.XY.Y, 
TestParameter, AutoAnalysis.Line1.Point1.Data.Var, 
TestParameter, AutoAnalysis.Line1.Point1.Data.Condition, 
TestParameter, AutoAnalysis.Line1.Point1.Data.Start, false
TestParameter, AutoAnalysis.Line1.Point1.Data.StartVar, 
TestParameter, AutoAnalysis.Line1.Point1.Data.StartCondition, 
TestParameter, AutoAnalysis.Line1.Point2.Type, 0
TestParameter, AutoAnalysis.Line1.Point2.XY.X, 
TestParameter, AutoAnalysis.Line1.Point2.XY.Y, 
TestParameter, AutoAnalysis.Line1.Point2.Data.Var, 
TestParameter, AutoAnalysis.Line1.Point2.Data.Condition, 
TestParameter, AutoAnalysis.Line1.Point2.Data.Start, false
TestParameter, AutoAnalysis.Line1.Point2.Data.StartVar, 
TestParameter, AutoAnalysis.Line1.Point2.Data.StartCondition, 
TestParameter, AutoAnalysis.Line1.GradientExpr, 0
TestParameter, AutoAnalysis.Line2.Enabled, false
TestParameter, AutoAnalysis.Line2.Type, 1
TestParameter, AutoAnalysis.Line2.Fix, True
TestParameter, AutoAnalysis.Line2.YAxis, 0
TestParameter, AutoAnalysis.Line2.Point1.Type, 0
TestParameter, AutoAnalysis.Line2.Point1.XY.X, 
TestParameter, AutoAnalysis.Line2.Point1.XY.Y, 
TestParameter, AutoAnalysis.Line2.Point1.Data.Var, 
TestParameter, AutoAnalysis.Line2.Point1.Data.Condition, 
TestParameter, AutoAnalysis.Line2.Point1.Data.Start, false
TestParameter, AutoAnalysis.Line2.Point1.Data.StartVar, 
TestParameter, AutoAnalysis.Line2.Point1.Data.StartCondition, 
TestParameter, AutoAnalysis.Line2.Point2.Type, 0
TestParameter, AutoAnalysis.Line2.Point2.XY.X, 
TestParameter, AutoAnalysis.Line2.Point2.XY.Y, 
TestParameter, AutoAnalysis.Line2.Point2.Data.Var, 
TestParameter, AutoAnalysis.Line2.Point2.Data.Condition, 
TestParameter, AutoAnalysis.Line2.Point2.Data.Start, false
TestParameter, AutoAnalysis.Line2.Point2.Data.StartVar, 
TestParameter, AutoAnalysis.Line2.Point2.Data.StartCondition, 
TestParameter, AutoAnalysis.Line2.GradientExpr, 0
TestParameter, AutoAnalysis.Marker.Enabled, false
TestParameter, AutoAnalysis.Marker.Data.Var, 
TestParameter, AutoAnalysis.Marker.Data.Condition, 
TestParameter, AutoAnalysis.Marker.Data.Start, false
TestParameter, AutoAnalysis.Marker.Data.StartVar, 
TestParameter, AutoAnalysis.Marker.Data.StartCondition, 
MetaData, TestRecord.EntryPoint, true
MetaData, TestRecord.RecordTime, 10/19/2022 13:13:06
MetaData, TestRecord.TestTarget, 
MetaData, TestRecord.IterationIndex, 261
MetaData, TestRecord.Preservation, true
MetaData, TestRecord.Flag, 
MetaData, TestRecord.Remarks, 
MetaData, TestRecord.LinkKey, 72a08e44-dce9-4254-9689-3e4c290b94d2
MetaData, TestRecord.Parameters, 
Dimension1, 101, 101
Dimension2, 1, 1
DataName, V, I
DataValue, -2, -0.003666
DataValue, -1.9600000000000002, -0.003384
DataValue, -1.9200000000000002, -0.0031146
DataValue, -1.8800000000000001, -0.0028596
DataValue, -1.84, -0.0026162
DataValue, -1.8, -0.0023872
DataValue, -1.76, -0.0021732
DataValue, -1.72, -0.0019716
DataValue, -1.6800000000000002, -0.0017832
DataValue, -1.6400000000000001, -0.001609
DataValue, -1.6, -0.0014478
DataValue, -1.56, -0.0013
DataValue, -1.52, -0.0011656
DataValue, -1.48, -0.0010442000000000001
DataValue, -1.4400000000000002, -0.00093624000000000008
DataValue, -1.4000000000000001, -0.00083944
DataValue, -1.36, -0.00075222000000000006
DataValue, -1.32, -0.00067280000000000009
DataValue, -1.28, -0.00059846
DataValue, -1.24, -0.00052878000000000007
DataValue, -1.2, -0.00046288000000000004
DataValue, -1.1600000000000001, -0.00040070000000000004
DataValue, -1.12, -0.00034228000000000004
DataValue, -1.08, -0.00028794000000000004
DataValue, -1.04, -0.00023754
DataValue, -1, -0.00019158
DataValue, -0.96000000000000008, -0.00015046000000000002
DataValue, -0.92, -0.00011408
DataValue, -0.88, -8.4594E-05
DataValue, -0.84000000000000008, -5.8406E-05
DataValue, -0.8, -3.8458000000000003E-05
DataValue, -0.76, -2.446E-05
DataValue, -0.72000000000000008, -1.4556000000000001E-05
DataValue, -0.68, -9.8152E-06
DataValue, -0.64, -5.1262E-06
DataValue, -0.6, -2.4211000000000004E-06
DataValue, -0.56, -2.4963E-06
DataValue, -0.52, -1.12288E-06
DataValue, -0.48000000000000004, -1.058E-06
DataValue, -0.44, -6.1632E-07
DataValue, -0.4, -2.397E-07
DataValue, -0.36000000000000004, 1.8982E-07
DataValue, -0.32, 5.9212E-07
DataValue, -0.28, 9.9160000000000017E-07
DataValue, -0.24000000000000002, 1.5857000000000001E-06
DataValue, -0.2, 2.1039000000000003E-06
DataValue, -0.16, 2.5646000000000004E-06
DataValue, -0.12000000000000001, 2.9951000000000003E-06
DataValue, -0.08, 3.4205000000000005E-06
DataValue, -0.04, 3.8661E-06
DataValue, 0, 4.3677000000000006E-06
DataValue, 0.04, 4.9628E-06
DataValue, 0.08, 5.7229000000000007E-06
DataValue, 0.12000000000000001, 6.6426000000000006E-06
DataValue, 0.16, 7.5698000000000008E-06
DataValue, 0.2, 7.4156000000000006E-06
DataValue, 0.24000000000000002, 8.3748000000000015E-06
DataValue, 0.28, 8.2731E-06
DataValue, 0.32, 8.4388000000000013E-06
DataValue, 0.36000000000000004, 8.5885000000000009E-06
DataValue, 0.4, 8.854E-06
DataValue, 0.44, 9.1632E-06
DataValue, 0.48000000000000004, 9.5654000000000016E-06
DataValue, 0.52, 1.0162E-05
DataValue, 0.56, 1.1828000000000001E-05
DataValue, 0.6, 1.4024E-05
DataValue, 0.64, 1.6826E-05
DataValue, 0.68, 2.022E-05
DataValue, 0.72000000000000008, 2.4148E-05
DataValue, 0.76, 2.8480000000000002E-05
DataValue, 0.8, 3.3242E-05
DataValue, 0.84000000000000008, 3.8444E-05
DataValue, 0.88, 4.413E-05
DataValue, 0.92, 5.0866000000000004E-05
DataValue, 0.96000000000000008, 5.8812000000000005E-05
DataValue, 1, 6.8964E-05
DataValue, 1.04, 8.2552E-05
DataValue, 1.08, 0.000100794
DataValue, 1.12, 0.00011856
DataValue, 1.1600000000000001, 0.0001515
DataValue, 1.2, 0.00019378
DataValue, 1.24, 0.0002472
DataValue, 1.28, 0.0003132
DataValue, 1.32, 0.00039402
DataValue, 1.36, 0.00048984000000000007
DataValue, 1.4000000000000001, 0.00060334000000000006
DataValue, 1.4400000000000002, 0.00073392
DataValue, 1.48, 0.00088146
DataValue, 1.52, 0.00104834
DataValue, 1.56, 0.0012384
DataValue, 1.6, 0.0014304
DataValue, 1.6400000000000001, 0.0016332
DataValue, 1.6800000000000002, 0.001845
DataValue, 1.72, 0.0020662000000000002
DataValue, 1.76, 0.0022912
DataValue, 1.8, 0.0025196
DataValue, 1.84, 0.0027448
DataValue, 1.8800000000000001, 0.00299
DataValue, 1.9200000000000002, 0.0032416
DataValue, 1.9600000000000002, 0.0035032
DataValue, 2, 0.0037752000000000003