
SetupTitle, I/V Sweep
PrimitiveTest, I/V Sweep
TestParameter, Context.MainFrame, B1500A
TestParameter, Channel.UnitType, SMU, SMU, SMU, SMU, SMU
TestParameter, Channel.Unit, SMU1:HP, SMU2:MP, SMU3:MP, SMU4:MP, SMU5:MP
TestParameter, Channel.IName, I, IDD1, IDD2, ISS, IPP
TestParameter, Channel.VName, V, VDD1, VDD2, VSS, VPP
TestParameter, Channel.Mode, V, V, V, V, V
TestParameter, Channel.Func, VAR1, CONST, CONST, CONST, CONST
TestParameter, Channel.Index, 
TestParameter, Channel.Time, 
TestParameter, Measurement.Port.Unit, SMU1:HP, SMU2:MP, SMU3:MP, SMU4:MP, SMU5:MP
TestParameter, Measurement.Port.SeriesResistor, NONE, NONE, NONE, NONE, NONE
TestParameter, Measurement.Port.Filter, ON, ON, ON, ON, ON
TestParameter, Measurement.Port.OutputVoltageComparison, 0, 0, 0, 0, 0
TestParameter, Measurement.Primary.Locus, Single
TestParameter, Measurement.Primary.Scale, LINEAR
TestParameter, Measurement.Primary.Start, -2
TestParameter, Measurement.Primary.Stop, 2
TestParameter, Measurement.Primary.Step, 0.04
TestParameter, Measurement.Primary.Compliance, 0.1
TestParameter, Measurement.Primary.PowerCompliance, 0
TestParameter, Measurement.Aborting.Condition, CONTINUE AT ANY
TestParameter, Measurement.PostOutput.Value, START
TestParameter, Measurement.PostOutput.Retention, OFF
TestParameter, Measurement.Bias.Source, -2, 1.8, 1.1, 0, 0
TestParameter, Measurement.Bias.Compliance, 0.1, 0.1, 0.1, 0.1, 0.1
TestParameter, Measurement.Monitor.Unit, SMU1:HP, SMU2:MP, SMU3:MP, SMU4:MP, SMU5:MP
TestParameter, Measurement.Monitor.Adc, HR ADC, HR ADC, HR ADC, HR ADC, HR ADC
TestParameter, Measurement.Monitor.Measurement, Compliance Side, Compliance Side, Compliance Side, Compliance Side, Compliance Side
TestParameter, Measurement.Monitor.RangingMode, LIMITED, LIMITED, LIMITED, LIMITED, LIMITED
TestParameter, Measurement.Monitor.RangeBoundary, 1nA, 1nA, 1nA, 1nA, 1nA
TestParameter, Measurement.Monitor.RangeRating, BY FULL RANGE, BY FULL RANGE, BY FULL RANGE, BY FULL RANGE, BY FULL RANGE
TestParameter, Measurement.Monitor.RangeRatingCoeff, 50, 50, 50, 50, 50
TestParameter, Measurement.Timing.Hold, 0
TestParameter, Measurement.Timing.Delay, 0
TestParameter, Measurement.Adc.HighSpeed.Mode, AUTO
TestParameter, Measurement.Adc.HighSpeed.Coeff, 1
TestParameter, Measurement.Adc.HighResolution.AutoZero, OFF
TestParameter, Measurement.Adc.HighResolution.Mode, AUTO
TestParameter, Measurement.Adc.HighResolution.Coeff, 6
TestParameter, Measurement.WaitTime.Source.Coeff, 1
TestParameter, Measurement.WaitTime.Source.Offset, 0
TestParameter, Measurement.WaitTime.Monitor.Coeff, 1
TestParameter, Measurement.WaitTime.Monitor.Offset, 0
TestParameter, Output.Graph.Enabled, true
TestParameter, Output.Graph.AutoScaling, false
TestParameter, Output.Graph.XAxis.Data, V
TestParameter, Output.Graph.XAxis.Scale, Linear
TestParameter, Output.Graph.XAxis.Left, -2
TestParameter, Output.Graph.XAxis.Right, 2
TestParameter, Output.Graph.XAxis.RunTimeAutoScale, true
TestParameter, Output.Graph.YAxis.Data, I
TestParameter, Output.Graph.YAxis.Scale, Linear
TestParameter, Output.Graph.YAxis.Bottom, -0.1
TestParameter, Output.Graph.YAxis.Top, 0.1
TestParameter, Output.Graph.YAxis.Group, 
TestParameter, Output.Graph.YAxis.RunTimeAutoScale, true
TestParameter, AutoAnalysis.Interpolation, false
TestParameter, AutoAnalysis.Var2StepCount, 1
TestParameter, AutoAnalysis.Var2StepScript, 
TestParameter, AutoAnalysis.Line1.Enabled, false
TestParameter, AutoAnalysis.Line1.Type, 1
TestParameter, AutoAnalysis.Line1.Fix, True
TestParameter, AutoAnalysis.Line1.YAxis, 0
TestParameter, AutoAnalysis.Line1.Point1.Type, 0
TestParameter, AutoAnalysis.Line1.Point1.XY.X, 
TestParameter, AutoAnalysis.Line1.Point1.XY.Y, 
TestParameter, AutoAnalysis.Line1.Point1.Data.Var, 
TestParameter, AutoAnalysis.Line1.Point1.Data.Condition, 
TestParameter, AutoAnalysis.Line1.Point1.Data.Start, false
TestParameter, AutoAnalysis.Line1.Point1.Data.StartVar, 
TestParameter, AutoAnalysis.Line1.Point1.Data.StartCondition, 
TestParameter, AutoAnalysis.Line1.Point2.Type, 0
TestParameter, AutoAnalysis.Line1.Point2.XY.X, 
TestParameter, AutoAnalysis.Line1.Point2.XY.Y, 
TestParameter, AutoAnalysis.Line1.Point2.Data.Var, 
TestParameter, AutoAnalysis.Line1.Point2.Data.Condition, 
TestParameter, AutoAnalysis.Line1.Point2.Data.Start, false
TestParameter, AutoAnalysis.Line1.Point2.Data.StartVar, 
TestParameter, AutoAnalysis.Line1.Point2.Data.StartCondition, 
TestParameter, AutoAnalysis.Line1.GradientExpr, 0
TestParameter, AutoAnalysis.Line2.Enabled, false
TestParameter, AutoAnalysis.Line2.Type, 1
TestParameter, AutoAnalysis.Line2.Fix, True
TestParameter, AutoAnalysis.Line2.YAxis, 0
TestParameter, AutoAnalysis.Line2.Point1.Type, 0
TestParameter, AutoAnalysis.Line2.Point1.XY.X, 
TestParameter, AutoAnalysis.Line2.Point1.XY.Y, 
TestParameter, AutoAnalysis.Line2.Point1.Data.Var, 
TestParameter, AutoAnalysis.Line2.Point1.Data.Condition, 
TestParameter, AutoAnalysis.Line2.Point1.Data.Start, false
TestParameter, AutoAnalysis.Line2.Point1.Data.StartVar, 
TestParameter, AutoAnalysis.Line2.Point1.Data.StartCondition, 
TestParameter, AutoAnalysis.Line2.Point2.Type, 0
TestParameter, AutoAnalysis.Line2.Point2.XY.X, 
TestParameter, AutoAnalysis.Line2.Point2.XY.Y, 
TestParameter, AutoAnalysis.Line2.Point2.Data.Var, 
TestParameter, AutoAnalysis.Line2.Point2.Data.Condition, 
TestParameter, AutoAnalysis.Line2.Point2.Data.Start, false
TestParameter, AutoAnalysis.Line2.Point2.Data.StartVar, 
TestParameter, AutoAnalysis.Line2.Point2.Data.StartCondition, 
TestParameter, AutoAnalysis.Line2.GradientExpr, 0
TestParameter, AutoAnalysis.Marker.Enabled, false
TestParameter, AutoAnalysis.Marker.Data.Var, 
TestParameter, AutoAnalysis.Marker.Data.Condition, 
TestParameter, AutoAnalysis.Marker.Data.Start, false
TestParameter, AutoAnalysis.Marker.Data.StartVar, 
TestParameter, AutoAnalysis.Marker.Data.StartCondition, 
MetaData, TestRecord.EntryPoint, true
MetaData, TestRecord.RecordTime, 10/19/2022 13:19:25
MetaData, TestRecord.TestTarget, 
MetaData, TestRecord.IterationIndex, 273
MetaData, TestRecord.Preservation, true
MetaData, TestRecord.Flag, 
MetaData, TestRecord.Remarks, 
MetaData, TestRecord.LinkKey, c55732a4-01e9-41f8-814c-bf4bd34ba8c0
MetaData, TestRecord.Parameters, 
Dimension1, 101, 101
Dimension2, 1, 1
DataName, V, I
DataValue, -2, -1.1921E-09
DataValue, -1.9600000000000002, 4.2916E-09
DataValue, -1.9200000000000002, -1.9884E-09
DataValue, -1.8800000000000001, 4.2367E-09
DataValue, -1.84, -1.8025E-09
DataValue, -1.8, 3.7368E-09
DataValue, -1.76, -1.723E-09
DataValue, -1.72, 3.1438E-09
DataValue, -1.6800000000000002, -1.6309E-09
DataValue, -1.6400000000000001, 3.1722E-09
DataValue, -1.6, -1.6318E-09
DataValue, -1.56, 3.0498E-09
DataValue, -1.52, -1.6057E-09
DataValue, -1.48, 5.885E-09
DataValue, -1.4400000000000002, -2.056E-09
DataValue, -1.4000000000000001, 5.3133E-09
DataValue, -1.36, -1.9414E-09
DataValue, -1.32, 4.6455E-09
DataValue, -1.28, -1.846E-09
DataValue, -1.24, 4.0445E-09
DataValue, -1.2, -1.7329E-09
DataValue, -1.1600000000000001, 3.3725E-09
DataValue, -1.12, -1.6409E-09
DataValue, -1.08, 3.1473E-09
DataValue, -1.04, -1.5873E-09
DataValue, -1, 5.6987E-09
DataValue, -0.96000000000000008, -2.0209E-09
DataValue, -0.92, 5.1753E-09
DataValue, -0.88, -1.8868E-09
DataValue, -0.84000000000000008, 4.2989E-09
DataValue, -0.8, -1.6962E-09
DataValue, -0.76, 3.1437E-09
DataValue, -0.72000000000000008, -1.6126E-09
DataValue, -0.68, 3.1317E-09
DataValue, -0.64, -1.5987E-09
DataValue, -0.6, 5.8524E-09
DataValue, -0.56, -2.064E-09
DataValue, -0.52, 5.2333E-09
DataValue, -0.48000000000000004, -1.9183E-09
DataValue, -0.44, 4.4868E-09
DataValue, -0.4, -1.8207E-09
DataValue, -0.36000000000000004, 3.8039E-09
DataValue, -0.32, -1.6953E-09
DataValue, -0.28, 3.2E-09
DataValue, -0.24000000000000002, -1.6198E-09
DataValue, -0.2, 3.1966E-09
DataValue, -0.16, -1.6199E-09
DataValue, -0.12000000000000001, 3.0356E-09
DataValue, -0.08, -1.5845E-09
DataValue, -0.04, 5.8391E-09
DataValue, 0, -2.1374E-09
DataValue, 0.04, 5.6802E-09
DataValue, 0.08, -2.0057E-09
DataValue, 0.12000000000000001, 5.052E-09
DataValue, 0.16, -1.9033E-09
DataValue, 0.2, 4.4398E-09
DataValue, 0.24000000000000002, -1.7827E-09
DataValue, 0.28, 3.8868E-09
DataValue, 0.32, -1.6534E-09
DataValue, 0.36000000000000004, 2.9391E-09
DataValue, 0.4, -1.586E-09
DataValue, 0.44, 5.9156E-09
DataValue, 0.48000000000000004, -2.049E-09
DataValue, 0.52, 5.1805E-09
DataValue, 0.56, -1.91E-09
DataValue, 0.6, 4.5324E-09
DataValue, 0.64, -1.8126E-09
DataValue, 0.68, 3.9553E-09
DataValue, 0.72000000000000008, -1.7019E-09
DataValue, 0.76, 3.2369E-09
DataValue, 0.8, -1.6272E-09
DataValue, 0.84000000000000008, 3.0753E-09
DataValue, 0.88, -1.5918E-09
DataValue, 0.92, 6.0104E-09
DataValue, 0.96000000000000008, -2.051E-09
DataValue, 1, 5.418E-09
DataValue, 1.04, -1.9383E-09
DataValue, 1.08, 4.7257E-09
DataValue, 1.12, -1.8186E-09
DataValue, 1.1600000000000001, 3.5154E-09
DataValue, 1.2, -1.6353E-09
DataValue, 1.24, 2.9242E-09
DataValue, 1.28, -1.571E-09
DataValue, 1.32, 5.7869E-09
DataValue, 1.36, -2.0235E-09
DataValue, 1.4000000000000001, 5.1724E-09
DataValue, 1.4400000000000002, -1.8212E-09
DataValue, 1.48, 5.6317E-09
DataValue, 1.52, -1.6464E-09
DataValue, 1.56, 4.1838E-09
DataValue, 1.6, -1.4913E-09
DataValue, 1.6400000000000001, 5.7319E-09
DataValue, 1.6800000000000002, -1.6267E-09
DataValue, 1.72, 2.9283E-09
DataValue, 1.76, -1.5435E-09
DataValue, 1.8, 5.6163E-09
DataValue, 1.84, -1.9695E-09
DataValue, 1.8800000000000001, 5.1366E-09
DataValue, 1.9200000000000002, -1.8698E-09
DataValue, 1.9600000000000002, 4.4085E-09
DataValue, 2, -1.7598E-09