
SetupTitle, I/V Sweep
PrimitiveTest, I/V Sweep
TestParameter, Context.MainFrame, B1500A
TestParameter, Channel.UnitType, SMU, SMU, SMU, SMU, SMU
TestParameter, Channel.Unit, SMU1:HP, SMU2:MP, SMU3:MP, SMU4:MP, SMU5:MP
TestParameter, Channel.IName, I, IDD1, IDD2, ISS, IPP
TestParameter, Channel.VName, V, VDD1, VDD2, VSS, VPP
TestParameter, Channel.Mode, V, V, V, V, V
TestParameter, Channel.Func, VAR1, CONST, CONST, CONST, CONST
TestParameter, Channel.Index, 
TestParameter, Channel.Time, 
TestParameter, Measurement.Port.Unit, SMU1:HP, SMU2:MP, SMU3:MP, SMU4:MP, SMU5:MP
TestParameter, Measurement.Port.SeriesResistor, NONE, NONE, NONE, NONE, NONE
TestParameter, Measurement.Port.Filter, ON, ON, ON, ON, ON
TestParameter, Measurement.Port.OutputVoltageComparison, 0, 0, 0, 0, 0
TestParameter, Measurement.Primary.Locus, Single
TestParameter, Measurement.Primary.Scale, LINEAR
TestParameter, Measurement.Primary.Start, -2
TestParameter, Measurement.Primary.Stop, 2
TestParameter, Measurement.Primary.Step, 0.04
TestParameter, Measurement.Primary.Compliance, 0.1
TestParameter, Measurement.Primary.PowerCompliance, 0
TestParameter, Measurement.Aborting.Condition, CONTINUE AT ANY
TestParameter, Measurement.PostOutput.Value, START
TestParameter, Measurement.PostOutput.Retention, OFF
TestParameter, Measurement.Bias.Source, -2, 1.8, 1.1, 0, 0
TestParameter, Measurement.Bias.Compliance, 0.1, 0.1, 0.1, 0.1, 0.1
TestParameter, Measurement.Monitor.Unit, SMU1:HP, SMU2:MP, SMU3:MP, SMU4:MP, SMU5:MP
TestParameter, Measurement.Monitor.Adc, HR ADC, HR ADC, HR ADC, HR ADC, HR ADC
TestParameter, Measurement.Monitor.Measurement, Compliance Side, Compliance Side, Compliance Side, Compliance Side, Compliance Side
TestParameter, Measurement.Monitor.RangingMode, LIMITED, LIMITED, LIMITED, LIMITED, LIMITED
TestParameter, Measurement.Monitor.RangeBoundary, 1nA, 1nA, 1nA, 1nA, 1nA
TestParameter, Measurement.Monitor.RangeRating, BY FULL RANGE, BY FULL RANGE, BY FULL RANGE, BY FULL RANGE, BY FULL RANGE
TestParameter, Measurement.Monitor.RangeRatingCoeff, 50, 50, 50, 50, 50
TestParameter, Measurement.Timing.Hold, 0
TestParameter, Measurement.Timing.Delay, 0
TestParameter, Measurement.Adc.HighSpeed.Mode, AUTO
TestParameter, Measurement.Adc.HighSpeed.Coeff, 1
TestParameter, Measurement.Adc.HighResolution.AutoZero, OFF
TestParameter, Measurement.Adc.HighResolution.Mode, AUTO
TestParameter, Measurement.Adc.HighResolution.Coeff, 6
TestParameter, Measurement.WaitTime.Source.Coeff, 1
TestParameter, Measurement.WaitTime.Source.Offset, 0
TestParameter, Measurement.WaitTime.Monitor.Coeff, 1
TestParameter, Measurement.WaitTime.Monitor.Offset, 0
TestParameter, Output.Graph.Enabled, true
TestParameter, Output.Graph.AutoScaling, false
TestParameter, Output.Graph.XAxis.Data, V
TestParameter, Output.Graph.XAxis.Scale, Linear
TestParameter, Output.Graph.XAxis.Left, -2
TestParameter, Output.Graph.XAxis.Right, 2
TestParameter, Output.Graph.XAxis.RunTimeAutoScale, true
TestParameter, Output.Graph.YAxis.Data, I
TestParameter, Output.Graph.YAxis.Scale, Linear
TestParameter, Output.Graph.YAxis.Bottom, -0.1
TestParameter, Output.Graph.YAxis.Top, 0.1
TestParameter, Output.Graph.YAxis.Group, 
TestParameter, Output.Graph.YAxis.RunTimeAutoScale, true
TestParameter, AutoAnalysis.Interpolation, false
TestParameter, AutoAnalysis.Var2StepCount, 1
TestParameter, AutoAnalysis.Var2StepScript, 
TestParameter, AutoAnalysis.Line1.Enabled, false
TestParameter, AutoAnalysis.Line1.Type, 1
TestParameter, AutoAnalysis.Line1.Fix, True
TestParameter, AutoAnalysis.Line1.YAxis, 0
TestParameter, AutoAnalysis.Line1.Point1.Type, 0
TestParameter, AutoAnalysis.Line1.Point1.XY.X, 
TestParameter, AutoAnalysis.Line1.Point1.XY.Y, 
TestParameter, AutoAnalysis.Line1.Point1.Data.Var, 
TestParameter, AutoAnalysis.Line1.Point1.Data.Condition, 
TestParameter, AutoAnalysis.Line1.Point1.Data.Start, false
TestParameter, AutoAnalysis.Line1.Point1.Data.StartVar, 
TestParameter, AutoAnalysis.Line1.Point1.Data.StartCondition, 
TestParameter, AutoAnalysis.Line1.Point2.Type, 0
TestParameter, AutoAnalysis.Line1.Point2.XY.X, 
TestParameter, AutoAnalysis.Line1.Point2.XY.Y, 
TestParameter, AutoAnalysis.Line1.Point2.Data.Var, 
TestParameter, AutoAnalysis.Line1.Point2.Data.Condition, 
TestParameter, AutoAnalysis.Line1.Point2.Data.Start, false
TestParameter, AutoAnalysis.Line1.Point2.Data.StartVar, 
TestParameter, AutoAnalysis.Line1.Point2.Data.StartCondition, 
TestParameter, AutoAnalysis.Line1.GradientExpr, 0
TestParameter, AutoAnalysis.Line2.Enabled, false
TestParameter, AutoAnalysis.Line2.Type, 1
TestParameter, AutoAnalysis.Line2.Fix, True
TestParameter, AutoAnalysis.Line2.YAxis, 0
TestParameter, AutoAnalysis.Line2.Point1.Type, 0
TestParameter, AutoAnalysis.Line2.Point1.XY.X, 
TestParameter, AutoAnalysis.Line2.Point1.XY.Y, 
TestParameter, AutoAnalysis.Line2.Point1.Data.Var, 
TestParameter, AutoAnalysis.Line2.Point1.Data.Condition, 
TestParameter, AutoAnalysis.Line2.Point1.Data.Start, false
TestParameter, AutoAnalysis.Line2.Point1.Data.StartVar, 
TestParameter, AutoAnalysis.Line2.Point1.Data.StartCondition, 
TestParameter, AutoAnalysis.Line2.Point2.Type, 0
TestParameter, AutoAnalysis.Line2.Point2.XY.X, 
TestParameter, AutoAnalysis.Line2.Point2.XY.Y, 
TestParameter, AutoAnalysis.Line2.Point2.Data.Var, 
TestParameter, AutoAnalysis.Line2.Point2.Data.Condition, 
TestParameter, AutoAnalysis.Line2.Point2.Data.Start, false
TestParameter, AutoAnalysis.Line2.Point2.Data.StartVar, 
TestParameter, AutoAnalysis.Line2.Point2.Data.StartCondition, 
TestParameter, AutoAnalysis.Line2.GradientExpr, 0
TestParameter, AutoAnalysis.Marker.Enabled, false
TestParameter, AutoAnalysis.Marker.Data.Var, 
TestParameter, AutoAnalysis.Marker.Data.Condition, 
TestParameter, AutoAnalysis.Marker.Data.Start, false
TestParameter, AutoAnalysis.Marker.Data.StartVar, 
TestParameter, AutoAnalysis.Marker.Data.StartCondition, 
MetaData, TestRecord.EntryPoint, true
MetaData, TestRecord.RecordTime, 10/19/2022 13:29:17
MetaData, TestRecord.TestTarget, 
MetaData, TestRecord.IterationIndex, 292
MetaData, TestRecord.Preservation, true
MetaData, TestRecord.Flag, 
MetaData, TestRecord.Remarks, 
MetaData, TestRecord.LinkKey, 233b229d-81d9-4a18-905b-51dddf08eda1
MetaData, TestRecord.Parameters, 
Dimension1, 101, 101
Dimension2, 1, 1
DataName, V, I
DataValue, -2, 3.84456E-08
DataValue, -1.9600000000000002, -3.28376E-08
DataValue, -1.9200000000000002, 2.9387799999999997E-08
DataValue, -1.8800000000000001, -3.1237599999999996E-08
DataValue, -1.84, 3.2483999999999995E-08
DataValue, -1.8, -1.4761599999999998E-08
DataValue, -1.76, 1.8997799999999998E-08
DataValue, -1.72, -6.72E-10
DataValue, -1.6800000000000002, -8.6068E-09
DataValue, -1.6400000000000001, 1.9340199999999997E-08
DataValue, -1.6, -3.3809999999999996E-08
DataValue, -1.56, 4.11776E-08
DataValue, -1.52, -4.2762199999999994E-08
DataValue, -1.48, 4.5006399999999995E-08
DataValue, -1.4400000000000002, -4.5026199999999993E-08
DataValue, -1.4000000000000001, 4.33946E-08
DataValue, -1.36, -4.4511999999999995E-08
DataValue, -1.32, 4.0771999999999996E-08
DataValue, -1.28, -1.1549599999999999E-08
DataValue, -1.24, 1.6451999999999999E-09
DataValue, -1.2, 8.558E-09
DataValue, -1.1600000000000001, -1.80126E-08
DataValue, -1.12, 3.13644E-08
DataValue, -1.08, -3.9608999999999994E-08
DataValue, -1.04, 4.1958E-08
DataValue, -1, -4.4260599999999993E-08
DataValue, -0.96000000000000008, 4.43548E-08
DataValue, -0.92, -4.45774E-08
DataValue, -0.88, 4.3457599999999996E-08
DataValue, -0.84000000000000008, -3.88244E-08
DataValue, -0.8, 1.0911599999999999E-08
DataValue, -0.76, 1.1486E-09
DataValue, -0.72000000000000008, 1.6659999999999998E-09
DataValue, -0.68, 7.9421999999999985E-09
DataValue, -0.64, -1.80714E-08
DataValue, -0.6, 3.02738E-08
DataValue, -0.56, -3.7938999999999993E-08
DataValue, -0.52, 3.7573999999999996E-08
DataValue, -0.48000000000000004, -3.5503E-08
DataValue, -0.44, 3.25708E-08
DataValue, -0.4, -4.1996599999999994E-08
DataValue, -0.36000000000000004, 4.1950199999999993E-08
DataValue, -0.32, -4.1861399999999995E-08
DataValue, -0.28, 4.5046999999999993E-08
DataValue, -0.24000000000000002, -4.43728E-08
DataValue, -0.2, 4.47776E-08
DataValue, -0.16, -4.3710399999999994E-08
DataValue, -0.12000000000000001, 4.5436799999999994E-08
DataValue, -0.08, -4.4040799999999993E-08
DataValue, -0.04, 3.49632E-08
DataValue, 0, -2.6793799999999997E-08
DataValue, 0.04, 3.0372599999999995E-08
DataValue, 0.08, -2.05852E-08
DataValue, 0.12000000000000001, 2.4508799999999997E-08
DataValue, 0.16, -1.9603199999999998E-08
DataValue, 0.2, -3.0585999999999998E-09
DataValue, 0.24000000000000002, 1.2871799999999999E-08
DataValue, 0.28, -2.5400199999999997E-08
DataValue, 0.32, 3.81546E-08
DataValue, 0.36000000000000004, -4.1897999999999996E-08
DataValue, 0.4, 4.3533199999999994E-08
DataValue, 0.44, -4.2030399999999995E-08
DataValue, 0.48000000000000004, 3.4980999999999994E-08
DataValue, 0.52, -2.6579999999999997E-08
DataValue, 0.56, 1.3865599999999998E-08
DataValue, 0.6, -1.7128E-09
DataValue, 0.64, -7.4554E-09
DataValue, 0.68, 1.82616E-08
DataValue, 0.72000000000000008, -3.16996E-08
DataValue, 0.76, 4.0471799999999996E-08
DataValue, 0.8, -4.2238199999999995E-08
DataValue, 0.84000000000000008, 4.50242E-08
DataValue, 0.88, -4.4914599999999994E-08
DataValue, 0.92, 4.2992799999999996E-08
DataValue, 0.96000000000000008, -3.48402E-08
DataValue, 1, 2.8315399999999998E-08
DataValue, 1.04, -1.4288199999999998E-08
DataValue, 1.08, 4.0485999999999994E-09
DataValue, 1.12, 2.31522E-08
DataValue, 1.1600000000000001, -3.68608E-08
DataValue, 1.2, 4.1969599999999996E-08
DataValue, 1.24, -4.347E-08
DataValue, 1.28, 4.4669599999999994E-08
DataValue, 1.32, -4.4992E-08
DataValue, 1.36, 4.1501199999999993E-08
DataValue, 1.4000000000000001, -3.31176E-08
DataValue, 1.4400000000000002, 2.57142E-08
DataValue, 1.48, -1.5078799999999998E-08
DataValue, 1.52, 3.847E-09
DataValue, 1.56, 6.2969999999999992E-09
DataValue, 1.6, -1.5701999999999997E-08
DataValue, 1.6400000000000001, 2.6792799999999996E-08
DataValue, 1.6800000000000002, -3.7655999999999997E-08
DataValue, 1.72, 3.65136E-08
DataValue, 1.76, -4.18124E-08
DataValue, 1.8, 4.19628E-08
DataValue, 1.84, -4.10118E-08
DataValue, 1.8800000000000001, 4.2670199999999995E-08
DataValue, 1.9200000000000002, -4.1960999999999994E-08
DataValue, 1.9600000000000002, 4.2055999999999996E-08
DataValue, 2, -4.22056E-08