
SetupTitle, I/V Sweep
PrimitiveTest, I/V Sweep
TestParameter, Context.MainFrame, B1500A
TestParameter, Channel.UnitType, SMU, SMU, SMU, SMU, SMU
TestParameter, Channel.Unit, SMU1:HP, SMU2:MP, SMU3:MP, SMU4:MP, SMU5:MP
TestParameter, Channel.IName, I, IDD1, IDD2, ISS, IPP
TestParameter, Channel.VName, V, VDD1, VDD2, VSS, VPP
TestParameter, Channel.Mode, V, V, V, V, V
TestParameter, Channel.Func, VAR1, CONST, CONST, CONST, CONST
TestParameter, Channel.Index, 
TestParameter, Channel.Time, 
TestParameter, Measurement.Port.Unit, SMU1:HP, SMU2:MP, SMU3:MP, SMU4:MP, SMU5:MP
TestParameter, Measurement.Port.SeriesResistor, NONE, NONE, NONE, NONE, NONE
TestParameter, Measurement.Port.Filter, ON, ON, ON, ON, ON
TestParameter, Measurement.Port.OutputVoltageComparison, 0, 0, 0, 0, 0
TestParameter, Measurement.Primary.Locus, Single
TestParameter, Measurement.Primary.Scale, LINEAR
TestParameter, Measurement.Primary.Start, -2
TestParameter, Measurement.Primary.Stop, 2
TestParameter, Measurement.Primary.Step, 0.04
TestParameter, Measurement.Primary.Compliance, 0.1
TestParameter, Measurement.Primary.PowerCompliance, 0
TestParameter, Measurement.Aborting.Condition, CONTINUE AT ANY
TestParameter, Measurement.PostOutput.Value, START
TestParameter, Measurement.PostOutput.Retention, OFF
TestParameter, Measurement.Bias.Source, -2, 1.8, 1.1, 0, 0
TestParameter, Measurement.Bias.Compliance, 0.1, 0.1, 0.1, 0.1, 0.1
TestParameter, Measurement.Monitor.Unit, SMU1:HP, SMU2:MP, SMU3:MP, SMU4:MP, SMU5:MP
TestParameter, Measurement.Monitor.Adc, HR ADC, HR ADC, HR ADC, HR ADC, HR ADC
TestParameter, Measurement.Monitor.Measurement, Compliance Side, Compliance Side, Compliance Side, Compliance Side, Compliance Side
TestParameter, Measurement.Monitor.RangingMode, LIMITED, LIMITED, LIMITED, LIMITED, LIMITED
TestParameter, Measurement.Monitor.RangeBoundary, 1nA, 1nA, 1nA, 1nA, 1nA
TestParameter, Measurement.Monitor.RangeRating, BY FULL RANGE, BY FULL RANGE, BY FULL RANGE, BY FULL RANGE, BY FULL RANGE
TestParameter, Measurement.Monitor.RangeRatingCoeff, 50, 50, 50, 50, 50
TestParameter, Measurement.Timing.Hold, 0
TestParameter, Measurement.Timing.Delay, 0
TestParameter, Measurement.Adc.HighSpeed.Mode, AUTO
TestParameter, Measurement.Adc.HighSpeed.Coeff, 1
TestParameter, Measurement.Adc.HighResolution.AutoZero, OFF
TestParameter, Measurement.Adc.HighResolution.Mode, AUTO
TestParameter, Measurement.Adc.HighResolution.Coeff, 6
TestParameter, Measurement.WaitTime.Source.Coeff, 1
TestParameter, Measurement.WaitTime.Source.Offset, 0
TestParameter, Measurement.WaitTime.Monitor.Coeff, 1
TestParameter, Measurement.WaitTime.Monitor.Offset, 0
TestParameter, Output.Graph.Enabled, true
TestParameter, Output.Graph.AutoScaling, false
TestParameter, Output.Graph.XAxis.Data, V
TestParameter, Output.Graph.XAxis.Scale, Linear
TestParameter, Output.Graph.XAxis.Left, -2
TestParameter, Output.Graph.XAxis.Right, 2
TestParameter, Output.Graph.XAxis.RunTimeAutoScale, true
TestParameter, Output.Graph.YAxis.Data, I
TestParameter, Output.Graph.YAxis.Scale, Linear
TestParameter, Output.Graph.YAxis.Bottom, -0.1
TestParameter, Output.Graph.YAxis.Top, 0.1
TestParameter, Output.Graph.YAxis.Group, 
TestParameter, Output.Graph.YAxis.RunTimeAutoScale, true
TestParameter, AutoAnalysis.Interpolation, false
TestParameter, AutoAnalysis.Var2StepCount, 1
TestParameter, AutoAnalysis.Var2StepScript, 
TestParameter, AutoAnalysis.Line1.Enabled, false
TestParameter, AutoAnalysis.Line1.Type, 1
TestParameter, AutoAnalysis.Line1.Fix, True
TestParameter, AutoAnalysis.Line1.YAxis, 0
TestParameter, AutoAnalysis.Line1.Point1.Type, 0
TestParameter, AutoAnalysis.Line1.Point1.XY.X, 
TestParameter, AutoAnalysis.Line1.Point1.XY.Y, 
TestParameter, AutoAnalysis.Line1.Point1.Data.Var, 
TestParameter, AutoAnalysis.Line1.Point1.Data.Condition, 
TestParameter, AutoAnalysis.Line1.Point1.Data.Start, false
TestParameter, AutoAnalysis.Line1.Point1.Data.StartVar, 
TestParameter, AutoAnalysis.Line1.Point1.Data.StartCondition, 
TestParameter, AutoAnalysis.Line1.Point2.Type, 0
TestParameter, AutoAnalysis.Line1.Point2.XY.X, 
TestParameter, AutoAnalysis.Line1.Point2.XY.Y, 
TestParameter, AutoAnalysis.Line1.Point2.Data.Var, 
TestParameter, AutoAnalysis.Line1.Point2.Data.Condition, 
TestParameter, AutoAnalysis.Line1.Point2.Data.Start, false
TestParameter, AutoAnalysis.Line1.Point2.Data.StartVar, 
TestParameter, AutoAnalysis.Line1.Point2.Data.StartCondition, 
TestParameter, AutoAnalysis.Line1.GradientExpr, 0
TestParameter, AutoAnalysis.Line2.Enabled, false
TestParameter, AutoAnalysis.Line2.Type, 1
TestParameter, AutoAnalysis.Line2.Fix, True
TestParameter, AutoAnalysis.Line2.YAxis, 0
TestParameter, AutoAnalysis.Line2.Point1.Type, 0
TestParameter, AutoAnalysis.Line2.Point1.XY.X, 
TestParameter, AutoAnalysis.Line2.Point1.XY.Y, 
TestParameter, AutoAnalysis.Line2.Point1.Data.Var, 
TestParameter, AutoAnalysis.Line2.Point1.Data.Condition, 
TestParameter, AutoAnalysis.Line2.Point1.Data.Start, false
TestParameter, AutoAnalysis.Line2.Point1.Data.StartVar, 
TestParameter, AutoAnalysis.Line2.Point1.Data.StartCondition, 
TestParameter, AutoAnalysis.Line2.Point2.Type, 0
TestParameter, AutoAnalysis.Line2.Point2.XY.X, 
TestParameter, AutoAnalysis.Line2.Point2.XY.Y, 
TestParameter, AutoAnalysis.Line2.Point2.Data.Var, 
TestParameter, AutoAnalysis.Line2.Point2.Data.Condition, 
TestParameter, AutoAnalysis.Line2.Point2.Data.Start, false
TestParameter, AutoAnalysis.Line2.Point2.Data.StartVar, 
TestParameter, AutoAnalysis.Line2.Point2.Data.StartCondition, 
TestParameter, AutoAnalysis.Line2.GradientExpr, 0
TestParameter, AutoAnalysis.Marker.Enabled, false
TestParameter, AutoAnalysis.Marker.Data.Var, 
TestParameter, AutoAnalysis.Marker.Data.Condition, 
TestParameter, AutoAnalysis.Marker.Data.Start, false
TestParameter, AutoAnalysis.Marker.Data.StartVar, 
TestParameter, AutoAnalysis.Marker.Data.StartCondition, 
MetaData, TestRecord.EntryPoint, true
MetaData, TestRecord.RecordTime, 10/19/2022 13:22:29
MetaData, TestRecord.TestTarget, 
MetaData, TestRecord.IterationIndex, 279
MetaData, TestRecord.Preservation, true
MetaData, TestRecord.Flag, 
MetaData, TestRecord.Remarks, 
MetaData, TestRecord.LinkKey, ba94412d-1508-4c07-8b3e-8d10f8fbd858
MetaData, TestRecord.Parameters, 
Dimension1, 101, 101
Dimension2, 1, 1
DataName, V, I
DataValue, -2, -5.1601999999999994E-08
DataValue, -1.9600000000000002, 5.06994E-08
DataValue, -1.9200000000000002, -5.18714E-08
DataValue, -1.8800000000000001, 5.1265799999999993E-08
DataValue, -1.84, -5.1065199999999992E-08
DataValue, -1.8, 4.6792399999999995E-08
DataValue, -1.76, -4.7391799999999994E-08
DataValue, -1.72, 4.6621799999999995E-08
DataValue, -1.6800000000000002, -3.3850999999999997E-08
DataValue, -1.6400000000000001, 3.7577399999999995E-08
DataValue, -1.6, -3.12976E-08
DataValue, -1.56, 1.3301999999999999E-08
DataValue, -1.52, -1.4029399999999998E-08
DataValue, -1.48, -3.2693999999999995E-09
DataValue, -1.4400000000000002, 1.59156E-08
DataValue, -1.4000000000000001, -2.7168199999999996E-08
DataValue, -1.36, 4.42596E-08
DataValue, -1.32, -4.7100399999999993E-08
DataValue, -1.28, 5.1211199999999992E-08
DataValue, -1.24, -4.9569199999999996E-08
DataValue, -1.2, 5.1896599999999996E-08
DataValue, -1.1600000000000001, -4.40246E-08
DataValue, -1.12, 3.8609E-08
DataValue, -1.08, -2.7170599999999997E-08
DataValue, -1.04, 6.9456E-09
DataValue, -1, -6.530799999999999E-09
DataValue, -0.96000000000000008, -2.01218E-08
DataValue, -0.92, 3.8080999999999995E-08
DataValue, -0.88, -4.4722199999999993E-08
DataValue, -0.84000000000000008, 4.92754E-08
DataValue, -0.8, -5.0002999999999995E-08
DataValue, -0.76, 5.3307199999999993E-08
DataValue, -0.72000000000000008, -4.6800599999999995E-08
DataValue, -0.68, 4.0820799999999995E-08
DataValue, -0.64, -2.8418999999999998E-08
DataValue, -0.6, 1.5711599999999997E-08
DataValue, -0.56, -2.804E-10
DataValue, -0.52, -7.5764E-09
DataValue, -0.48000000000000004, 1.7479799999999997E-08
DataValue, -0.44, -2.53382E-08
DataValue, -0.4, 3.2439199999999994E-08
DataValue, -0.36000000000000004, -3.23274E-08
DataValue, -0.32, 3.0817E-08
DataValue, -0.28, -4.54764E-08
DataValue, -0.24000000000000002, 4.9731E-08
DataValue, -0.2, -4.9920399999999995E-08
DataValue, -0.16, 5.3334599999999992E-08
DataValue, -0.12000000000000001, -4.5991199999999996E-08
DataValue, -0.08, 3.9843399999999997E-08
DataValue, -0.04, -2.75836E-08
DataValue, 0, -1.4383199999999998E-08
DataValue, 0.04, 2.0842599999999998E-08
DataValue, 0.08, -3.4344399999999995E-08
DataValue, 0.12000000000000001, 4.6856999999999994E-08
DataValue, 0.16, -4.7242399999999996E-08
DataValue, 0.2, 5.2145799999999992E-08
DataValue, 0.24000000000000002, -5.02374E-08
DataValue, 0.28, 5.0009599999999994E-08
DataValue, 0.32, -3.84582E-08
DataValue, 0.36000000000000004, 3.2721799999999996E-08
DataValue, 0.4, -1.3319799999999999E-08
DataValue, 0.44, 3.4338E-09
DataValue, 0.48000000000000004, 9.8587999999999983E-09
DataValue, 0.52, -1.9275E-08
DataValue, 0.56, 3.7157999999999994E-08
DataValue, 0.6, -4.4418999999999996E-08
DataValue, 0.64, 4.9103999999999994E-08
DataValue, 0.68, -4.9871E-08
DataValue, 0.72000000000000008, 5.3143599999999994E-08
DataValue, 0.76, -4.7174599999999995E-08
DataValue, 0.8, 4.21788E-08
DataValue, 0.84000000000000008, -3.1724E-08
DataValue, 0.88, 1.9754999999999997E-08
DataValue, 0.92, -3.706E-09
DataValue, 0.96000000000000008, -3.7562E-09
DataValue, 1, 3.8081999999999996E-08
DataValue, 1.04, -4.5296E-08
DataValue, 1.08, 4.97846E-08
DataValue, 1.12, -4.9972999999999994E-08
DataValue, 1.1600000000000001, 5.3257799999999995E-08
DataValue, 1.2, -4.6929799999999993E-08
DataValue, 1.24, 4.16086E-08
DataValue, 1.28, -2.95802E-08
DataValue, 1.32, 1.6950399999999998E-08
DataValue, 1.36, -1.8183999999999998E-09
DataValue, 1.4000000000000001, -5.7221999999999991E-09
DataValue, 1.4400000000000002, 1.9652E-08
DataValue, 1.48, -3.1852E-08
DataValue, 1.52, 4.7228399999999993E-08
DataValue, 1.56, -4.6907999999999992E-08
DataValue, 1.6, 4.8827799999999995E-08
DataValue, 1.6400000000000001, -4.75014E-08
DataValue, 1.6800000000000002, 5.2379799999999992E-08
DataValue, 1.72, -5.0474799999999996E-08
DataValue, 1.76, 5.0088E-08
DataValue, 1.8, -3.9503999999999994E-08
DataValue, 1.84, 3.40658E-08
DataValue, 1.8800000000000001, -1.7267399999999997E-08
DataValue, 1.9200000000000002, -8.3377999999999991E-09
DataValue, 1.9600000000000002, 2.3053399999999997E-08
DataValue, 2, -3.5264E-08