
SetupTitle, I/V Sweep
PrimitiveTest, I/V Sweep
TestParameter, Context.MainFrame, B1500A
TestParameter, Channel.UnitType, SMU, SMU, SMU, SMU, SMU
TestParameter, Channel.Unit, SMU1:HP, SMU2:MP, SMU3:MP, SMU4:MP, SMU5:MP
TestParameter, Channel.IName, I, IDD1, IDD2, ISS, IPP
TestParameter, Channel.VName, V, VDD1, VDD2, VSS, VPP
TestParameter, Channel.Mode, V, V, V, V, V
TestParameter, Channel.Func, VAR1, CONST, CONST, CONST, CONST
TestParameter, Channel.Index, 
TestParameter, Channel.Time, 
TestParameter, Measurement.Port.Unit, SMU1:HP, SMU2:MP, SMU3:MP, SMU4:MP, SMU5:MP
TestParameter, Measurement.Port.SeriesResistor, NONE, NONE, NONE, NONE, NONE
TestParameter, Measurement.Port.Filter, ON, ON, ON, ON, ON
TestParameter, Measurement.Port.OutputVoltageComparison, 0, 0, 0, 0, 0
TestParameter, Measurement.Primary.Locus, Single
TestParameter, Measurement.Primary.Scale, LINEAR
TestParameter, Measurement.Primary.Start, -2
TestParameter, Measurement.Primary.Stop, 2
TestParameter, Measurement.Primary.Step, 0.04
TestParameter, Measurement.Primary.Compliance, 0.1
TestParameter, Measurement.Primary.PowerCompliance, 0
TestParameter, Measurement.Aborting.Condition, CONTINUE AT ANY
TestParameter, Measurement.PostOutput.Value, START
TestParameter, Measurement.PostOutput.Retention, OFF
TestParameter, Measurement.Bias.Source, -2, 1.8, 1.1, 0, 0
TestParameter, Measurement.Bias.Compliance, 0.1, 0.1, 0.1, 0.1, 0.1
TestParameter, Measurement.Monitor.Unit, SMU1:HP, SMU2:MP, SMU3:MP, SMU4:MP, SMU5:MP
TestParameter, Measurement.Monitor.Adc, HR ADC, HR ADC, HR ADC, HR ADC, HR ADC
TestParameter, Measurement.Monitor.Measurement, Compliance Side, Compliance Side, Compliance Side, Compliance Side, Compliance Side
TestParameter, Measurement.Monitor.RangingMode, LIMITED, LIMITED, LIMITED, LIMITED, LIMITED
TestParameter, Measurement.Monitor.RangeBoundary, 1nA, 1nA, 1nA, 1nA, 1nA
TestParameter, Measurement.Monitor.RangeRating, BY FULL RANGE, BY FULL RANGE, BY FULL RANGE, BY FULL RANGE, BY FULL RANGE
TestParameter, Measurement.Monitor.RangeRatingCoeff, 50, 50, 50, 50, 50
TestParameter, Measurement.Timing.Hold, 0
TestParameter, Measurement.Timing.Delay, 0
TestParameter, Measurement.Adc.HighSpeed.Mode, AUTO
TestParameter, Measurement.Adc.HighSpeed.Coeff, 1
TestParameter, Measurement.Adc.HighResolution.AutoZero, OFF
TestParameter, Measurement.Adc.HighResolution.Mode, AUTO
TestParameter, Measurement.Adc.HighResolution.Coeff, 6
TestParameter, Measurement.WaitTime.Source.Coeff, 1
TestParameter, Measurement.WaitTime.Source.Offset, 0
TestParameter, Measurement.WaitTime.Monitor.Coeff, 1
TestParameter, Measurement.WaitTime.Monitor.Offset, 0
TestParameter, Output.Graph.Enabled, true
TestParameter, Output.Graph.AutoScaling, false
TestParameter, Output.Graph.XAxis.Data, V
TestParameter, Output.Graph.XAxis.Scale, Linear
TestParameter, Output.Graph.XAxis.Left, -2
TestParameter, Output.Graph.XAxis.Right, 2
TestParameter, Output.Graph.XAxis.RunTimeAutoScale, true
TestParameter, Output.Graph.YAxis.Data, I
TestParameter, Output.Graph.YAxis.Scale, Linear
TestParameter, Output.Graph.YAxis.Bottom, -0.1
TestParameter, Output.Graph.YAxis.Top, 0.1
TestParameter, Output.Graph.YAxis.Group, 
TestParameter, Output.Graph.YAxis.RunTimeAutoScale, true
TestParameter, AutoAnalysis.Interpolation, false
TestParameter, AutoAnalysis.Var2StepCount, 1
TestParameter, AutoAnalysis.Var2StepScript, 
TestParameter, AutoAnalysis.Line1.Enabled, false
TestParameter, AutoAnalysis.Line1.Type, 1
TestParameter, AutoAnalysis.Line1.Fix, True
TestParameter, AutoAnalysis.Line1.YAxis, 0
TestParameter, AutoAnalysis.Line1.Point1.Type, 0
TestParameter, AutoAnalysis.Line1.Point1.XY.X, 
TestParameter, AutoAnalysis.Line1.Point1.XY.Y, 
TestParameter, AutoAnalysis.Line1.Point1.Data.Var, 
TestParameter, AutoAnalysis.Line1.Point1.Data.Condition, 
TestParameter, AutoAnalysis.Line1.Point1.Data.Start, false
TestParameter, AutoAnalysis.Line1.Point1.Data.StartVar, 
TestParameter, AutoAnalysis.Line1.Point1.Data.StartCondition, 
TestParameter, AutoAnalysis.Line1.Point2.Type, 0
TestParameter, AutoAnalysis.Line1.Point2.XY.X, 
TestParameter, AutoAnalysis.Line1.Point2.XY.Y, 
TestParameter, AutoAnalysis.Line1.Point2.Data.Var, 
TestParameter, AutoAnalysis.Line1.Point2.Data.Condition, 
TestParameter, AutoAnalysis.Line1.Point2.Data.Start, false
TestParameter, AutoAnalysis.Line1.Point2.Data.StartVar, 
TestParameter, AutoAnalysis.Line1.Point2.Data.StartCondition, 
TestParameter, AutoAnalysis.Line1.GradientExpr, 0
TestParameter, AutoAnalysis.Line2.Enabled, false
TestParameter, AutoAnalysis.Line2.Type, 1
TestParameter, AutoAnalysis.Line2.Fix, True
TestParameter, AutoAnalysis.Line2.YAxis, 0
TestParameter, AutoAnalysis.Line2.Point1.Type, 0
TestParameter, AutoAnalysis.Line2.Point1.XY.X, 
TestParameter, AutoAnalysis.Line2.Point1.XY.Y, 
TestParameter, AutoAnalysis.Line2.Point1.Data.Var, 
TestParameter, AutoAnalysis.Line2.Point1.Data.Condition, 
TestParameter, AutoAnalysis.Line2.Point1.Data.Start, false
TestParameter, AutoAnalysis.Line2.Point1.Data.StartVar, 
TestParameter, AutoAnalysis.Line2.Point1.Data.StartCondition, 
TestParameter, AutoAnalysis.Line2.Point2.Type, 0
TestParameter, AutoAnalysis.Line2.Point2.XY.X, 
TestParameter, AutoAnalysis.Line2.Point2.XY.Y, 
TestParameter, AutoAnalysis.Line2.Point2.Data.Var, 
TestParameter, AutoAnalysis.Line2.Point2.Data.Condition, 
TestParameter, AutoAnalysis.Line2.Point2.Data.Start, false
TestParameter, AutoAnalysis.Line2.Point2.Data.StartVar, 
TestParameter, AutoAnalysis.Line2.Point2.Data.StartCondition, 
TestParameter, AutoAnalysis.Line2.GradientExpr, 0
TestParameter, AutoAnalysis.Marker.Enabled, false
TestParameter, AutoAnalysis.Marker.Data.Var, 
TestParameter, AutoAnalysis.Marker.Data.Condition, 
TestParameter, AutoAnalysis.Marker.Data.Start, false
TestParameter, AutoAnalysis.Marker.Data.StartVar, 
TestParameter, AutoAnalysis.Marker.Data.StartCondition, 
MetaData, TestRecord.EntryPoint, true
MetaData, TestRecord.RecordTime, 10/19/2022 13:23:56
MetaData, TestRecord.TestTarget, 
MetaData, TestRecord.IterationIndex, 281
MetaData, TestRecord.Preservation, true
MetaData, TestRecord.Flag, 
MetaData, TestRecord.Remarks, 
MetaData, TestRecord.LinkKey, 7f7c772d-a50c-4a6e-bcbc-33d44c937762
MetaData, TestRecord.Parameters, 
Dimension1, 101, 101
Dimension2, 1, 1
DataName, V, I
DataValue, -2, 3.008E-10
DataValue, -1.9600000000000002, 8.5063999999999987E-09
DataValue, -1.9200000000000002, -2.0801599999999998E-08
DataValue, -1.8800000000000001, 3.4698799999999994E-08
DataValue, -1.84, -4.6598799999999995E-08
DataValue, -1.8, 4.76748E-08
DataValue, -1.76, -5.1348199999999995E-08
DataValue, -1.72, 5.1132999999999992E-08
DataValue, -1.6800000000000002, -4.1114399999999995E-08
DataValue, -1.6400000000000001, 3.59186E-08
DataValue, -1.6, -3.7158399999999996E-08
DataValue, -1.56, 2.6039E-08
DataValue, -1.52, -9.861E-09
DataValue, -1.48, -1.4389999999999999E-09
DataValue, -1.4400000000000002, 1.1184199999999999E-08
DataValue, -1.4000000000000001, -2.36966E-08
DataValue, -1.36, 3.97082E-08
DataValue, -1.32, -4.7218999999999994E-08
DataValue, -1.28, 4.8537599999999993E-08
DataValue, -1.24, -4.9298199999999993E-08
DataValue, -1.2, 5.0622799999999992E-08
DataValue, -1.1600000000000001, -5.0637999999999993E-08
DataValue, -1.12, 5.08898E-08
DataValue, -1.08, -5.1805599999999992E-08
DataValue, -1.04, 5.1567199999999992E-08
DataValue, -1, -5.09444E-08
DataValue, -0.96000000000000008, 4.87832E-08
DataValue, -0.92, -5.0178599999999994E-08
DataValue, -0.88, 5.1434799999999993E-08
DataValue, -0.84000000000000008, -4.89588E-08
DataValue, -0.8, 5.1068E-08
DataValue, -0.76, -5.10144E-08
DataValue, -0.72000000000000008, 3.6812199999999997E-08
DataValue, -0.68, -2.4091599999999997E-08
DataValue, -0.64, 9.9131999999999984E-09
DataValue, -0.6, 9.5449999999999988E-09
DataValue, -0.56, -2.11124E-08
DataValue, -0.52, 1.4787199999999998E-08
DataValue, -0.48000000000000004, 2.7849199999999998E-08
DataValue, -0.44, -1.1789999999999998E-08
DataValue, -0.4, 4.0119999999999997E-10
DataValue, -0.36000000000000004, 9.8538E-09
DataValue, -0.32, -1.74936E-08
DataValue, -0.28, 1.41012E-08
DataValue, -0.24000000000000002, -3.24628E-08
DataValue, -0.2, 4.7399999999999994E-08
DataValue, -0.16, -4.6766799999999994E-08
DataValue, -0.12000000000000001, 5.0491399999999994E-08
DataValue, -0.08, -5.0835E-08
DataValue, -0.04, 4.8854999999999996E-08
DataValue, 0, -3.19198E-08
DataValue, 0.04, 1.7497599999999997E-08
DataValue, 0.08, -3.2493999999999996E-09
DataValue, 0.12000000000000001, -8.265E-09
DataValue, 0.16, 1.9415E-08
DataValue, 0.2, -3.27168E-08
DataValue, 0.24000000000000002, 4.6725599999999996E-08
DataValue, 0.28, -4.85694E-08
DataValue, 0.32, 5.10308E-08
DataValue, 0.36000000000000004, -5.0598999999999995E-08
DataValue, 0.4, 5.1173199999999995E-08
DataValue, 0.44, -4.5329199999999993E-08
DataValue, 0.48000000000000004, 3.6989999999999996E-08
DataValue, 0.52, -2.4358E-08
DataValue, 0.56, 9.4183999999999988E-09
DataValue, 0.6, 2.4198E-09
DataValue, 0.64, -1.2989599999999999E-08
DataValue, 0.68, 2.63324E-08
DataValue, 0.72000000000000008, -4.242E-08
DataValue, 0.76, 4.77946E-08
DataValue, 0.8, -4.9444799999999993E-08
DataValue, 0.84000000000000008, 5.07568E-08
DataValue, 0.88, -5.1182199999999992E-08
DataValue, 0.92, 4.6454999999999995E-08
DataValue, 0.96000000000000008, -3.7402799999999997E-08
DataValue, 1, 3.1562999999999996E-08
DataValue, 1.04, -1.53816E-08
DataValue, 1.08, 3.7385999999999995E-09
DataValue, 1.12, 7.8494E-09
DataValue, 1.1600000000000001, -1.9022199999999997E-08
DataValue, 1.2, 3.13878E-08
DataValue, 1.24, -4.26224E-08
DataValue, 1.28, 4.0689999999999996E-08
DataValue, 1.32, -4.7165999999999994E-08
DataValue, 1.36, 4.8075199999999996E-08
DataValue, 1.4000000000000001, -5.07978E-08
DataValue, 1.4400000000000002, 5.1258199999999992E-08
DataValue, 1.48, -4.8245599999999992E-08
DataValue, 1.52, 4.6347E-08
DataValue, 1.56, -3.6813999999999995E-08
DataValue, 1.6, 2.6354399999999997E-08
DataValue, 1.6400000000000001, -1.06966E-08
DataValue, 1.6800000000000002, -1.4743799999999999E-08
DataValue, 1.72, 2.9202799999999996E-08
DataValue, 1.76, -4.9683199999999993E-08
DataValue, 1.8, 5.11096E-08
DataValue, 1.84, -4.9857399999999996E-08
DataValue, 1.8800000000000001, 4.6697799999999995E-08
DataValue, 1.9200000000000002, -3.7414399999999995E-08
DataValue, 1.9600000000000002, 1.4428399999999999E-08
DataValue, 2, -1.5021999999999998E-09