
SetupTitle, I/V Sweep
PrimitiveTest, I/V Sweep
TestParameter, Context.MainFrame, B1500A
TestParameter, Channel.UnitType, SMU, SMU, SMU, SMU, SMU
TestParameter, Channel.Unit, SMU1:HP, SMU2:MP, SMU3:MP, SMU4:MP, SMU5:MP
TestParameter, Channel.IName, I, IDD1, IDD2, ISS, IPP
TestParameter, Channel.VName, V, VDD1, VDD2, VSS, VPP
TestParameter, Channel.Mode, V, V, V, V, V
TestParameter, Channel.Func, VAR1, CONST, CONST, CONST, CONST
TestParameter, Channel.Index, 
TestParameter, Channel.Time, 
TestParameter, Measurement.Port.Unit, SMU1:HP, SMU2:MP, SMU3:MP, SMU4:MP, SMU5:MP
TestParameter, Measurement.Port.SeriesResistor, NONE, NONE, NONE, NONE, NONE
TestParameter, Measurement.Port.Filter, ON, ON, ON, ON, ON
TestParameter, Measurement.Port.OutputVoltageComparison, 0, 0, 0, 0, 0
TestParameter, Measurement.Primary.Locus, Single
TestParameter, Measurement.Primary.Scale, LINEAR
TestParameter, Measurement.Primary.Start, -2
TestParameter, Measurement.Primary.Stop, 2
TestParameter, Measurement.Primary.Step, 0.04
TestParameter, Measurement.Primary.Compliance, 0.1
TestParameter, Measurement.Primary.PowerCompliance, 0
TestParameter, Measurement.Aborting.Condition, CONTINUE AT ANY
TestParameter, Measurement.PostOutput.Value, START
TestParameter, Measurement.PostOutput.Retention, OFF
TestParameter, Measurement.Bias.Source, -2, 1.8, 1.1, 0, 0
TestParameter, Measurement.Bias.Compliance, 0.1, 0.1, 0.1, 0.1, 0.1
TestParameter, Measurement.Monitor.Unit, SMU1:HP, SMU2:MP, SMU3:MP, SMU4:MP, SMU5:MP
TestParameter, Measurement.Monitor.Adc, HR ADC, HR ADC, HR ADC, HR ADC, HR ADC
TestParameter, Measurement.Monitor.Measurement, Compliance Side, Compliance Side, Compliance Side, Compliance Side, Compliance Side
TestParameter, Measurement.Monitor.RangingMode, LIMITED, LIMITED, LIMITED, LIMITED, LIMITED
TestParameter, Measurement.Monitor.RangeBoundary, 1nA, 1nA, 1nA, 1nA, 1nA
TestParameter, Measurement.Monitor.RangeRating, BY FULL RANGE, BY FULL RANGE, BY FULL RANGE, BY FULL RANGE, BY FULL RANGE
TestParameter, Measurement.Monitor.RangeRatingCoeff, 50, 50, 50, 50, 50
TestParameter, Measurement.Timing.Hold, 0
TestParameter, Measurement.Timing.Delay, 0
TestParameter, Measurement.Adc.HighSpeed.Mode, AUTO
TestParameter, Measurement.Adc.HighSpeed.Coeff, 1
TestParameter, Measurement.Adc.HighResolution.AutoZero, OFF
TestParameter, Measurement.Adc.HighResolution.Mode, AUTO
TestParameter, Measurement.Adc.HighResolution.Coeff, 6
TestParameter, Measurement.WaitTime.Source.Coeff, 1
TestParameter, Measurement.WaitTime.Source.Offset, 0
TestParameter, Measurement.WaitTime.Monitor.Coeff, 1
TestParameter, Measurement.WaitTime.Monitor.Offset, 0
TestParameter, Output.Graph.Enabled, true
TestParameter, Output.Graph.AutoScaling, false
TestParameter, Output.Graph.XAxis.Data, V
TestParameter, Output.Graph.XAxis.Scale, Linear
TestParameter, Output.Graph.XAxis.Left, -2
TestParameter, Output.Graph.XAxis.Right, 2
TestParameter, Output.Graph.XAxis.RunTimeAutoScale, true
TestParameter, Output.Graph.YAxis.Data, I
TestParameter, Output.Graph.YAxis.Scale, Linear
TestParameter, Output.Graph.YAxis.Bottom, -0.1
TestParameter, Output.Graph.YAxis.Top, 0.1
TestParameter, Output.Graph.YAxis.Group, 
TestParameter, Output.Graph.YAxis.RunTimeAutoScale, true
TestParameter, AutoAnalysis.Interpolation, false
TestParameter, AutoAnalysis.Var2StepCount, 1
TestParameter, AutoAnalysis.Var2StepScript, 
TestParameter, AutoAnalysis.Line1.Enabled, false
TestParameter, AutoAnalysis.Line1.Type, 1
TestParameter, AutoAnalysis.Line1.Fix, True
TestParameter, AutoAnalysis.Line1.YAxis, 0
TestParameter, AutoAnalysis.Line1.Point1.Type, 0
TestParameter, AutoAnalysis.Line1.Point1.XY.X, 
TestParameter, AutoAnalysis.Line1.Point1.XY.Y, 
TestParameter, AutoAnalysis.Line1.Point1.Data.Var, 
TestParameter, AutoAnalysis.Line1.Point1.Data.Condition, 
TestParameter, AutoAnalysis.Line1.Point1.Data.Start, false
TestParameter, AutoAnalysis.Line1.Point1.Data.StartVar, 
TestParameter, AutoAnalysis.Line1.Point1.Data.StartCondition, 
TestParameter, AutoAnalysis.Line1.Point2.Type, 0
TestParameter, AutoAnalysis.Line1.Point2.XY.X, 
TestParameter, AutoAnalysis.Line1.Point2.XY.Y, 
TestParameter, AutoAnalysis.Line1.Point2.Data.Var, 
TestParameter, AutoAnalysis.Line1.Point2.Data.Condition, 
TestParameter, AutoAnalysis.Line1.Point2.Data.Start, false
TestParameter, AutoAnalysis.Line1.Point2.Data.StartVar, 
TestParameter, AutoAnalysis.Line1.Point2.Data.StartCondition, 
TestParameter, AutoAnalysis.Line1.GradientExpr, 0
TestParameter, AutoAnalysis.Line2.Enabled, false
TestParameter, AutoAnalysis.Line2.Type, 1
TestParameter, AutoAnalysis.Line2.Fix, True
TestParameter, AutoAnalysis.Line2.YAxis, 0
TestParameter, AutoAnalysis.Line2.Point1.Type, 0
TestParameter, AutoAnalysis.Line2.Point1.XY.X, 
TestParameter, AutoAnalysis.Line2.Point1.XY.Y, 
TestParameter, AutoAnalysis.Line2.Point1.Data.Var, 
TestParameter, AutoAnalysis.Line2.Point1.Data.Condition, 
TestParameter, AutoAnalysis.Line2.Point1.Data.Start, false
TestParameter, AutoAnalysis.Line2.Point1.Data.StartVar, 
TestParameter, AutoAnalysis.Line2.Point1.Data.StartCondition, 
TestParameter, AutoAnalysis.Line2.Point2.Type, 0
TestParameter, AutoAnalysis.Line2.Point2.XY.X, 
TestParameter, AutoAnalysis.Line2.Point2.XY.Y, 
TestParameter, AutoAnalysis.Line2.Point2.Data.Var, 
TestParameter, AutoAnalysis.Line2.Point2.Data.Condition, 
TestParameter, AutoAnalysis.Line2.Point2.Data.Start, false
TestParameter, AutoAnalysis.Line2.Point2.Data.StartVar, 
TestParameter, AutoAnalysis.Line2.Point2.Data.StartCondition, 
TestParameter, AutoAnalysis.Line2.GradientExpr, 0
TestParameter, AutoAnalysis.Marker.Enabled, false
TestParameter, AutoAnalysis.Marker.Data.Var, 
TestParameter, AutoAnalysis.Marker.Data.Condition, 
TestParameter, AutoAnalysis.Marker.Data.Start, false
TestParameter, AutoAnalysis.Marker.Data.StartVar, 
TestParameter, AutoAnalysis.Marker.Data.StartCondition, 
MetaData, TestRecord.EntryPoint, true
MetaData, TestRecord.RecordTime, 10/19/2022 13:30:57
MetaData, TestRecord.TestTarget, 
MetaData, TestRecord.IterationIndex, 294
MetaData, TestRecord.Preservation, true
MetaData, TestRecord.Flag, 
MetaData, TestRecord.Remarks, 
MetaData, TestRecord.LinkKey, 36528c9c-77e7-49f9-9e03-58ecdaa3cfc0
MetaData, TestRecord.Parameters, 
Dimension1, 101, 101
Dimension2, 1, 1
DataName, V, I
DataValue, -2, -5.1114E-08
DataValue, -1.9600000000000002, 4.92136E-08
DataValue, -1.9200000000000002, -4.2858999999999994E-08
DataValue, -1.8800000000000001, 1.1677999999999999E-08
DataValue, -1.84, 9.6899999999999986E-10
DataValue, -1.8, -1.2131399999999998E-08
DataValue, -1.76, 2.3248599999999997E-08
DataValue, -1.72, -3.44862E-08
DataValue, -1.6800000000000002, 2.9804E-08
DataValue, -1.6400000000000001, -2.9269599999999998E-08
DataValue, -1.6, 2.5736799999999997E-08
DataValue, -1.56, -3.95206E-08
DataValue, -1.52, 4.69868E-08
DataValue, -1.48, -4.92486E-08
DataValue, -1.4400000000000002, 5.0704599999999995E-08
DataValue, -1.4000000000000001, -5.1556199999999993E-08
DataValue, -1.36, 4.75288E-08
DataValue, -1.32, -4.07302E-08
DataValue, -1.28, 3.23874E-08
DataValue, -1.24, -1.8291399999999997E-08
DataValue, -1.2, 3.8835999999999993E-09
DataValue, -1.1600000000000001, 6.2507999999999991E-09
DataValue, -1.12, -1.7356199999999998E-08
DataValue, -1.08, 3.11468E-08
DataValue, -1.04, -4.6600999999999995E-08
DataValue, -1, 4.80478E-08
DataValue, -0.96000000000000008, -5.0479799999999995E-08
DataValue, -0.92, 4.9627999999999993E-08
DataValue, -0.88, -5.03626E-08
DataValue, -0.84000000000000008, 5.0671999999999992E-08
DataValue, -0.8, -5.02718E-08
DataValue, -0.76, 4.5866999999999996E-08
DataValue, -0.72000000000000008, -3.6975799999999996E-08
DataValue, -0.68, 2.54886E-08
DataValue, -0.64, -9.3393999999999986E-09
DataValue, -0.6, -2.1133999999999998E-09
DataValue, -0.56, 1.2865399999999998E-08
DataValue, -0.52, -2.4592799999999996E-08
DataValue, -0.48000000000000004, 3.95814E-08
DataValue, -0.44, -3.6741199999999996E-08
DataValue, -0.4, 4.6195199999999995E-08
DataValue, -0.36000000000000004, -4.87024E-08
DataValue, -0.32, 5.1074799999999995E-08
DataValue, -0.28, -5.1518999999999993E-08
DataValue, -0.24000000000000002, 4.8469799999999992E-08
DataValue, -0.2, -4.0010199999999997E-08
DataValue, -0.16, 3.18872E-08
DataValue, -0.12000000000000001, -1.5703399999999997E-08
DataValue, -0.08, 2.5654E-09
DataValue, -0.04, 7.8335999999999991E-09
DataValue, 0, -3.7677599999999993E-08
DataValue, 0.04, 4.6584199999999993E-08
DataValue, 0.08, -4.8741599999999992E-08
DataValue, 0.12000000000000001, 5.0981199999999996E-08
DataValue, 0.16, -4.7401599999999995E-08
DataValue, 0.2, 3.73732E-08
DataValue, 0.24000000000000002, -2.5114199999999997E-08
DataValue, 0.28, 9.793799999999999E-09
DataValue, 0.32, 2.3005999999999997E-09
DataValue, 0.36000000000000004, -1.3394599999999998E-08
DataValue, 0.4, 2.5405599999999998E-08
DataValue, 0.44, -4.1906E-08
DataValue, 0.48000000000000004, 4.7663999999999996E-08
DataValue, 0.52, -4.9450799999999993E-08
DataValue, 0.56, 5.0715599999999994E-08
DataValue, 0.6, -5.1290999999999993E-08
DataValue, 0.64, 4.6572599999999994E-08
DataValue, 0.68, -3.71406E-08
DataValue, 0.72000000000000008, 2.71226E-08
DataValue, 0.76, -1.49806E-08
DataValue, 0.8, 1.7239199999999997E-08
DataValue, 0.84000000000000008, -2.6668E-09
DataValue, 0.88, -8.5476E-09
DataValue, 0.92, 2.0178799999999997E-08
DataValue, 0.96000000000000008, -3.3785599999999994E-08
DataValue, 1, 4.6822399999999996E-08
DataValue, 1.04, -4.9079799999999996E-08
DataValue, 1.08, 5.1031999999999997E-08
DataValue, 1.12, -5.1692599999999997E-08
DataValue, 1.1600000000000001, 4.8045E-08
DataValue, 1.2, -3.8387199999999996E-08
DataValue, 1.24, 2.9201599999999997E-08
DataValue, 1.28, -1.2729199999999999E-08
DataValue, 1.32, 9.3539999999999989E-10
DataValue, 1.36, 1.07256E-08
DataValue, 1.4000000000000001, -2.3261E-08
DataValue, 1.4400000000000002, 3.7765999999999996E-08
DataValue, 1.48, -4.6348399999999994E-08
DataValue, 1.52, 4.7767999999999995E-08
DataValue, 1.56, -5.0934999999999993E-08
DataValue, 1.6, 4.04656E-08
DataValue, 1.6400000000000001, -3.11706E-08
DataValue, 1.6800000000000002, 1.80188E-08
DataValue, 1.72, -4.4449999999999994E-09
DataValue, 1.76, -6.6239999999999995E-09
DataValue, 1.8, 1.8301999999999997E-08
DataValue, 1.84, -3.31198E-08
DataValue, 1.8800000000000001, 4.4927799999999993E-08
DataValue, 1.9200000000000002, -4.8152399999999995E-08
DataValue, 1.9600000000000002, 5.0569399999999996E-08
DataValue, 2, -5.0887799999999995E-08