
SetupTitle, I/V Sweep
PrimitiveTest, I/V Sweep
TestParameter, Context.MainFrame, B1500A
TestParameter, Channel.UnitType, SMU, SMU, SMU, SMU, SMU
TestParameter, Channel.Unit, SMU1:HP, SMU2:MP, SMU3:MP, SMU4:MP, SMU5:MP
TestParameter, Channel.IName, I, IDD1, IDD2, ISS, IPP
TestParameter, Channel.VName, V, VDD1, VDD2, VSS, VPP
TestParameter, Channel.Mode, V, V, V, V, V
TestParameter, Channel.Func, CONST, VAR1, CONST, CONST, CONST
TestParameter, Channel.Index, 
TestParameter, Channel.Time, 
TestParameter, Measurement.Port.Unit, SMU1:HP, SMU2:MP, SMU3:MP, SMU4:MP, SMU5:MP
TestParameter, Measurement.Port.SeriesResistor, NONE, NONE, NONE, NONE, NONE
TestParameter, Measurement.Port.Filter, ON, ON, ON, ON, ON
TestParameter, Measurement.Port.OutputVoltageComparison, 0, 0, 0, 0, 0
TestParameter, Measurement.Primary.Locus, Single
TestParameter, Measurement.Primary.Scale, LINEAR
TestParameter, Measurement.Primary.Start, -2
TestParameter, Measurement.Primary.Stop, 2
TestParameter, Measurement.Primary.Step, 0.04
TestParameter, Measurement.Primary.Compliance, 0.1
TestParameter, Measurement.Primary.PowerCompliance, 0
TestParameter, Measurement.Aborting.Condition, CONTINUE AT ANY
TestParameter, Measurement.PostOutput.Value, START
TestParameter, Measurement.PostOutput.Retention, OFF
TestParameter, Measurement.Bias.Source, -2, -2, -2, 0, 0
TestParameter, Measurement.Bias.Compliance, 0.1, 0.1, 0.1, 0.1, 0.1
TestParameter, Measurement.Monitor.Unit, SMU1:HP, SMU2:MP, SMU3:MP, SMU4:MP, SMU5:MP
TestParameter, Measurement.Monitor.Adc, HR ADC, HR ADC, HR ADC, HR ADC, HR ADC
TestParameter, Measurement.Monitor.Measurement, Compliance Side, Compliance Side, Compliance Side, Compliance Side, Compliance Side
TestParameter, Measurement.Monitor.RangingMode, LIMITED, LIMITED, LIMITED, LIMITED, LIMITED
TestParameter, Measurement.Monitor.RangeBoundary, 1nA, 1nA, 1nA, 1nA, 1nA
TestParameter, Measurement.Monitor.RangeRating, BY FULL RANGE, BY FULL RANGE, BY FULL RANGE, BY FULL RANGE, BY FULL RANGE
TestParameter, Measurement.Monitor.RangeRatingCoeff, 50, 50, 50, 50, 50
TestParameter, Measurement.Timing.Hold, 0
TestParameter, Measurement.Timing.Delay, 0
TestParameter, Measurement.Adc.HighSpeed.Mode, AUTO
TestParameter, Measurement.Adc.HighSpeed.Coeff, 1
TestParameter, Measurement.Adc.HighResolution.AutoZero, OFF
TestParameter, Measurement.Adc.HighResolution.Mode, AUTO
TestParameter, Measurement.Adc.HighResolution.Coeff, 6
TestParameter, Measurement.WaitTime.Source.Coeff, 1
TestParameter, Measurement.WaitTime.Source.Offset, 0
TestParameter, Measurement.WaitTime.Monitor.Coeff, 1
TestParameter, Measurement.WaitTime.Monitor.Offset, 0
TestParameter, Output.Graph.Enabled, true
TestParameter, Output.Graph.AutoScaling, false
TestParameter, Output.Graph.XAxis.Data, VDD1
TestParameter, Output.Graph.XAxis.Scale, Linear
TestParameter, Output.Graph.XAxis.Left, -2
TestParameter, Output.Graph.XAxis.Right, 2
TestParameter, Output.Graph.XAxis.RunTimeAutoScale, true
TestParameter, Output.Graph.YAxis.Data, IDD1
TestParameter, Output.Graph.YAxis.Scale, Linear
TestParameter, Output.Graph.YAxis.Bottom, -0.1
TestParameter, Output.Graph.YAxis.Top, 0.1
TestParameter, Output.Graph.YAxis.Group, 
TestParameter, Output.Graph.YAxis.RunTimeAutoScale, true
TestParameter, AutoAnalysis.Interpolation, false
TestParameter, AutoAnalysis.Var2StepCount, 1
TestParameter, AutoAnalysis.Var2StepScript, 
TestParameter, AutoAnalysis.Line1.Enabled, false
TestParameter, AutoAnalysis.Line1.Type, 1
TestParameter, AutoAnalysis.Line1.Fix, True
TestParameter, AutoAnalysis.Line1.YAxis, 0
TestParameter, AutoAnalysis.Line1.Point1.Type, 0
TestParameter, AutoAnalysis.Line1.Point1.XY.X, 
TestParameter, AutoAnalysis.Line1.Point1.XY.Y, 
TestParameter, AutoAnalysis.Line1.Point1.Data.Var, 
TestParameter, AutoAnalysis.Line1.Point1.Data.Condition, 
TestParameter, AutoAnalysis.Line1.Point1.Data.Start, false
TestParameter, AutoAnalysis.Line1.Point1.Data.StartVar, 
TestParameter, AutoAnalysis.Line1.Point1.Data.StartCondition, 
TestParameter, AutoAnalysis.Line1.Point2.Type, 0
TestParameter, AutoAnalysis.Line1.Point2.XY.X, 
TestParameter, AutoAnalysis.Line1.Point2.XY.Y, 
TestParameter, AutoAnalysis.Line1.Point2.Data.Var, 
TestParameter, AutoAnalysis.Line1.Point2.Data.Condition, 
TestParameter, AutoAnalysis.Line1.Point2.Data.Start, false
TestParameter, AutoAnalysis.Line1.Point2.Data.StartVar, 
TestParameter, AutoAnalysis.Line1.Point2.Data.StartCondition, 
TestParameter, AutoAnalysis.Line1.GradientExpr, 0
TestParameter, AutoAnalysis.Line2.Enabled, false
TestParameter, AutoAnalysis.Line2.Type, 1
TestParameter, AutoAnalysis.Line2.Fix, True
TestParameter, AutoAnalysis.Line2.YAxis, 0
TestParameter, AutoAnalysis.Line2.Point1.Type, 0
TestParameter, AutoAnalysis.Line2.Point1.XY.X, 
TestParameter, AutoAnalysis.Line2.Point1.XY.Y, 
TestParameter, AutoAnalysis.Line2.Point1.Data.Var, 
TestParameter, AutoAnalysis.Line2.Point1.Data.Condition, 
TestParameter, AutoAnalysis.Line2.Point1.Data.Start, false
TestParameter, AutoAnalysis.Line2.Point1.Data.StartVar, 
TestParameter, AutoAnalysis.Line2.Point1.Data.StartCondition, 
TestParameter, AutoAnalysis.Line2.Point2.Type, 0
TestParameter, AutoAnalysis.Line2.Point2.XY.X, 
TestParameter, AutoAnalysis.Line2.Point2.XY.Y, 
TestParameter, AutoAnalysis.Line2.Point2.Data.Var, 
TestParameter, AutoAnalysis.Line2.Point2.Data.Condition, 
TestParameter, AutoAnalysis.Line2.Point2.Data.Start, false
TestParameter, AutoAnalysis.Line2.Point2.Data.StartVar, 
TestParameter, AutoAnalysis.Line2.Point2.Data.StartCondition, 
TestParameter, AutoAnalysis.Line2.GradientExpr, 0
TestParameter, AutoAnalysis.Marker.Enabled, false
TestParameter, AutoAnalysis.Marker.Data.Var, 
TestParameter, AutoAnalysis.Marker.Data.Condition, 
TestParameter, AutoAnalysis.Marker.Data.Start, false
TestParameter, AutoAnalysis.Marker.Data.StartVar, 
TestParameter, AutoAnalysis.Marker.Data.StartCondition, 
MetaData, TestRecord.EntryPoint, true
MetaData, TestRecord.RecordTime, 10/19/2022 13:56:22
MetaData, TestRecord.TestTarget, 
MetaData, TestRecord.IterationIndex, 369
MetaData, TestRecord.Preservation, true
MetaData, TestRecord.Flag, 
MetaData, TestRecord.Remarks, 
MetaData, TestRecord.LinkKey, bf71b879-c308-48a6-8454-df59b8aa48a4
MetaData, TestRecord.Parameters, 
Dimension1, 101, 101
Dimension2, 1, 1
DataName, VDD1, IDD1
DataValue, -2, -0.016038
DataValue, -1.9600000000000002, -0.015594000000000002
DataValue, -1.9200000000000002, -0.015244
DataValue, -1.8800000000000001, -0.014728000000000002
DataValue, -1.84, -0.014238
DataValue, -1.8, -0.013728
DataValue, -1.76, -0.013182000000000001
DataValue, -1.72, -0.01267
DataValue, -1.6800000000000002, -0.012148
DataValue, -1.6400000000000001, -0.011638
DataValue, -1.6, -0.011136000000000002
DataValue, -1.56, -0.01064
DataValue, -1.52, -0.01013
DataValue, -1.48, -0.0096108000000000009
DataValue, -1.4400000000000002, -0.009126200000000001
DataValue, -1.4000000000000001, -0.0086434
DataValue, -1.36, -0.008161
DataValue, -1.32, -0.0077012
DataValue, -1.28, -0.0072074
DataValue, -1.24, -0.0067572000000000005
DataValue, -1.2, -0.0063138000000000005
DataValue, -1.1600000000000001, -0.0058734
DataValue, -1.12, -0.0054586
DataValue, -1.08, -0.0050284
DataValue, -1.04, -0.0046262000000000005
DataValue, -1, -0.0041142
DataValue, -0.96000000000000008, -0.0037362000000000003
DataValue, -0.92, -0.003376
DataValue, -0.88, -0.0030194
DataValue, -0.84000000000000008, -0.0026728
DataValue, -0.8, -0.0023328
DataValue, -0.76, -0.0020046
DataValue, -0.72000000000000008, -0.0016824000000000001
DataValue, -0.68, -0.0013736
DataValue, -0.64, -0.0010786
DataValue, -0.6, -0.00079964
DataValue, -0.56, -0.00054794
DataValue, -0.52, -0.00033212000000000004
DataValue, -0.48000000000000004, -0.00016790000000000002
DataValue, -0.44, -6.8598E-05
DataValue, -0.4, -2.226E-05
DataValue, -0.36000000000000004, -6.967E-06
DataValue, -0.32, -1.6994000000000002E-06
DataValue, -0.28, -4.9846E-07
DataValue, -0.24000000000000002, -1.2592E-07
DataValue, -0.2, -2.9618399999999996E-08
DataValue, -0.16, 1.1116E-09
DataValue, -0.12000000000000001, 1.0078999999999999E-08
DataValue, -0.08, 3.69258E-08
DataValue, -0.04, 1.0558E-07
DataValue, 0, 2.8194E-07
DataValue, 0.04, 6.1746E-07
DataValue, 0.08, 1.094E-06
DataValue, 0.12000000000000001, 2.2566E-06
DataValue, 0.16, 3.2759000000000003E-06
DataValue, 0.2, 4.2975000000000008E-06
DataValue, 0.24000000000000002, 5.3842000000000009E-06
DataValue, 0.28, 6.575600000000001E-06
DataValue, 0.32, 6.063E-06
DataValue, 0.36000000000000004, 6.5513E-06
DataValue, 0.4, 7.2136000000000007E-06
DataValue, 0.44, 7.8876E-06
DataValue, 0.48000000000000004, 8.5275000000000009E-06
DataValue, 0.52, 9.1473000000000013E-06
DataValue, 0.56, 9.7158000000000011E-06
DataValue, 0.6, 1.0666000000000001E-05
DataValue, 0.64, 1.5498E-05
DataValue, 0.68, 1.9238E-05
DataValue, 0.72000000000000008, 2.2844E-05
DataValue, 0.76, 2.7096E-05
DataValue, 0.8, 3.3058E-05
DataValue, 0.84000000000000008, 4.2206E-05
DataValue, 0.88, 5.5132E-05
DataValue, 0.92, 7.2744000000000007E-05
DataValue, 0.96000000000000008, 9.5016E-05
DataValue, 1, 0.00011768000000000001
DataValue, 1.04, 0.00015016
DataValue, 1.08, 0.00018576
DataValue, 1.12, 0.00022476
DataValue, 1.1600000000000001, 0.00026734
DataValue, 1.2, 0.00031328000000000004
DataValue, 1.24, 0.00036280000000000004
DataValue, 1.28, 0.00041632
DataValue, 1.32, 0.00047394
DataValue, 1.36, 0.00053638
DataValue, 1.4000000000000001, 0.00060396000000000007
DataValue, 1.4400000000000002, 0.00067736
DataValue, 1.48, 0.00075726
DataValue, 1.52, 0.00084430000000000009
DataValue, 1.56, 0.00093902
DataValue, 1.6, 0.0010422
DataValue, 1.6400000000000001, 0.0011638
DataValue, 1.6800000000000002, 0.0012878
DataValue, 1.72, 0.0014194000000000001
DataValue, 1.76, 0.0015602
DataValue, 1.8, 0.0017082
DataValue, 1.84, 0.0018656
DataValue, 1.8800000000000001, 0.0020336
DataValue, 1.9200000000000002, 0.0022112
DataValue, 1.9600000000000002, 0.0023984
DataValue, 2, 0.0025934