
SetupTitle, I/V Sweep
PrimitiveTest, I/V Sweep
TestParameter, Context.MainFrame, B1500A
TestParameter, Channel.UnitType, SMU, SMU, SMU, SMU, SMU
TestParameter, Channel.Unit, SMU1:HP, SMU2:MP, SMU3:MP, SMU4:MP, SMU5:MP
TestParameter, Channel.IName, I, IDD1, IDD2, ISS, IPP
TestParameter, Channel.VName, V, VDD1, VDD2, VSS, VPP
TestParameter, Channel.Mode, V, V, V, V, V
TestParameter, Channel.Func, VAR1, CONST, CONST, CONST, CONST
TestParameter, Channel.Index, 
TestParameter, Channel.Time, 
TestParameter, Measurement.Port.Unit, SMU1:HP, SMU2:MP, SMU3:MP, SMU4:MP, SMU5:MP
TestParameter, Measurement.Port.SeriesResistor, NONE, NONE, NONE, NONE, NONE
TestParameter, Measurement.Port.Filter, ON, ON, ON, ON, ON
TestParameter, Measurement.Port.OutputVoltageComparison, 0, 0, 0, 0, 0
TestParameter, Measurement.Primary.Locus, Single
TestParameter, Measurement.Primary.Scale, LINEAR
TestParameter, Measurement.Primary.Start, -2
TestParameter, Measurement.Primary.Stop, 2
TestParameter, Measurement.Primary.Step, 0.04
TestParameter, Measurement.Primary.Compliance, 0.1
TestParameter, Measurement.Primary.PowerCompliance, 0
TestParameter, Measurement.Aborting.Condition, CONTINUE AT ANY
TestParameter, Measurement.PostOutput.Value, START
TestParameter, Measurement.PostOutput.Retention, OFF
TestParameter, Measurement.Bias.Source, -2, 1.8, 1.1, 0, 0
TestParameter, Measurement.Bias.Compliance, 0.1, 0.1, 0.1, 0.1, 0.1
TestParameter, Measurement.Monitor.Unit, SMU1:HP, SMU2:MP, SMU3:MP, SMU4:MP, SMU5:MP
TestParameter, Measurement.Monitor.Adc, HR ADC, HR ADC, HR ADC, HR ADC, HR ADC
TestParameter, Measurement.Monitor.Measurement, Compliance Side, Compliance Side, Compliance Side, Compliance Side, Compliance Side
TestParameter, Measurement.Monitor.RangingMode, LIMITED, LIMITED, LIMITED, LIMITED, LIMITED
TestParameter, Measurement.Monitor.RangeBoundary, 1nA, 1nA, 1nA, 1nA, 1nA
TestParameter, Measurement.Monitor.RangeRating, BY FULL RANGE, BY FULL RANGE, BY FULL RANGE, BY FULL RANGE, BY FULL RANGE
TestParameter, Measurement.Monitor.RangeRatingCoeff, 50, 50, 50, 50, 50
TestParameter, Measurement.Timing.Hold, 0
TestParameter, Measurement.Timing.Delay, 0
TestParameter, Measurement.Adc.HighSpeed.Mode, AUTO
TestParameter, Measurement.Adc.HighSpeed.Coeff, 1
TestParameter, Measurement.Adc.HighResolution.AutoZero, OFF
TestParameter, Measurement.Adc.HighResolution.Mode, AUTO
TestParameter, Measurement.Adc.HighResolution.Coeff, 6
TestParameter, Measurement.WaitTime.Source.Coeff, 1
TestParameter, Measurement.WaitTime.Source.Offset, 0
TestParameter, Measurement.WaitTime.Monitor.Coeff, 1
TestParameter, Measurement.WaitTime.Monitor.Offset, 0
TestParameter, Output.Graph.Enabled, true
TestParameter, Output.Graph.AutoScaling, false
TestParameter, Output.Graph.XAxis.Data, V
TestParameter, Output.Graph.XAxis.Scale, Linear
TestParameter, Output.Graph.XAxis.Left, -2
TestParameter, Output.Graph.XAxis.Right, 2
TestParameter, Output.Graph.XAxis.RunTimeAutoScale, true
TestParameter, Output.Graph.YAxis.Data, I
TestParameter, Output.Graph.YAxis.Scale, Linear
TestParameter, Output.Graph.YAxis.Bottom, -0.1
TestParameter, Output.Graph.YAxis.Top, 0.1
TestParameter, Output.Graph.YAxis.Group, 
TestParameter, Output.Graph.YAxis.RunTimeAutoScale, true
TestParameter, AutoAnalysis.Interpolation, false
TestParameter, AutoAnalysis.Var2StepCount, 1
TestParameter, AutoAnalysis.Var2StepScript, 
TestParameter, AutoAnalysis.Line1.Enabled, false
TestParameter, AutoAnalysis.Line1.Type, 1
TestParameter, AutoAnalysis.Line1.Fix, True
TestParameter, AutoAnalysis.Line1.YAxis, 0
TestParameter, AutoAnalysis.Line1.Point1.Type, 0
TestParameter, AutoAnalysis.Line1.Point1.XY.X, 
TestParameter, AutoAnalysis.Line1.Point1.XY.Y, 
TestParameter, AutoAnalysis.Line1.Point1.Data.Var, 
TestParameter, AutoAnalysis.Line1.Point1.Data.Condition, 
TestParameter, AutoAnalysis.Line1.Point1.Data.Start, false
TestParameter, AutoAnalysis.Line1.Point1.Data.StartVar, 
TestParameter, AutoAnalysis.Line1.Point1.Data.StartCondition, 
TestParameter, AutoAnalysis.Line1.Point2.Type, 0
TestParameter, AutoAnalysis.Line1.Point2.XY.X, 
TestParameter, AutoAnalysis.Line1.Point2.XY.Y, 
TestParameter, AutoAnalysis.Line1.Point2.Data.Var, 
TestParameter, AutoAnalysis.Line1.Point2.Data.Condition, 
TestParameter, AutoAnalysis.Line1.Point2.Data.Start, false
TestParameter, AutoAnalysis.Line1.Point2.Data.StartVar, 
TestParameter, AutoAnalysis.Line1.Point2.Data.StartCondition, 
TestParameter, AutoAnalysis.Line1.GradientExpr, 0
TestParameter, AutoAnalysis.Line2.Enabled, false
TestParameter, AutoAnalysis.Line2.Type, 1
TestParameter, AutoAnalysis.Line2.Fix, True
TestParameter, AutoAnalysis.Line2.YAxis, 0
TestParameter, AutoAnalysis.Line2.Point1.Type, 0
TestParameter, AutoAnalysis.Line2.Point1.XY.X, 
TestParameter, AutoAnalysis.Line2.Point1.XY.Y, 
TestParameter, AutoAnalysis.Line2.Point1.Data.Var, 
TestParameter, AutoAnalysis.Line2.Point1.Data.Condition, 
TestParameter, AutoAnalysis.Line2.Point1.Data.Start, false
TestParameter, AutoAnalysis.Line2.Point1.Data.StartVar, 
TestParameter, AutoAnalysis.Line2.Point1.Data.StartCondition, 
TestParameter, AutoAnalysis.Line2.Point2.Type, 0
TestParameter, AutoAnalysis.Line2.Point2.XY.X, 
TestParameter, AutoAnalysis.Line2.Point2.XY.Y, 
TestParameter, AutoAnalysis.Line2.Point2.Data.Var, 
TestParameter, AutoAnalysis.Line2.Point2.Data.Condition, 
TestParameter, AutoAnalysis.Line2.Point2.Data.Start, false
TestParameter, AutoAnalysis.Line2.Point2.Data.StartVar, 
TestParameter, AutoAnalysis.Line2.Point2.Data.StartCondition, 
TestParameter, AutoAnalysis.Line2.GradientExpr, 0
TestParameter, AutoAnalysis.Marker.Enabled, false
TestParameter, AutoAnalysis.Marker.Data.Var, 
TestParameter, AutoAnalysis.Marker.Data.Condition, 
TestParameter, AutoAnalysis.Marker.Data.Start, false
TestParameter, AutoAnalysis.Marker.Data.StartVar, 
TestParameter, AutoAnalysis.Marker.Data.StartCondition, 
MetaData, TestRecord.EntryPoint, true
MetaData, TestRecord.RecordTime, 10/19/2022 13:42:38
MetaData, TestRecord.TestTarget, 
MetaData, TestRecord.IterationIndex, 335
MetaData, TestRecord.Preservation, true
MetaData, TestRecord.Flag, 
MetaData, TestRecord.Remarks, 
MetaData, TestRecord.LinkKey, 35062a1f-dd48-42b6-855f-cd80f9dec29d
MetaData, TestRecord.Parameters, 
Dimension1, 101, 101
Dimension2, 1, 1
DataName, V, I
DataValue, -2, -0.011692000000000001
DataValue, -1.9600000000000002, -0.011402
DataValue, -1.9200000000000002, -0.011120000000000001
DataValue, -1.8800000000000001, -0.010856000000000001
DataValue, -1.84, -0.010532000000000001
DataValue, -1.8, -0.010226
DataValue, -1.76, -0.009919
DataValue, -1.72, -0.0096194
DataValue, -1.6800000000000002, -0.0093224
DataValue, -1.6400000000000001, -0.009018
DataValue, -1.6, -0.008707
DataValue, -1.56, -0.0083336
DataValue, -1.52, -0.0080728
DataValue, -1.48, -0.007777
DataValue, -1.4400000000000002, -0.007468
DataValue, -1.4000000000000001, -0.0071616
DataValue, -1.36, -0.006886
DataValue, -1.32, -0.0066166
DataValue, -1.28, -0.0063338000000000005
DataValue, -1.24, -0.0060602
DataValue, -1.2, -0.0057874
DataValue, -1.1600000000000001, -0.0055168000000000005
DataValue, -1.12, -0.0052134
DataValue, -1.08, -0.004945
DataValue, -1.04, -0.0046904
DataValue, -1, -0.004429
DataValue, -0.96000000000000008, -0.0041586
DataValue, -0.92, -0.0039008000000000003
DataValue, -0.88, -0.0036454
DataValue, -0.84000000000000008, -0.0033926
DataValue, -0.8, -0.0031418
DataValue, -0.76, -0.0028966
DataValue, -0.72000000000000008, -0.0026564
DataValue, -0.68, -0.0024184000000000002
DataValue, -0.64, -0.0021862
DataValue, -0.6, -0.0019528
DataValue, -0.56, -0.0017238
DataValue, -0.52, -0.0015066
DataValue, -0.48000000000000004, -0.001292
DataValue, -0.44, -0.0010824
DataValue, -0.4, -0.00088478
DataValue, -0.36000000000000004, -0.00069554
DataValue, -0.32, -0.00051942
DataValue, -0.28, -0.0003624
DataValue, -0.24000000000000002, -0.00022952
DataValue, -0.2, -0.00012880000000000001
DataValue, -0.16, -6.324E-05
DataValue, -0.12000000000000001, -2.5408E-05
DataValue, -0.08, -7.8910000000000012E-06
DataValue, -0.04, -1.0856E-06
DataValue, 0, 7.514E-07
DataValue, 0.04, 1.3435000000000001E-06
DataValue, 0.08, 1.7048000000000002E-06
DataValue, 0.12000000000000001, 2.0229E-06
DataValue, 0.16, 2.4317000000000004E-06
DataValue, 0.2, 3.0413000000000004E-06
DataValue, 0.24000000000000002, 4.13E-06
DataValue, 0.28, 6.2365E-06
DataValue, 0.32, 1.09472E-05
DataValue, 0.36000000000000004, 1.9676E-05
DataValue, 0.4, 3.6324E-05
DataValue, 0.44, 5.8458E-05
DataValue, 0.48000000000000004, 8.3582E-05
DataValue, 0.52, 7.0074000000000007E-05
DataValue, 0.56, 8.4294E-05
DataValue, 0.6, 0.00011042
DataValue, 0.64, 0.00020068
DataValue, 0.68, 0.00025122
DataValue, 0.72000000000000008, 0.000303
DataValue, 0.76, 0.00036178
DataValue, 0.8, 0.0004283
DataValue, 0.84000000000000008, 0.00050226
DataValue, 0.88, 0.00061008
DataValue, 0.92, 0.0006981
DataValue, 0.96000000000000008, 0.00082454
DataValue, 1, 0.0009252
DataValue, 1.04, 0.0010361
DataValue, 1.08, 0.0011518
DataValue, 1.12, 0.0012726
DataValue, 1.1600000000000001, 0.0013912
DataValue, 1.2, 0.0015142
DataValue, 1.24, 0.0016374
DataValue, 1.28, 0.0017652
DataValue, 1.32, 0.0018926000000000001
DataValue, 1.36, 0.0020298
DataValue, 1.4000000000000001, 0.0021606
DataValue, 1.4400000000000002, 0.0022964
DataValue, 1.48, 0.0024352
DataValue, 1.52, 0.0025736
DataValue, 1.56, 0.0027204
DataValue, 1.6, 0.002866
DataValue, 1.6400000000000001, 0.003023
DataValue, 1.6800000000000002, 0.0031780000000000003
DataValue, 1.72, 0.0033392
DataValue, 1.76, 0.0035038
DataValue, 1.8, 0.0036762
DataValue, 1.84, 0.0038444
DataValue, 1.8800000000000001, 0.0040154
DataValue, 1.9200000000000002, 0.004201
DataValue, 1.9600000000000002, 0.0043858000000000005
DataValue, 2, 0.004584