
SetupTitle, I/V Sweep
PrimitiveTest, I/V Sweep
TestParameter, Context.MainFrame, B1500A
TestParameter, Channel.UnitType, SMU, SMU, SMU, SMU, SMU
TestParameter, Channel.Unit, SMU1:HP, SMU2:MP, SMU3:MP, SMU4:MP, SMU5:MP
TestParameter, Channel.IName, I, IDD1, IDD2, ISS, IPP
TestParameter, Channel.VName, V, VDD1, VDD2, VSS, VPP
TestParameter, Channel.Mode, V, V, V, V, V
TestParameter, Channel.Func, VAR1, CONST, CONST, CONST, CONST
TestParameter, Channel.Index, 
TestParameter, Channel.Time, 
TestParameter, Measurement.Port.Unit, SMU1:HP, SMU2:MP, SMU3:MP, SMU4:MP, SMU5:MP
TestParameter, Measurement.Port.SeriesResistor, NONE, NONE, NONE, NONE, NONE
TestParameter, Measurement.Port.Filter, ON, ON, ON, ON, ON
TestParameter, Measurement.Port.OutputVoltageComparison, 0, 0, 0, 0, 0
TestParameter, Measurement.Primary.Locus, Single
TestParameter, Measurement.Primary.Scale, LINEAR
TestParameter, Measurement.Primary.Start, -2
TestParameter, Measurement.Primary.Stop, 2
TestParameter, Measurement.Primary.Step, 0.04
TestParameter, Measurement.Primary.Compliance, 0.1
TestParameter, Measurement.Primary.PowerCompliance, 0
TestParameter, Measurement.Aborting.Condition, CONTINUE AT ANY
TestParameter, Measurement.PostOutput.Value, START
TestParameter, Measurement.PostOutput.Retention, OFF
TestParameter, Measurement.Bias.Source, -2, 1.8, 1.1, 0, 0
TestParameter, Measurement.Bias.Compliance, 0.1, 0.1, 0.1, 0.1, 0.1
TestParameter, Measurement.Monitor.Unit, SMU1:HP, SMU2:MP, SMU3:MP, SMU4:MP, SMU5:MP
TestParameter, Measurement.Monitor.Adc, HR ADC, HR ADC, HR ADC, HR ADC, HR ADC
TestParameter, Measurement.Monitor.Measurement, Compliance Side, Compliance Side, Compliance Side, Compliance Side, Compliance Side
TestParameter, Measurement.Monitor.RangingMode, LIMITED, LIMITED, LIMITED, LIMITED, LIMITED
TestParameter, Measurement.Monitor.RangeBoundary, 1nA, 1nA, 1nA, 1nA, 1nA
TestParameter, Measurement.Monitor.RangeRating, BY FULL RANGE, BY FULL RANGE, BY FULL RANGE, BY FULL RANGE, BY FULL RANGE
TestParameter, Measurement.Monitor.RangeRatingCoeff, 50, 50, 50, 50, 50
TestParameter, Measurement.Timing.Hold, 0
TestParameter, Measurement.Timing.Delay, 0
TestParameter, Measurement.Adc.HighSpeed.Mode, AUTO
TestParameter, Measurement.Adc.HighSpeed.Coeff, 1
TestParameter, Measurement.Adc.HighResolution.AutoZero, OFF
TestParameter, Measurement.Adc.HighResolution.Mode, AUTO
TestParameter, Measurement.Adc.HighResolution.Coeff, 6
TestParameter, Measurement.WaitTime.Source.Coeff, 1
TestParameter, Measurement.WaitTime.Source.Offset, 0
TestParameter, Measurement.WaitTime.Monitor.Coeff, 1
TestParameter, Measurement.WaitTime.Monitor.Offset, 0
TestParameter, Output.Graph.Enabled, true
TestParameter, Output.Graph.AutoScaling, false
TestParameter, Output.Graph.XAxis.Data, V
TestParameter, Output.Graph.XAxis.Scale, Linear
TestParameter, Output.Graph.XAxis.Left, -2
TestParameter, Output.Graph.XAxis.Right, 2
TestParameter, Output.Graph.XAxis.RunTimeAutoScale, true
TestParameter, Output.Graph.YAxis.Data, I
TestParameter, Output.Graph.YAxis.Scale, Linear
TestParameter, Output.Graph.YAxis.Bottom, -0.1
TestParameter, Output.Graph.YAxis.Top, 0.1
TestParameter, Output.Graph.YAxis.Group, 
TestParameter, Output.Graph.YAxis.RunTimeAutoScale, true
TestParameter, AutoAnalysis.Interpolation, false
TestParameter, AutoAnalysis.Var2StepCount, 1
TestParameter, AutoAnalysis.Var2StepScript, 
TestParameter, AutoAnalysis.Line1.Enabled, false
TestParameter, AutoAnalysis.Line1.Type, 1
TestParameter, AutoAnalysis.Line1.Fix, True
TestParameter, AutoAnalysis.Line1.YAxis, 0
TestParameter, AutoAnalysis.Line1.Point1.Type, 0
TestParameter, AutoAnalysis.Line1.Point1.XY.X, 
TestParameter, AutoAnalysis.Line1.Point1.XY.Y, 
TestParameter, AutoAnalysis.Line1.Point1.Data.Var, 
TestParameter, AutoAnalysis.Line1.Point1.Data.Condition, 
TestParameter, AutoAnalysis.Line1.Point1.Data.Start, false
TestParameter, AutoAnalysis.Line1.Point1.Data.StartVar, 
TestParameter, AutoAnalysis.Line1.Point1.Data.StartCondition, 
TestParameter, AutoAnalysis.Line1.Point2.Type, 0
TestParameter, AutoAnalysis.Line1.Point2.XY.X, 
TestParameter, AutoAnalysis.Line1.Point2.XY.Y, 
TestParameter, AutoAnalysis.Line1.Point2.Data.Var, 
TestParameter, AutoAnalysis.Line1.Point2.Data.Condition, 
TestParameter, AutoAnalysis.Line1.Point2.Data.Start, false
TestParameter, AutoAnalysis.Line1.Point2.Data.StartVar, 
TestParameter, AutoAnalysis.Line1.Point2.Data.StartCondition, 
TestParameter, AutoAnalysis.Line1.GradientExpr, 0
TestParameter, AutoAnalysis.Line2.Enabled, false
TestParameter, AutoAnalysis.Line2.Type, 1
TestParameter, AutoAnalysis.Line2.Fix, True
TestParameter, AutoAnalysis.Line2.YAxis, 0
TestParameter, AutoAnalysis.Line2.Point1.Type, 0
TestParameter, AutoAnalysis.Line2.Point1.XY.X, 
TestParameter, AutoAnalysis.Line2.Point1.XY.Y, 
TestParameter, AutoAnalysis.Line2.Point1.Data.Var, 
TestParameter, AutoAnalysis.Line2.Point1.Data.Condition, 
TestParameter, AutoAnalysis.Line2.Point1.Data.Start, false
TestParameter, AutoAnalysis.Line2.Point1.Data.StartVar, 
TestParameter, AutoAnalysis.Line2.Point1.Data.StartCondition, 
TestParameter, AutoAnalysis.Line2.Point2.Type, 0
TestParameter, AutoAnalysis.Line2.Point2.XY.X, 
TestParameter, AutoAnalysis.Line2.Point2.XY.Y, 
TestParameter, AutoAnalysis.Line2.Point2.Data.Var, 
TestParameter, AutoAnalysis.Line2.Point2.Data.Condition, 
TestParameter, AutoAnalysis.Line2.Point2.Data.Start, false
TestParameter, AutoAnalysis.Line2.Point2.Data.StartVar, 
TestParameter, AutoAnalysis.Line2.Point2.Data.StartCondition, 
TestParameter, AutoAnalysis.Line2.GradientExpr, 0
TestParameter, AutoAnalysis.Marker.Enabled, false
TestParameter, AutoAnalysis.Marker.Data.Var, 
TestParameter, AutoAnalysis.Marker.Data.Condition, 
TestParameter, AutoAnalysis.Marker.Data.Start, false
TestParameter, AutoAnalysis.Marker.Data.StartVar, 
TestParameter, AutoAnalysis.Marker.Data.StartCondition, 
MetaData, TestRecord.EntryPoint, true
MetaData, TestRecord.RecordTime, 10/19/2022 13:43:58
MetaData, TestRecord.TestTarget, 
MetaData, TestRecord.IterationIndex, 338
MetaData, TestRecord.Preservation, true
MetaData, TestRecord.Flag, 
MetaData, TestRecord.Remarks, 
MetaData, TestRecord.LinkKey, cb179e94-7459-4f50-a629-09fdf2abb797
MetaData, TestRecord.Parameters, 
Dimension1, 101, 101
Dimension2, 1, 1
DataName, V, I
DataValue, -2, -0.013078000000000001
DataValue, -1.9600000000000002, -0.012826
DataValue, -1.9200000000000002, -0.012470000000000002
DataValue, -1.8800000000000001, -0.012152000000000001
DataValue, -1.84, -0.011722000000000002
DataValue, -1.8, -0.011436000000000002
DataValue, -1.76, -0.011056000000000002
DataValue, -1.72, -0.010740000000000001
DataValue, -1.6800000000000002, -0.01038
DataValue, -1.6400000000000001, -0.010048000000000001
DataValue, -1.6, -0.009714
DataValue, -1.56, -0.0093884
DataValue, -1.52, -0.0090612
DataValue, -1.48, -0.0087254
DataValue, -1.4400000000000002, -0.0083912
DataValue, -1.4000000000000001, -0.008088
DataValue, -1.36, -0.0077714
DataValue, -1.32, -0.0074594000000000006
DataValue, -1.28, -0.0071424
DataValue, -1.24, -0.0068302
DataValue, -1.2, -0.0065232
DataValue, -1.1600000000000001, -0.0062162
DataValue, -1.12, -0.0059094
DataValue, -1.08, -0.0055980000000000005
DataValue, -1.04, -0.0052966
DataValue, -1, -0.0049918
DataValue, -0.96000000000000008, -0.0046902
DataValue, -0.92, -0.004394
DataValue, -0.88, -0.004104
DataValue, -0.84000000000000008, -0.0038196000000000003
DataValue, -0.8, -0.0035346
DataValue, -0.76, -0.0032556
DataValue, -0.72000000000000008, -0.002978
DataValue, -0.68, -0.0027138
DataValue, -0.64, -0.0024416
DataValue, -0.6, -0.002181
DataValue, -0.56, -0.0019246
DataValue, -0.52, -0.0016734
DataValue, -0.48000000000000004, -0.0014276
DataValue, -0.44, -0.0011902
DataValue, -0.4, -0.00096298000000000011
DataValue, -0.36000000000000004, -0.00074674000000000008
DataValue, -0.32, -0.00054954000000000005
DataValue, -0.28, -0.0003734
DataValue, -0.24000000000000002, -0.00022806
DataValue, -0.2, -0.00012218
DataValue, -0.16, -5.8072E-05
DataValue, -0.12000000000000001, -2.3544E-05
DataValue, -0.08, -7.7151E-06
DataValue, -0.04, -1.2755000000000001E-06
DataValue, 0, 5.356E-07
DataValue, 0.04, 1.1476E-06
DataValue, 0.08, 1.4901000000000001E-06
DataValue, 0.12000000000000001, 1.7848000000000003E-06
DataValue, 0.16, 2.1666E-06
DataValue, 0.2, 2.7716000000000003E-06
DataValue, 0.24000000000000002, 3.9064E-06
DataValue, 0.28, 6.206300000000001E-06
DataValue, 0.32, 1.1416E-05
DataValue, 0.36000000000000004, 2.2338000000000002E-05
DataValue, 0.4, 3.8258E-05
DataValue, 0.44, 6.2156E-05
DataValue, 0.48000000000000004, 8.1716E-05
DataValue, 0.52, 7.0138E-05
DataValue, 0.56, 8.6378E-05
DataValue, 0.6, 0.00014744
DataValue, 0.64, 0.00018952000000000002
DataValue, 0.68, 0.00024660000000000003
DataValue, 0.72000000000000008, 0.00030292000000000003
DataValue, 0.76, 0.00036924
DataValue, 0.8, 0.00044486000000000005
DataValue, 0.84000000000000008, 0.00060006
DataValue, 0.88, 0.000692
DataValue, 0.92, 0.0007923400000000001
DataValue, 0.96000000000000008, 0.00089874000000000009
DataValue, 1, 0.0010109000000000001
DataValue, 1.04, 0.0011436200000000001
DataValue, 1.08, 0.0012618
DataValue, 1.12, 0.0013934
DataValue, 1.1600000000000001, 0.0015284
DataValue, 1.2, 0.0016656
DataValue, 1.24, 0.0018054
DataValue, 1.28, 0.0019484
DataValue, 1.32, 0.0020896
DataValue, 1.36, 0.0022404
DataValue, 1.4000000000000001, 0.0023918
DataValue, 1.4400000000000002, 0.00255
DataValue, 1.48, 0.0027056
DataValue, 1.52, 0.0028644
DataValue, 1.56, 0.0030192
DataValue, 1.6, 0.0031934
DataValue, 1.6400000000000001, 0.0033626
DataValue, 1.6800000000000002, 0.0035374
DataValue, 1.72, 0.0037172
DataValue, 1.76, 0.0039004
DataValue, 1.8, 0.0040924
DataValue, 1.84, 0.0042832
DataValue, 1.8800000000000001, 0.0044842
DataValue, 1.9200000000000002, 0.0046762
DataValue, 1.9600000000000002, 0.0049036
DataValue, 2, 0.005116