
SetupTitle, I/V Sweep
PrimitiveTest, I/V Sweep
TestParameter, Context.MainFrame, B1500A
TestParameter, Channel.UnitType, SMU, SMU, SMU, SMU, SMU
TestParameter, Channel.Unit, SMU1:HP, SMU2:MP, SMU3:MP, SMU4:MP, SMU5:MP
TestParameter, Channel.IName, I, IDD1, IDD2, ISS, IPP
TestParameter, Channel.VName, V, VDD1, VDD2, VSS, VPP
TestParameter, Channel.Mode, V, V, V, V, V
TestParameter, Channel.Func, VAR1, CONST, CONST, CONST, CONST
TestParameter, Channel.Index, 
TestParameter, Channel.Time, 
TestParameter, Measurement.Port.Unit, SMU1:HP, SMU2:MP, SMU3:MP, SMU4:MP, SMU5:MP
TestParameter, Measurement.Port.SeriesResistor, NONE, NONE, NONE, NONE, NONE
TestParameter, Measurement.Port.Filter, ON, ON, ON, ON, ON
TestParameter, Measurement.Port.OutputVoltageComparison, 0, 0, 0, 0, 0
TestParameter, Measurement.Primary.Locus, Single
TestParameter, Measurement.Primary.Scale, LINEAR
TestParameter, Measurement.Primary.Start, -2
TestParameter, Measurement.Primary.Stop, 2
TestParameter, Measurement.Primary.Step, 0.04
TestParameter, Measurement.Primary.Compliance, 0.1
TestParameter, Measurement.Primary.PowerCompliance, 0
TestParameter, Measurement.Aborting.Condition, CONTINUE AT ANY
TestParameter, Measurement.PostOutput.Value, START
TestParameter, Measurement.PostOutput.Retention, OFF
TestParameter, Measurement.Bias.Source, -2, 1.8, 1.1, 0, 0
TestParameter, Measurement.Bias.Compliance, 0.1, 0.1, 0.1, 0.1, 0.1
TestParameter, Measurement.Monitor.Unit, SMU1:HP, SMU2:MP, SMU3:MP, SMU4:MP, SMU5:MP
TestParameter, Measurement.Monitor.Adc, HR ADC, HR ADC, HR ADC, HR ADC, HR ADC
TestParameter, Measurement.Monitor.Measurement, Compliance Side, Compliance Side, Compliance Side, Compliance Side, Compliance Side
TestParameter, Measurement.Monitor.RangingMode, LIMITED, LIMITED, LIMITED, LIMITED, LIMITED
TestParameter, Measurement.Monitor.RangeBoundary, 1nA, 1nA, 1nA, 1nA, 1nA
TestParameter, Measurement.Monitor.RangeRating, BY FULL RANGE, BY FULL RANGE, BY FULL RANGE, BY FULL RANGE, BY FULL RANGE
TestParameter, Measurement.Monitor.RangeRatingCoeff, 50, 50, 50, 50, 50
TestParameter, Measurement.Timing.Hold, 0
TestParameter, Measurement.Timing.Delay, 0
TestParameter, Measurement.Adc.HighSpeed.Mode, AUTO
TestParameter, Measurement.Adc.HighSpeed.Coeff, 1
TestParameter, Measurement.Adc.HighResolution.AutoZero, OFF
TestParameter, Measurement.Adc.HighResolution.Mode, AUTO
TestParameter, Measurement.Adc.HighResolution.Coeff, 6
TestParameter, Measurement.WaitTime.Source.Coeff, 1
TestParameter, Measurement.WaitTime.Source.Offset, 0
TestParameter, Measurement.WaitTime.Monitor.Coeff, 1
TestParameter, Measurement.WaitTime.Monitor.Offset, 0
TestParameter, Output.Graph.Enabled, true
TestParameter, Output.Graph.AutoScaling, false
TestParameter, Output.Graph.XAxis.Data, V
TestParameter, Output.Graph.XAxis.Scale, Linear
TestParameter, Output.Graph.XAxis.Left, -2
TestParameter, Output.Graph.XAxis.Right, 2
TestParameter, Output.Graph.XAxis.RunTimeAutoScale, true
TestParameter, Output.Graph.YAxis.Data, I
TestParameter, Output.Graph.YAxis.Scale, Linear
TestParameter, Output.Graph.YAxis.Bottom, -0.1
TestParameter, Output.Graph.YAxis.Top, 0.1
TestParameter, Output.Graph.YAxis.Group, 
TestParameter, Output.Graph.YAxis.RunTimeAutoScale, true
TestParameter, AutoAnalysis.Interpolation, false
TestParameter, AutoAnalysis.Var2StepCount, 1
TestParameter, AutoAnalysis.Var2StepScript, 
TestParameter, AutoAnalysis.Line1.Enabled, false
TestParameter, AutoAnalysis.Line1.Type, 1
TestParameter, AutoAnalysis.Line1.Fix, True
TestParameter, AutoAnalysis.Line1.YAxis, 0
TestParameter, AutoAnalysis.Line1.Point1.Type, 0
TestParameter, AutoAnalysis.Line1.Point1.XY.X, 
TestParameter, AutoAnalysis.Line1.Point1.XY.Y, 
TestParameter, AutoAnalysis.Line1.Point1.Data.Var, 
TestParameter, AutoAnalysis.Line1.Point1.Data.Condition, 
TestParameter, AutoAnalysis.Line1.Point1.Data.Start, false
TestParameter, AutoAnalysis.Line1.Point1.Data.StartVar, 
TestParameter, AutoAnalysis.Line1.Point1.Data.StartCondition, 
TestParameter, AutoAnalysis.Line1.Point2.Type, 0
TestParameter, AutoAnalysis.Line1.Point2.XY.X, 
TestParameter, AutoAnalysis.Line1.Point2.XY.Y, 
TestParameter, AutoAnalysis.Line1.Point2.Data.Var, 
TestParameter, AutoAnalysis.Line1.Point2.Data.Condition, 
TestParameter, AutoAnalysis.Line1.Point2.Data.Start, false
TestParameter, AutoAnalysis.Line1.Point2.Data.StartVar, 
TestParameter, AutoAnalysis.Line1.Point2.Data.StartCondition, 
TestParameter, AutoAnalysis.Line1.GradientExpr, 0
TestParameter, AutoAnalysis.Line2.Enabled, false
TestParameter, AutoAnalysis.Line2.Type, 1
TestParameter, AutoAnalysis.Line2.Fix, True
TestParameter, AutoAnalysis.Line2.YAxis, 0
TestParameter, AutoAnalysis.Line2.Point1.Type, 0
TestParameter, AutoAnalysis.Line2.Point1.XY.X, 
TestParameter, AutoAnalysis.Line2.Point1.XY.Y, 
TestParameter, AutoAnalysis.Line2.Point1.Data.Var, 
TestParameter, AutoAnalysis.Line2.Point1.Data.Condition, 
TestParameter, AutoAnalysis.Line2.Point1.Data.Start, false
TestParameter, AutoAnalysis.Line2.Point1.Data.StartVar, 
TestParameter, AutoAnalysis.Line2.Point1.Data.StartCondition, 
TestParameter, AutoAnalysis.Line2.Point2.Type, 0
TestParameter, AutoAnalysis.Line2.Point2.XY.X, 
TestParameter, AutoAnalysis.Line2.Point2.XY.Y, 
TestParameter, AutoAnalysis.Line2.Point2.Data.Var, 
TestParameter, AutoAnalysis.Line2.Point2.Data.Condition, 
TestParameter, AutoAnalysis.Line2.Point2.Data.Start, false
TestParameter, AutoAnalysis.Line2.Point2.Data.StartVar, 
TestParameter, AutoAnalysis.Line2.Point2.Data.StartCondition, 
TestParameter, AutoAnalysis.Line2.GradientExpr, 0
TestParameter, AutoAnalysis.Marker.Enabled, false
TestParameter, AutoAnalysis.Marker.Data.Var, 
TestParameter, AutoAnalysis.Marker.Data.Condition, 
TestParameter, AutoAnalysis.Marker.Data.Start, false
TestParameter, AutoAnalysis.Marker.Data.StartVar, 
TestParameter, AutoAnalysis.Marker.Data.StartCondition, 
MetaData, TestRecord.EntryPoint, true
MetaData, TestRecord.RecordTime, 10/19/2022 13:38:14
MetaData, TestRecord.TestTarget, 
MetaData, TestRecord.IterationIndex, 321
MetaData, TestRecord.Preservation, true
MetaData, TestRecord.Flag, 
MetaData, TestRecord.Remarks, 
MetaData, TestRecord.LinkKey, 8a73c642-0186-4acb-9dc2-98f9495fda7b
MetaData, TestRecord.Parameters, 
Dimension1, 101, 101
Dimension2, 1, 1
DataName, V, I
DataValue, -2, -7.4408E-05
DataValue, -1.9600000000000002, -7.1248E-05
DataValue, -1.9200000000000002, -6.8724E-05
DataValue, -1.8800000000000001, -6.6472E-05
DataValue, -1.84, -6.2682000000000007E-05
DataValue, -1.8, -5.903E-05
DataValue, -1.76, -5.6056E-05
DataValue, -1.72, -5.5514000000000004E-05
DataValue, -1.6800000000000002, -5.326E-05
DataValue, -1.6400000000000001, -5.1222E-05
DataValue, -1.6, -4.94E-05
DataValue, -1.56, -4.7734E-05
DataValue, -1.52, -4.5544E-05
DataValue, -1.48, -4.4376000000000003E-05
DataValue, -1.4400000000000002, -4.235E-05
DataValue, -1.4000000000000001, -4.059E-05
DataValue, -1.36, -3.8418000000000004E-05
DataValue, -1.32, -3.6414E-05
DataValue, -1.28, -3.4888E-05
DataValue, -1.24, -3.309E-05
DataValue, -1.2, -3.1464E-05
DataValue, -1.1600000000000001, -2.9832E-05
DataValue, -1.12, -2.8032000000000002E-05
DataValue, -1.08, -2.6182E-05
DataValue, -1.04, -2.4552E-05
DataValue, -1, -2.2838E-05
DataValue, -0.96000000000000008, -2.129E-05
DataValue, -0.92, -1.9732E-05
DataValue, -0.88, -1.8198E-05
DataValue, -0.84000000000000008, -1.6930000000000002E-05
DataValue, -0.8, -1.5244E-05
DataValue, -0.76, -1.3774E-05
DataValue, -0.72000000000000008, -1.2422E-05
DataValue, -0.68, -1.0744E-05
DataValue, -0.64, -9.480900000000001E-06
DataValue, -0.6, -8.542E-06
DataValue, -0.56, -7.0023000000000007E-06
DataValue, -0.52, -5.8083000000000008E-06
DataValue, -0.48000000000000004, -4.881E-06
DataValue, -0.44, -3.8928E-06
DataValue, -0.4, -2.7495E-06
DataValue, -0.36000000000000004, -1.8410000000000003E-06
DataValue, -0.32, -1.14244E-06
DataValue, -0.28, -2.3476E-07
DataValue, -0.24000000000000002, 4.749E-07
DataValue, -0.2, 6.1794E-07
DataValue, -0.16, 1.0114000000000002E-06
DataValue, -0.12000000000000001, 1.7211000000000001E-06
DataValue, -0.08, 2.2607000000000002E-06
DataValue, -0.04, 2.7390000000000004E-06
DataValue, 0, 3.2510000000000003E-06
DataValue, 0.04, 3.7439000000000003E-06
DataValue, 0.08, 4.2778000000000008E-06
DataValue, 0.12000000000000001, 4.8502000000000006E-06
DataValue, 0.16, 5.3350000000000006E-06
DataValue, 0.2, 5.9166E-06
DataValue, 0.24000000000000002, 6.6121000000000006E-06
DataValue, 0.28, 7.1320000000000005E-06
DataValue, 0.32, 7.7313E-06
DataValue, 0.36000000000000004, 8.2692E-06
DataValue, 0.4, 8.9592E-06
DataValue, 0.44, 9.6651000000000017E-06
DataValue, 0.48000000000000004, 1.0296000000000001E-05
DataValue, 0.52, 1.1032500000000002E-05
DataValue, 0.56, 1.1276E-05
DataValue, 0.6, 1.1998000000000001E-05
DataValue, 0.64, 1.2738E-05
DataValue, 0.68, 1.3362E-05
DataValue, 0.72000000000000008, 1.4156000000000001E-05
DataValue, 0.76, 1.4986E-05
DataValue, 0.8, 1.5404E-05
DataValue, 0.84000000000000008, 1.6188E-05
DataValue, 0.88, 1.7160000000000002E-05
DataValue, 0.92, 1.8618E-05
DataValue, 0.96000000000000008, 1.9534E-05
DataValue, 1, 2.1042E-05
DataValue, 1.04, 2.2162000000000002E-05
DataValue, 1.08, 2.3258E-05
DataValue, 1.12, 2.4152000000000002E-05
DataValue, 1.1600000000000001, 2.5078E-05
DataValue, 1.2, 2.6034000000000002E-05
DataValue, 1.24, 2.7118E-05
DataValue, 1.28, 2.8094000000000002E-05
DataValue, 1.32, 2.8874000000000002E-05
DataValue, 1.36, 2.9636000000000002E-05
DataValue, 1.4000000000000001, 3.0246E-05
DataValue, 1.4400000000000002, 3.146E-05
DataValue, 1.48, 3.23E-05
DataValue, 1.52, 3.3220000000000004E-05
DataValue, 1.56, 3.4524000000000004E-05
DataValue, 1.6, 3.5076E-05
DataValue, 1.6400000000000001, 3.6936E-05
DataValue, 1.6800000000000002, 3.7798E-05
DataValue, 1.72, 3.8644000000000005E-05
DataValue, 1.76, 4.045E-05
DataValue, 1.8, 4.237E-05
DataValue, 1.84, 4.419E-05
DataValue, 1.8800000000000001, 4.4836E-05
DataValue, 1.9200000000000002, 4.754E-05
DataValue, 1.9600000000000002, 4.9576E-05
DataValue, 2, 5.1206000000000004E-05