
SetupTitle, I/V Sweep
PrimitiveTest, I/V Sweep
TestParameter, Context.MainFrame, B1500A
TestParameter, Channel.UnitType, SMU, SMU, SMU, SMU, SMU
TestParameter, Channel.Unit, SMU1:HP, SMU2:MP, SMU3:MP, SMU4:MP, SMU5:MP
TestParameter, Channel.IName, I, IDD1, IDD2, ISS, IPP
TestParameter, Channel.VName, V, VDD1, VDD2, VSS, VPP
TestParameter, Channel.Mode, V, V, V, V, V
TestParameter, Channel.Func, VAR1, CONST, CONST, CONST, CONST
TestParameter, Channel.Index, 
TestParameter, Channel.Time, 
TestParameter, Measurement.Port.Unit, SMU1:HP, SMU2:MP, SMU3:MP, SMU4:MP, SMU5:MP
TestParameter, Measurement.Port.SeriesResistor, NONE, NONE, NONE, NONE, NONE
TestParameter, Measurement.Port.Filter, ON, ON, ON, ON, ON
TestParameter, Measurement.Port.OutputVoltageComparison, 0, 0, 0, 0, 0
TestParameter, Measurement.Primary.Locus, Single
TestParameter, Measurement.Primary.Scale, LINEAR
TestParameter, Measurement.Primary.Start, -2
TestParameter, Measurement.Primary.Stop, 2
TestParameter, Measurement.Primary.Step, 0.04
TestParameter, Measurement.Primary.Compliance, 0.1
TestParameter, Measurement.Primary.PowerCompliance, 0
TestParameter, Measurement.Aborting.Condition, CONTINUE AT ANY
TestParameter, Measurement.PostOutput.Value, START
TestParameter, Measurement.PostOutput.Retention, OFF
TestParameter, Measurement.Bias.Source, -2, 1.8, 1.1, 0, 0
TestParameter, Measurement.Bias.Compliance, 0.1, 0.1, 0.1, 0.1, 0.1
TestParameter, Measurement.Monitor.Unit, SMU1:HP, SMU2:MP, SMU3:MP, SMU4:MP, SMU5:MP
TestParameter, Measurement.Monitor.Adc, HR ADC, HR ADC, HR ADC, HR ADC, HR ADC
TestParameter, Measurement.Monitor.Measurement, Compliance Side, Compliance Side, Compliance Side, Compliance Side, Compliance Side
TestParameter, Measurement.Monitor.RangingMode, LIMITED, LIMITED, LIMITED, LIMITED, LIMITED
TestParameter, Measurement.Monitor.RangeBoundary, 1nA, 1nA, 1nA, 1nA, 1nA
TestParameter, Measurement.Monitor.RangeRating, BY FULL RANGE, BY FULL RANGE, BY FULL RANGE, BY FULL RANGE, BY FULL RANGE
TestParameter, Measurement.Monitor.RangeRatingCoeff, 50, 50, 50, 50, 50
TestParameter, Measurement.Timing.Hold, 0
TestParameter, Measurement.Timing.Delay, 0
TestParameter, Measurement.Adc.HighSpeed.Mode, AUTO
TestParameter, Measurement.Adc.HighSpeed.Coeff, 1
TestParameter, Measurement.Adc.HighResolution.AutoZero, OFF
TestParameter, Measurement.Adc.HighResolution.Mode, AUTO
TestParameter, Measurement.Adc.HighResolution.Coeff, 6
TestParameter, Measurement.WaitTime.Source.Coeff, 1
TestParameter, Measurement.WaitTime.Source.Offset, 0
TestParameter, Measurement.WaitTime.Monitor.Coeff, 1
TestParameter, Measurement.WaitTime.Monitor.Offset, 0
TestParameter, Output.Graph.Enabled, true
TestParameter, Output.Graph.AutoScaling, false
TestParameter, Output.Graph.XAxis.Data, V
TestParameter, Output.Graph.XAxis.Scale, Linear
TestParameter, Output.Graph.XAxis.Left, -2
TestParameter, Output.Graph.XAxis.Right, 2
TestParameter, Output.Graph.XAxis.RunTimeAutoScale, true
TestParameter, Output.Graph.YAxis.Data, I
TestParameter, Output.Graph.YAxis.Scale, Linear
TestParameter, Output.Graph.YAxis.Bottom, -0.1
TestParameter, Output.Graph.YAxis.Top, 0.1
TestParameter, Output.Graph.YAxis.Group, 
TestParameter, Output.Graph.YAxis.RunTimeAutoScale, true
TestParameter, AutoAnalysis.Interpolation, false
TestParameter, AutoAnalysis.Var2StepCount, 1
TestParameter, AutoAnalysis.Var2StepScript, 
TestParameter, AutoAnalysis.Line1.Enabled, false
TestParameter, AutoAnalysis.Line1.Type, 1
TestParameter, AutoAnalysis.Line1.Fix, True
TestParameter, AutoAnalysis.Line1.YAxis, 0
TestParameter, AutoAnalysis.Line1.Point1.Type, 0
TestParameter, AutoAnalysis.Line1.Point1.XY.X, 
TestParameter, AutoAnalysis.Line1.Point1.XY.Y, 
TestParameter, AutoAnalysis.Line1.Point1.Data.Var, 
TestParameter, AutoAnalysis.Line1.Point1.Data.Condition, 
TestParameter, AutoAnalysis.Line1.Point1.Data.Start, false
TestParameter, AutoAnalysis.Line1.Point1.Data.StartVar, 
TestParameter, AutoAnalysis.Line1.Point1.Data.StartCondition, 
TestParameter, AutoAnalysis.Line1.Point2.Type, 0
TestParameter, AutoAnalysis.Line1.Point2.XY.X, 
TestParameter, AutoAnalysis.Line1.Point2.XY.Y, 
TestParameter, AutoAnalysis.Line1.Point2.Data.Var, 
TestParameter, AutoAnalysis.Line1.Point2.Data.Condition, 
TestParameter, AutoAnalysis.Line1.Point2.Data.Start, false
TestParameter, AutoAnalysis.Line1.Point2.Data.StartVar, 
TestParameter, AutoAnalysis.Line1.Point2.Data.StartCondition, 
TestParameter, AutoAnalysis.Line1.GradientExpr, 0
TestParameter, AutoAnalysis.Line2.Enabled, false
TestParameter, AutoAnalysis.Line2.Type, 1
TestParameter, AutoAnalysis.Line2.Fix, True
TestParameter, AutoAnalysis.Line2.YAxis, 0
TestParameter, AutoAnalysis.Line2.Point1.Type, 0
TestParameter, AutoAnalysis.Line2.Point1.XY.X, 
TestParameter, AutoAnalysis.Line2.Point1.XY.Y, 
TestParameter, AutoAnalysis.Line2.Point1.Data.Var, 
TestParameter, AutoAnalysis.Line2.Point1.Data.Condition, 
TestParameter, AutoAnalysis.Line2.Point1.Data.Start, false
TestParameter, AutoAnalysis.Line2.Point1.Data.StartVar, 
TestParameter, AutoAnalysis.Line2.Point1.Data.StartCondition, 
TestParameter, AutoAnalysis.Line2.Point2.Type, 0
TestParameter, AutoAnalysis.Line2.Point2.XY.X, 
TestParameter, AutoAnalysis.Line2.Point2.XY.Y, 
TestParameter, AutoAnalysis.Line2.Point2.Data.Var, 
TestParameter, AutoAnalysis.Line2.Point2.Data.Condition, 
TestParameter, AutoAnalysis.Line2.Point2.Data.Start, false
TestParameter, AutoAnalysis.Line2.Point2.Data.StartVar, 
TestParameter, AutoAnalysis.Line2.Point2.Data.StartCondition, 
TestParameter, AutoAnalysis.Line2.GradientExpr, 0
TestParameter, AutoAnalysis.Marker.Enabled, false
TestParameter, AutoAnalysis.Marker.Data.Var, 
TestParameter, AutoAnalysis.Marker.Data.Condition, 
TestParameter, AutoAnalysis.Marker.Data.Start, false
TestParameter, AutoAnalysis.Marker.Data.StartVar, 
TestParameter, AutoAnalysis.Marker.Data.StartCondition, 
MetaData, TestRecord.EntryPoint, true
MetaData, TestRecord.RecordTime, 10/19/2022 13:11:09
MetaData, TestRecord.TestTarget, 
MetaData, TestRecord.IterationIndex, 255
MetaData, TestRecord.Preservation, true
MetaData, TestRecord.Flag, 
MetaData, TestRecord.Remarks, 
MetaData, TestRecord.LinkKey, 62c1897c-b7c6-4029-8df8-d2fd75a41b98
MetaData, TestRecord.Parameters, 
Dimension1, 101, 101
Dimension2, 1, 1
DataName, V, I
DataValue, -2, -0.1
DataValue, -1.9600000000000002, -0.1
DataValue, -1.9200000000000002, -0.10000200000000001
DataValue, -1.8800000000000001, -0.10000200000000001
DataValue, -1.84, -0.10000200000000001
DataValue, -1.8, -0.10000200000000001
DataValue, -1.76, -0.10000200000000001
DataValue, -1.72, -0.10000200000000001
DataValue, -1.6800000000000002, -0.10000200000000001
DataValue, -1.6400000000000001, -0.10000400000000001
DataValue, -1.6, -0.10000200000000001
DataValue, -1.56, -0.10000200000000001
DataValue, -1.52, -0.10000200000000001
DataValue, -1.48, -0.10000200000000001
DataValue, -1.4400000000000002, -0.09889
DataValue, -1.4000000000000001, -0.095466000000000009
DataValue, -1.36, -0.091964
DataValue, -1.32, -0.088402000000000008
DataValue, -1.28, -0.084756000000000012
DataValue, -1.24, -0.081068
DataValue, -1.2, -0.077346000000000012
DataValue, -1.1600000000000001, -0.073554000000000008
DataValue, -1.12, -0.069714000000000012
DataValue, -1.08, -0.065876
DataValue, -1.04, -0.06199
DataValue, -1, -0.058086000000000006
DataValue, -0.96000000000000008, -0.054150000000000004
DataValue, -0.92, -0.050230000000000004
DataValue, -0.88, -0.046344
DataValue, -0.84000000000000008, -0.042406000000000006
DataValue, -0.8, -0.038068000000000005
DataValue, -0.76, -0.03429
DataValue, -0.72000000000000008, -0.030502
DataValue, -0.68, -0.026838
DataValue, -0.64, -0.023286
DataValue, -0.6, -0.019880000000000002
DataValue, -0.56, -0.016534
DataValue, -0.52, -0.013408000000000002
DataValue, -0.48000000000000004, -0.010508000000000002
DataValue, -0.44, -0.0078958
DataValue, -0.4, -0.005658
DataValue, -0.36000000000000004, -0.0038504
DataValue, -0.32, -0.0025606
DataValue, -0.28, -0.0017354
DataValue, -0.24000000000000002, -0.0012528
DataValue, -0.2, -0.00096732
DataValue, -0.16, -0.00075716
DataValue, -0.12000000000000001, -0.00056976
DataValue, -0.08, -0.00042862000000000005
DataValue, -0.04, -0.00030902
DataValue, 0, -0.00020782000000000003
DataValue, 0.04, -0.00012714
DataValue, 0.08, -6.8304E-05
DataValue, 0.12000000000000001, -2.9454E-05
DataValue, 0.16, -1.116E-05
DataValue, 0.2, -3.9226E-06
DataValue, 0.24000000000000002, -6.2064E-07
DataValue, 0.28, 9.4958E-07
DataValue, 0.32, 1.9076E-06
DataValue, 0.36000000000000004, 2.6854E-06
DataValue, 0.4, 3.4039E-06
DataValue, 0.44, 4.0863E-06
DataValue, 0.48000000000000004, 4.736E-06
DataValue, 0.52, 5.1541E-06
DataValue, 0.56, 5.7040000000000008E-06
DataValue, 0.6, 6.2212000000000007E-06
DataValue, 0.64, 7.172800000000001E-06
DataValue, 0.68, 8.1770000000000015E-06
DataValue, 0.72000000000000008, 9.055200000000001E-06
DataValue, 0.76, 9.9157E-06
DataValue, 0.8, 1.0836000000000001E-05
DataValue, 0.84000000000000008, 1.1912E-05
DataValue, 0.88, 1.3248000000000001E-05
DataValue, 0.92, 1.4902E-05
DataValue, 0.96000000000000008, 1.6974E-05
DataValue, 1, 1.9524E-05
DataValue, 1.04, 2.2528000000000002E-05
DataValue, 1.08, 2.5932000000000002E-05
DataValue, 1.12, 2.9718000000000002E-05
DataValue, 1.1600000000000001, 3.425E-05
DataValue, 1.2, 3.969E-05
DataValue, 1.24, 4.682E-05
DataValue, 1.28, 5.6806000000000005E-05
DataValue, 1.32, 7.1368E-05
DataValue, 1.36, 9.3504E-05
DataValue, 1.4000000000000001, 0.00012348
DataValue, 1.4400000000000002, 0.00016068
DataValue, 1.48, 0.00019652000000000002
DataValue, 1.52, 0.00023416000000000002
DataValue, 1.56, 0.00027412000000000004
DataValue, 1.6, 0.00031728
DataValue, 1.6400000000000001, 0.0003658
DataValue, 1.6800000000000002, 0.00042798
DataValue, 1.72, 0.00052190000000000005
DataValue, 1.76, 0.00066792
DataValue, 1.8, 0.00088214
DataValue, 1.84, 0.0011694000000000001
DataValue, 1.8800000000000001, 0.0014934
DataValue, 1.9200000000000002, 0.0018462
DataValue, 1.9600000000000002, 0.0022306
DataValue, 2, 0.0026574