
SetupTitle, I/V Sweep
PrimitiveTest, I/V Sweep
TestParameter, Context.MainFrame, B1500A
TestParameter, Channel.UnitType, SMU, SMU, SMU, SMU, SMU
TestParameter, Channel.Unit, SMU1:HP, SMU2:MP, SMU3:MP, SMU4:MP, SMU5:MP
TestParameter, Channel.IName, I, IDD1, IDD2, ISS, IPP
TestParameter, Channel.VName, V, VDD1, VDD2, VSS, VPP
TestParameter, Channel.Mode, V, V, V, V, V
TestParameter, Channel.Func, VAR1, CONST, CONST, CONST, CONST
TestParameter, Channel.Index, 
TestParameter, Channel.Time, 
TestParameter, Measurement.Port.Unit, SMU1:HP, SMU2:MP, SMU3:MP, SMU4:MP, SMU5:MP
TestParameter, Measurement.Port.SeriesResistor, NONE, NONE, NONE, NONE, NONE
TestParameter, Measurement.Port.Filter, ON, ON, ON, ON, ON
TestParameter, Measurement.Port.OutputVoltageComparison, 0, 0, 0, 0, 0
TestParameter, Measurement.Primary.Locus, Single
TestParameter, Measurement.Primary.Scale, LINEAR
TestParameter, Measurement.Primary.Start, -2
TestParameter, Measurement.Primary.Stop, 2
TestParameter, Measurement.Primary.Step, 0.04
TestParameter, Measurement.Primary.Compliance, 0.1
TestParameter, Measurement.Primary.PowerCompliance, 0
TestParameter, Measurement.Aborting.Condition, CONTINUE AT ANY
TestParameter, Measurement.PostOutput.Value, START
TestParameter, Measurement.PostOutput.Retention, OFF
TestParameter, Measurement.Bias.Source, -2, 1.8, 1.1, 0, 0
TestParameter, Measurement.Bias.Compliance, 0.1, 0.1, 0.1, 0.1, 0.1
TestParameter, Measurement.Monitor.Unit, SMU1:HP, SMU2:MP, SMU3:MP, SMU4:MP, SMU5:MP
TestParameter, Measurement.Monitor.Adc, HR ADC, HR ADC, HR ADC, HR ADC, HR ADC
TestParameter, Measurement.Monitor.Measurement, Compliance Side, Compliance Side, Compliance Side, Compliance Side, Compliance Side
TestParameter, Measurement.Monitor.RangingMode, LIMITED, LIMITED, LIMITED, LIMITED, LIMITED
TestParameter, Measurement.Monitor.RangeBoundary, 1nA, 1nA, 1nA, 1nA, 1nA
TestParameter, Measurement.Monitor.RangeRating, BY FULL RANGE, BY FULL RANGE, BY FULL RANGE, BY FULL RANGE, BY FULL RANGE
TestParameter, Measurement.Monitor.RangeRatingCoeff, 50, 50, 50, 50, 50
TestParameter, Measurement.Timing.Hold, 0
TestParameter, Measurement.Timing.Delay, 0
TestParameter, Measurement.Adc.HighSpeed.Mode, AUTO
TestParameter, Measurement.Adc.HighSpeed.Coeff, 1
TestParameter, Measurement.Adc.HighResolution.AutoZero, OFF
TestParameter, Measurement.Adc.HighResolution.Mode, AUTO
TestParameter, Measurement.Adc.HighResolution.Coeff, 6
TestParameter, Measurement.WaitTime.Source.Coeff, 1
TestParameter, Measurement.WaitTime.Source.Offset, 0
TestParameter, Measurement.WaitTime.Monitor.Coeff, 1
TestParameter, Measurement.WaitTime.Monitor.Offset, 0
TestParameter, Output.Graph.Enabled, true
TestParameter, Output.Graph.AutoScaling, false
TestParameter, Output.Graph.XAxis.Data, V
TestParameter, Output.Graph.XAxis.Scale, Linear
TestParameter, Output.Graph.XAxis.Left, -2
TestParameter, Output.Graph.XAxis.Right, 2
TestParameter, Output.Graph.XAxis.RunTimeAutoScale, true
TestParameter, Output.Graph.YAxis.Data, I
TestParameter, Output.Graph.YAxis.Scale, Linear
TestParameter, Output.Graph.YAxis.Bottom, -0.1
TestParameter, Output.Graph.YAxis.Top, 0.1
TestParameter, Output.Graph.YAxis.Group, 
TestParameter, Output.Graph.YAxis.RunTimeAutoScale, true
TestParameter, AutoAnalysis.Interpolation, false
TestParameter, AutoAnalysis.Var2StepCount, 1
TestParameter, AutoAnalysis.Var2StepScript, 
TestParameter, AutoAnalysis.Line1.Enabled, false
TestParameter, AutoAnalysis.Line1.Type, 1
TestParameter, AutoAnalysis.Line1.Fix, True
TestParameter, AutoAnalysis.Line1.YAxis, 0
TestParameter, AutoAnalysis.Line1.Point1.Type, 0
TestParameter, AutoAnalysis.Line1.Point1.XY.X, 
TestParameter, AutoAnalysis.Line1.Point1.XY.Y, 
TestParameter, AutoAnalysis.Line1.Point1.Data.Var, 
TestParameter, AutoAnalysis.Line1.Point1.Data.Condition, 
TestParameter, AutoAnalysis.Line1.Point1.Data.Start, false
TestParameter, AutoAnalysis.Line1.Point1.Data.StartVar, 
TestParameter, AutoAnalysis.Line1.Point1.Data.StartCondition, 
TestParameter, AutoAnalysis.Line1.Point2.Type, 0
TestParameter, AutoAnalysis.Line1.Point2.XY.X, 
TestParameter, AutoAnalysis.Line1.Point2.XY.Y, 
TestParameter, AutoAnalysis.Line1.Point2.Data.Var, 
TestParameter, AutoAnalysis.Line1.Point2.Data.Condition, 
TestParameter, AutoAnalysis.Line1.Point2.Data.Start, false
TestParameter, AutoAnalysis.Line1.Point2.Data.StartVar, 
TestParameter, AutoAnalysis.Line1.Point2.Data.StartCondition, 
TestParameter, AutoAnalysis.Line1.GradientExpr, 0
TestParameter, AutoAnalysis.Line2.Enabled, false
TestParameter, AutoAnalysis.Line2.Type, 1
TestParameter, AutoAnalysis.Line2.Fix, True
TestParameter, AutoAnalysis.Line2.YAxis, 0
TestParameter, AutoAnalysis.Line2.Point1.Type, 0
TestParameter, AutoAnalysis.Line2.Point1.XY.X, 
TestParameter, AutoAnalysis.Line2.Point1.XY.Y, 
TestParameter, AutoAnalysis.Line2.Point1.Data.Var, 
TestParameter, AutoAnalysis.Line2.Point1.Data.Condition, 
TestParameter, AutoAnalysis.Line2.Point1.Data.Start, false
TestParameter, AutoAnalysis.Line2.Point1.Data.StartVar, 
TestParameter, AutoAnalysis.Line2.Point1.Data.StartCondition, 
TestParameter, AutoAnalysis.Line2.Point2.Type, 0
TestParameter, AutoAnalysis.Line2.Point2.XY.X, 
TestParameter, AutoAnalysis.Line2.Point2.XY.Y, 
TestParameter, AutoAnalysis.Line2.Point2.Data.Var, 
TestParameter, AutoAnalysis.Line2.Point2.Data.Condition, 
TestParameter, AutoAnalysis.Line2.Point2.Data.Start, false
TestParameter, AutoAnalysis.Line2.Point2.Data.StartVar, 
TestParameter, AutoAnalysis.Line2.Point2.Data.StartCondition, 
TestParameter, AutoAnalysis.Line2.GradientExpr, 0
TestParameter, AutoAnalysis.Marker.Enabled, false
TestParameter, AutoAnalysis.Marker.Data.Var, 
TestParameter, AutoAnalysis.Marker.Data.Condition, 
TestParameter, AutoAnalysis.Marker.Data.Start, false
TestParameter, AutoAnalysis.Marker.Data.StartVar, 
TestParameter, AutoAnalysis.Marker.Data.StartCondition, 
MetaData, TestRecord.EntryPoint, true
MetaData, TestRecord.RecordTime, 10/19/2022 13:49:05
MetaData, TestRecord.TestTarget, 
MetaData, TestRecord.IterationIndex, 351
MetaData, TestRecord.Preservation, true
MetaData, TestRecord.Flag, 
MetaData, TestRecord.Remarks, 
MetaData, TestRecord.LinkKey, 55b4eaee-a6b4-47d1-9429-1eef2d6de5de
MetaData, TestRecord.Parameters, 
Dimension1, 101, 101
Dimension2, 1, 1
DataName, V, I
DataValue, -2, -0.026112000000000003
DataValue, -1.9600000000000002, -0.025712000000000002
DataValue, -1.9200000000000002, -0.025332000000000004
DataValue, -1.8800000000000001, -0.024924
DataValue, -1.84, -0.02451
DataValue, -1.8, -0.024114000000000003
DataValue, -1.76, -0.023704000000000003
DataValue, -1.72, -0.02329
DataValue, -1.6800000000000002, -0.02288
DataValue, -1.6400000000000001, -0.02247
DataValue, -1.6, -0.022060000000000003
DataValue, -1.56, -0.021656
DataValue, -1.52, -0.021240000000000002
DataValue, -1.48, -0.020824000000000002
DataValue, -1.4400000000000002, -0.020412000000000003
DataValue, -1.4000000000000001, -0.019996000000000003
DataValue, -1.36, -0.019574
DataValue, -1.32, -0.019156000000000003
DataValue, -1.28, -0.018742
DataValue, -1.24, -0.018322
DataValue, -1.2, -0.017900000000000003
DataValue, -1.1600000000000001, -0.017476000000000002
DataValue, -1.12, -0.017056
DataValue, -1.08, -0.016632
DataValue, -1.04, -0.016204000000000003
DataValue, -1, -0.015782
DataValue, -0.96000000000000008, -0.015354000000000001
DataValue, -0.92, -0.014922000000000001
DataValue, -0.88, -0.014492000000000001
DataValue, -0.84000000000000008, -0.014064000000000002
DataValue, -0.8, -0.013618000000000002
DataValue, -0.76, -0.013198000000000001
DataValue, -0.72000000000000008, -0.012764000000000001
DataValue, -0.68, -0.012324000000000002
DataValue, -0.64, -0.01187
DataValue, -0.6, -0.011436000000000002
DataValue, -0.56, -0.011004000000000002
DataValue, -0.52, -0.010560000000000002
DataValue, -0.48000000000000004, -0.010124000000000001
DataValue, -0.44, -0.009684
DataValue, -0.4, -0.0092462
DataValue, -0.36000000000000004, -0.008813
DataValue, -0.32, -0.0083676
DataValue, -0.28, -0.0079182
DataValue, -0.24000000000000002, -0.007474
DataValue, -0.2, -0.007037
DataValue, -0.16, -0.006613
DataValue, -0.12000000000000001, -0.006161
DataValue, -0.08, -0.005712
DataValue, -0.04, -0.0052712
DataValue, 0, -0.00485
DataValue, 0.04, -0.0043766000000000005
DataValue, 0.08, -0.00394
DataValue, 0.12000000000000001, -0.0035062
DataValue, 0.16, -0.0030626
DataValue, 0.2, -0.002598
DataValue, 0.24000000000000002, -0.0021474
DataValue, 0.28, -0.001727
DataValue, 0.32, -0.0012732
DataValue, 0.36000000000000004, -0.00082548000000000007
DataValue, 0.4, -0.00037482000000000005
DataValue, 0.44, 6.0208000000000004E-05
DataValue, 0.48000000000000004, 0.00051114
DataValue, 0.52, 0.00093938000000000008
DataValue, 0.56, 0.0014060000000000001
DataValue, 0.6, 0.0018438
DataValue, 0.64, 0.002268
DataValue, 0.68, 0.0027262000000000002
DataValue, 0.72000000000000008, 0.00316
DataValue, 0.76, 0.0036106000000000003
DataValue, 0.8, 0.0040384
DataValue, 0.84000000000000008, 0.0044766
DataValue, 0.88, 0.0049092
DataValue, 0.92, 0.0053082
DataValue, 0.96000000000000008, 0.0057344
DataValue, 1, 0.0061652
DataValue, 1.04, 0.0065802000000000005
DataValue, 1.08, 0.0069954000000000006
DataValue, 1.12, 0.0074166
DataValue, 1.1600000000000001, 0.0078194
DataValue, 1.2, 0.0082214
DataValue, 1.24, 0.008605
DataValue, 1.28, 0.0089874
DataValue, 1.32, 0.0093588
DataValue, 1.36, 0.0097204
DataValue, 1.4000000000000001, 0.0100832
DataValue, 1.4400000000000002, 0.0104244
DataValue, 1.48, 0.0107556
DataValue, 1.52, 0.011078600000000001
DataValue, 1.56, 0.0114252
DataValue, 1.6, 0.011734000000000001
DataValue, 1.6400000000000001, 0.012060000000000001
DataValue, 1.6800000000000002, 0.012364000000000002
DataValue, 1.72, 0.012688000000000001
DataValue, 1.76, 0.012990000000000002
DataValue, 1.8, 0.013284
DataValue, 1.84, 0.013578000000000002
DataValue, 1.8800000000000001, 0.01386
DataValue, 1.9200000000000002, 0.014136000000000001
DataValue, 1.9600000000000002, 0.014392000000000002
DataValue, 2, 0.01463