
SetupTitle, I/V Sweep
PrimitiveTest, I/V Sweep
TestParameter, Context.MainFrame, B1500A
TestParameter, Channel.UnitType, SMU, SMU, SMU, SMU, SMU
TestParameter, Channel.Unit, SMU1:HP, SMU2:MP, SMU3:MP, SMU4:MP, SMU5:MP
TestParameter, Channel.IName, I, IDD1, IDD2, ISS, IPP
TestParameter, Channel.VName, V, VDD1, VDD2, VSS, VPP
TestParameter, Channel.Mode, V, V, V, V, V
TestParameter, Channel.Func, VAR1, CONST, CONST, CONST, CONST
TestParameter, Channel.Index, 
TestParameter, Channel.Time, 
TestParameter, Measurement.Port.Unit, SMU1:HP, SMU2:MP, SMU3:MP, SMU4:MP, SMU5:MP
TestParameter, Measurement.Port.SeriesResistor, NONE, NONE, NONE, NONE, NONE
TestParameter, Measurement.Port.Filter, ON, ON, ON, ON, ON
TestParameter, Measurement.Port.OutputVoltageComparison, 0, 0, 0, 0, 0
TestParameter, Measurement.Primary.Locus, Single
TestParameter, Measurement.Primary.Scale, LINEAR
TestParameter, Measurement.Primary.Start, -2
TestParameter, Measurement.Primary.Stop, 2
TestParameter, Measurement.Primary.Step, 0.04
TestParameter, Measurement.Primary.Compliance, 0.1
TestParameter, Measurement.Primary.PowerCompliance, 0
TestParameter, Measurement.Aborting.Condition, CONTINUE AT ANY
TestParameter, Measurement.PostOutput.Value, START
TestParameter, Measurement.PostOutput.Retention, OFF
TestParameter, Measurement.Bias.Source, -2, 1.8, 1.1, 0, 0
TestParameter, Measurement.Bias.Compliance, 0.1, 0.1, 0.1, 0.1, 0.1
TestParameter, Measurement.Monitor.Unit, SMU1:HP, SMU2:MP, SMU3:MP, SMU4:MP, SMU5:MP
TestParameter, Measurement.Monitor.Adc, HR ADC, HR ADC, HR ADC, HR ADC, HR ADC
TestParameter, Measurement.Monitor.Measurement, Compliance Side, Compliance Side, Compliance Side, Compliance Side, Compliance Side
TestParameter, Measurement.Monitor.RangingMode, LIMITED, LIMITED, LIMITED, LIMITED, LIMITED
TestParameter, Measurement.Monitor.RangeBoundary, 1nA, 1nA, 1nA, 1nA, 1nA
TestParameter, Measurement.Monitor.RangeRating, BY FULL RANGE, BY FULL RANGE, BY FULL RANGE, BY FULL RANGE, BY FULL RANGE
TestParameter, Measurement.Monitor.RangeRatingCoeff, 50, 50, 50, 50, 50
TestParameter, Measurement.Timing.Hold, 0
TestParameter, Measurement.Timing.Delay, 0
TestParameter, Measurement.Adc.HighSpeed.Mode, AUTO
TestParameter, Measurement.Adc.HighSpeed.Coeff, 1
TestParameter, Measurement.Adc.HighResolution.AutoZero, OFF
TestParameter, Measurement.Adc.HighResolution.Mode, AUTO
TestParameter, Measurement.Adc.HighResolution.Coeff, 6
TestParameter, Measurement.WaitTime.Source.Coeff, 1
TestParameter, Measurement.WaitTime.Source.Offset, 0
TestParameter, Measurement.WaitTime.Monitor.Coeff, 1
TestParameter, Measurement.WaitTime.Monitor.Offset, 0
TestParameter, Output.Graph.Enabled, true
TestParameter, Output.Graph.AutoScaling, false
TestParameter, Output.Graph.XAxis.Data, V
TestParameter, Output.Graph.XAxis.Scale, Linear
TestParameter, Output.Graph.XAxis.Left, -2
TestParameter, Output.Graph.XAxis.Right, 2
TestParameter, Output.Graph.XAxis.RunTimeAutoScale, true
TestParameter, Output.Graph.YAxis.Data, I
TestParameter, Output.Graph.YAxis.Scale, Linear
TestParameter, Output.Graph.YAxis.Bottom, -0.1
TestParameter, Output.Graph.YAxis.Top, 0.1
TestParameter, Output.Graph.YAxis.Group, 
TestParameter, Output.Graph.YAxis.RunTimeAutoScale, true
TestParameter, AutoAnalysis.Interpolation, false
TestParameter, AutoAnalysis.Var2StepCount, 1
TestParameter, AutoAnalysis.Var2StepScript, 
TestParameter, AutoAnalysis.Line1.Enabled, false
TestParameter, AutoAnalysis.Line1.Type, 1
TestParameter, AutoAnalysis.Line1.Fix, True
TestParameter, AutoAnalysis.Line1.YAxis, 0
TestParameter, AutoAnalysis.Line1.Point1.Type, 0
TestParameter, AutoAnalysis.Line1.Point1.XY.X, 
TestParameter, AutoAnalysis.Line1.Point1.XY.Y, 
TestParameter, AutoAnalysis.Line1.Point1.Data.Var, 
TestParameter, AutoAnalysis.Line1.Point1.Data.Condition, 
TestParameter, AutoAnalysis.Line1.Point1.Data.Start, false
TestParameter, AutoAnalysis.Line1.Point1.Data.StartVar, 
TestParameter, AutoAnalysis.Line1.Point1.Data.StartCondition, 
TestParameter, AutoAnalysis.Line1.Point2.Type, 0
TestParameter, AutoAnalysis.Line1.Point2.XY.X, 
TestParameter, AutoAnalysis.Line1.Point2.XY.Y, 
TestParameter, AutoAnalysis.Line1.Point2.Data.Var, 
TestParameter, AutoAnalysis.Line1.Point2.Data.Condition, 
TestParameter, AutoAnalysis.Line1.Point2.Data.Start, false
TestParameter, AutoAnalysis.Line1.Point2.Data.StartVar, 
TestParameter, AutoAnalysis.Line1.Point2.Data.StartCondition, 
TestParameter, AutoAnalysis.Line1.GradientExpr, 0
TestParameter, AutoAnalysis.Line2.Enabled, false
TestParameter, AutoAnalysis.Line2.Type, 1
TestParameter, AutoAnalysis.Line2.Fix, True
TestParameter, AutoAnalysis.Line2.YAxis, 0
TestParameter, AutoAnalysis.Line2.Point1.Type, 0
TestParameter, AutoAnalysis.Line2.Point1.XY.X, 
TestParameter, AutoAnalysis.Line2.Point1.XY.Y, 
TestParameter, AutoAnalysis.Line2.Point1.Data.Var, 
TestParameter, AutoAnalysis.Line2.Point1.Data.Condition, 
TestParameter, AutoAnalysis.Line2.Point1.Data.Start, false
TestParameter, AutoAnalysis.Line2.Point1.Data.StartVar, 
TestParameter, AutoAnalysis.Line2.Point1.Data.StartCondition, 
TestParameter, AutoAnalysis.Line2.Point2.Type, 0
TestParameter, AutoAnalysis.Line2.Point2.XY.X, 
TestParameter, AutoAnalysis.Line2.Point2.XY.Y, 
TestParameter, AutoAnalysis.Line2.Point2.Data.Var, 
TestParameter, AutoAnalysis.Line2.Point2.Data.Condition, 
TestParameter, AutoAnalysis.Line2.Point2.Data.Start, false
TestParameter, AutoAnalysis.Line2.Point2.Data.StartVar, 
TestParameter, AutoAnalysis.Line2.Point2.Data.StartCondition, 
TestParameter, AutoAnalysis.Line2.GradientExpr, 0
TestParameter, AutoAnalysis.Marker.Enabled, false
TestParameter, AutoAnalysis.Marker.Data.Var, 
TestParameter, AutoAnalysis.Marker.Data.Condition, 
TestParameter, AutoAnalysis.Marker.Data.Start, false
TestParameter, AutoAnalysis.Marker.Data.StartVar, 
TestParameter, AutoAnalysis.Marker.Data.StartCondition, 
MetaData, TestRecord.EntryPoint, true
MetaData, TestRecord.RecordTime, 10/19/2022 13:46:05
MetaData, TestRecord.TestTarget, 
MetaData, TestRecord.IterationIndex, 343
MetaData, TestRecord.Preservation, true
MetaData, TestRecord.Flag, 
MetaData, TestRecord.Remarks, 
MetaData, TestRecord.LinkKey, d276a182-3565-4026-bbd6-93d3eeb70483
MetaData, TestRecord.Parameters, 
Dimension1, 101, 101
Dimension2, 1, 1
DataName, V, I
DataValue, -2, -0.030152
DataValue, -1.9600000000000002, -0.029558
DataValue, -1.9200000000000002, -0.028962
DataValue, -1.8800000000000001, -0.028356000000000003
DataValue, -1.84, -0.027718000000000003
DataValue, -1.8, -0.027072000000000002
DataValue, -1.76, -0.026446
DataValue, -1.72, -0.025794
DataValue, -1.6800000000000002, -0.025132
DataValue, -1.6400000000000001, -0.024454000000000004
DataValue, -1.6, -0.023784000000000003
DataValue, -1.56, -0.023116
DataValue, -1.52, -0.022430000000000002
DataValue, -1.48, -0.021744000000000003
DataValue, -1.4400000000000002, -0.021052
DataValue, -1.4000000000000001, -0.020346000000000003
DataValue, -1.36, -0.019626
DataValue, -1.32, -0.018920000000000003
DataValue, -1.28, -0.01821
DataValue, -1.24, -0.017472
DataValue, -1.2, -0.016746
DataValue, -1.1600000000000001, -0.016038
DataValue, -1.12, -0.015274000000000001
DataValue, -1.08, -0.014514
DataValue, -1.04, -0.013772000000000001
DataValue, -1, -0.013022
DataValue, -0.96000000000000008, -0.012262
DataValue, -0.92, -0.011514000000000002
DataValue, -0.88, -0.010752000000000001
DataValue, -0.84000000000000008, -0.010011
DataValue, -0.8, -0.0092332
DataValue, -0.76, -0.0084806
DataValue, -0.72000000000000008, -0.0077484
DataValue, -0.68, -0.0069976000000000005
DataValue, -0.64, -0.0062666
DataValue, -0.6, -0.005577
DataValue, -0.56, -0.0048208
DataValue, -0.52, -0.0041168
DataValue, -0.48000000000000004, -0.0034366
DataValue, -0.44, -0.0027814
DataValue, -0.4, -0.0021752
DataValue, -0.36000000000000004, -0.0016334000000000001
DataValue, -0.32, -0.0011282
DataValue, -0.28, -0.00078012
DataValue, -0.24000000000000002, -0.00055310000000000005
DataValue, -0.2, -0.00041898
DataValue, -0.16, -0.0003222
DataValue, -0.12000000000000001, -0.00024992
DataValue, -0.08, -0.00017472
DataValue, -0.04, -0.00011818000000000001
DataValue, 0, -6.14E-05
DataValue, 0.04, -3.062E-05
DataValue, 0.08, -1.4668000000000001E-05
DataValue, 0.12000000000000001, -6.7267E-06
DataValue, 0.16, -2.8082000000000005E-06
DataValue, 0.2, -7.5698E-07
DataValue, 0.24000000000000002, 5.2648E-07
DataValue, 0.28, 1.3471000000000002E-06
DataValue, 0.32, 2.1917E-06
DataValue, 0.36000000000000004, 2.8605000000000004E-06
DataValue, 0.4, 3.7524000000000003E-06
DataValue, 0.44, 4.4624000000000007E-06
DataValue, 0.48000000000000004, 5.5879E-06
DataValue, 0.52, 6.6924000000000005E-06
DataValue, 0.56, 7.7442000000000012E-06
DataValue, 0.6, 9.0117E-06
DataValue, 0.64, 1.0114E-05
DataValue, 0.68, 1.8332E-05
DataValue, 0.72000000000000008, 2.4066E-05
DataValue, 0.76, 2.8610000000000002E-05
DataValue, 0.8, 3.4244E-05
DataValue, 0.84000000000000008, 4.0192000000000004E-05
DataValue, 0.88, 4.6994000000000004E-05
DataValue, 0.92, 5.372E-05
DataValue, 0.96000000000000008, 5.761E-05
DataValue, 1, 6.5154E-05
DataValue, 1.04, 6.9626E-05
DataValue, 1.08, 7.6316E-05
DataValue, 1.12, 7.702E-05
DataValue, 1.1600000000000001, 0.00016298000000000002
DataValue, 1.2, 0.00037608000000000004
DataValue, 1.24, 0.00065284
DataValue, 1.28, 0.00101066
DataValue, 1.32, 0.0014104
DataValue, 1.36, 0.001818
DataValue, 1.4000000000000001, 0.0021816
DataValue, 1.4400000000000002, 0.002554
DataValue, 1.48, 0.0029188
DataValue, 1.52, 0.0032270000000000003
DataValue, 1.56, 0.0035016
DataValue, 1.6, 0.0037274
DataValue, 1.6400000000000001, 0.0039276
DataValue, 1.6800000000000002, 0.0041322
DataValue, 1.72, 0.0043382
DataValue, 1.76, 0.0046138
DataValue, 1.8, 0.0049944
DataValue, 1.84, 0.0054552
DataValue, 1.8800000000000001, 0.0059698
DataValue, 1.9200000000000002, 0.0065094
DataValue, 1.9600000000000002, 0.0070646
DataValue, 2, 0.0076322000000000004