
SetupTitle, I/V Sweep
PrimitiveTest, I/V Sweep
TestParameter, Context.MainFrame, B1500A
TestParameter, Channel.UnitType, SMU, SMU, SMU, SMU, SMU
TestParameter, Channel.Unit, SMU1:HP, SMU2:MP, SMU3:MP, SMU4:MP, SMU5:MP
TestParameter, Channel.IName, I, IDD1, IDD2, ISS, IPP
TestParameter, Channel.VName, V, VDD1, VDD2, VSS, VPP
TestParameter, Channel.Mode, V, V, V, V, V
TestParameter, Channel.Func, VAR1, CONST, CONST, CONST, CONST
TestParameter, Channel.Index, 
TestParameter, Channel.Time, 
TestParameter, Measurement.Port.Unit, SMU1:HP, SMU2:MP, SMU3:MP, SMU4:MP, SMU5:MP
TestParameter, Measurement.Port.SeriesResistor, NONE, NONE, NONE, NONE, NONE
TestParameter, Measurement.Port.Filter, ON, ON, ON, ON, ON
TestParameter, Measurement.Port.OutputVoltageComparison, 0, 0, 0, 0, 0
TestParameter, Measurement.Primary.Locus, Single
TestParameter, Measurement.Primary.Scale, LINEAR
TestParameter, Measurement.Primary.Start, -2
TestParameter, Measurement.Primary.Stop, 2
TestParameter, Measurement.Primary.Step, 0.04
TestParameter, Measurement.Primary.Compliance, 0.1
TestParameter, Measurement.Primary.PowerCompliance, 0
TestParameter, Measurement.Aborting.Condition, CONTINUE AT ANY
TestParameter, Measurement.PostOutput.Value, START
TestParameter, Measurement.PostOutput.Retention, OFF
TestParameter, Measurement.Bias.Source, -2, 1.8, 1.1, 0, 0
TestParameter, Measurement.Bias.Compliance, 0.1, 0.1, 0.1, 0.1, 0.1
TestParameter, Measurement.Monitor.Unit, SMU1:HP, SMU2:MP, SMU3:MP, SMU4:MP, SMU5:MP
TestParameter, Measurement.Monitor.Adc, HR ADC, HR ADC, HR ADC, HR ADC, HR ADC
TestParameter, Measurement.Monitor.Measurement, Compliance Side, Compliance Side, Compliance Side, Compliance Side, Compliance Side
TestParameter, Measurement.Monitor.RangingMode, LIMITED, LIMITED, LIMITED, LIMITED, LIMITED
TestParameter, Measurement.Monitor.RangeBoundary, 1nA, 1nA, 1nA, 1nA, 1nA
TestParameter, Measurement.Monitor.RangeRating, BY FULL RANGE, BY FULL RANGE, BY FULL RANGE, BY FULL RANGE, BY FULL RANGE
TestParameter, Measurement.Monitor.RangeRatingCoeff, 50, 50, 50, 50, 50
TestParameter, Measurement.Timing.Hold, 0
TestParameter, Measurement.Timing.Delay, 0
TestParameter, Measurement.Adc.HighSpeed.Mode, AUTO
TestParameter, Measurement.Adc.HighSpeed.Coeff, 1
TestParameter, Measurement.Adc.HighResolution.AutoZero, OFF
TestParameter, Measurement.Adc.HighResolution.Mode, AUTO
TestParameter, Measurement.Adc.HighResolution.Coeff, 6
TestParameter, Measurement.WaitTime.Source.Coeff, 1
TestParameter, Measurement.WaitTime.Source.Offset, 0
TestParameter, Measurement.WaitTime.Monitor.Coeff, 1
TestParameter, Measurement.WaitTime.Monitor.Offset, 0
TestParameter, Output.Graph.Enabled, true
TestParameter, Output.Graph.AutoScaling, false
TestParameter, Output.Graph.XAxis.Data, V
TestParameter, Output.Graph.XAxis.Scale, Linear
TestParameter, Output.Graph.XAxis.Left, -2
TestParameter, Output.Graph.XAxis.Right, 2
TestParameter, Output.Graph.XAxis.RunTimeAutoScale, true
TestParameter, Output.Graph.YAxis.Data, I
TestParameter, Output.Graph.YAxis.Scale, Linear
TestParameter, Output.Graph.YAxis.Bottom, -0.1
TestParameter, Output.Graph.YAxis.Top, 0.1
TestParameter, Output.Graph.YAxis.Group, 
TestParameter, Output.Graph.YAxis.RunTimeAutoScale, true
TestParameter, AutoAnalysis.Interpolation, false
TestParameter, AutoAnalysis.Var2StepCount, 1
TestParameter, AutoAnalysis.Var2StepScript, 
TestParameter, AutoAnalysis.Line1.Enabled, false
TestParameter, AutoAnalysis.Line1.Type, 1
TestParameter, AutoAnalysis.Line1.Fix, True
TestParameter, AutoAnalysis.Line1.YAxis, 0
TestParameter, AutoAnalysis.Line1.Point1.Type, 0
TestParameter, AutoAnalysis.Line1.Point1.XY.X, 
TestParameter, AutoAnalysis.Line1.Point1.XY.Y, 
TestParameter, AutoAnalysis.Line1.Point1.Data.Var, 
TestParameter, AutoAnalysis.Line1.Point1.Data.Condition, 
TestParameter, AutoAnalysis.Line1.Point1.Data.Start, false
TestParameter, AutoAnalysis.Line1.Point1.Data.StartVar, 
TestParameter, AutoAnalysis.Line1.Point1.Data.StartCondition, 
TestParameter, AutoAnalysis.Line1.Point2.Type, 0
TestParameter, AutoAnalysis.Line1.Point2.XY.X, 
TestParameter, AutoAnalysis.Line1.Point2.XY.Y, 
TestParameter, AutoAnalysis.Line1.Point2.Data.Var, 
TestParameter, AutoAnalysis.Line1.Point2.Data.Condition, 
TestParameter, AutoAnalysis.Line1.Point2.Data.Start, false
TestParameter, AutoAnalysis.Line1.Point2.Data.StartVar, 
TestParameter, AutoAnalysis.Line1.Point2.Data.StartCondition, 
TestParameter, AutoAnalysis.Line1.GradientExpr, 0
TestParameter, AutoAnalysis.Line2.Enabled, false
TestParameter, AutoAnalysis.Line2.Type, 1
TestParameter, AutoAnalysis.Line2.Fix, True
TestParameter, AutoAnalysis.Line2.YAxis, 0
TestParameter, AutoAnalysis.Line2.Point1.Type, 0
TestParameter, AutoAnalysis.Line2.Point1.XY.X, 
TestParameter, AutoAnalysis.Line2.Point1.XY.Y, 
TestParameter, AutoAnalysis.Line2.Point1.Data.Var, 
TestParameter, AutoAnalysis.Line2.Point1.Data.Condition, 
TestParameter, AutoAnalysis.Line2.Point1.Data.Start, false
TestParameter, AutoAnalysis.Line2.Point1.Data.StartVar, 
TestParameter, AutoAnalysis.Line2.Point1.Data.StartCondition, 
TestParameter, AutoAnalysis.Line2.Point2.Type, 0
TestParameter, AutoAnalysis.Line2.Point2.XY.X, 
TestParameter, AutoAnalysis.Line2.Point2.XY.Y, 
TestParameter, AutoAnalysis.Line2.Point2.Data.Var, 
TestParameter, AutoAnalysis.Line2.Point2.Data.Condition, 
TestParameter, AutoAnalysis.Line2.Point2.Data.Start, false
TestParameter, AutoAnalysis.Line2.Point2.Data.StartVar, 
TestParameter, AutoAnalysis.Line2.Point2.Data.StartCondition, 
TestParameter, AutoAnalysis.Line2.GradientExpr, 0
TestParameter, AutoAnalysis.Marker.Enabled, false
TestParameter, AutoAnalysis.Marker.Data.Var, 
TestParameter, AutoAnalysis.Marker.Data.Condition, 
TestParameter, AutoAnalysis.Marker.Data.Start, false
TestParameter, AutoAnalysis.Marker.Data.StartVar, 
TestParameter, AutoAnalysis.Marker.Data.StartCondition, 
MetaData, TestRecord.EntryPoint, true
MetaData, TestRecord.RecordTime, 10/19/2022 13:43:19
MetaData, TestRecord.TestTarget, 
MetaData, TestRecord.IterationIndex, 337
MetaData, TestRecord.Preservation, true
MetaData, TestRecord.Flag, 
MetaData, TestRecord.Remarks, 
MetaData, TestRecord.LinkKey, aeed374c-3150-493a-b7e9-96eed06c01e4
MetaData, TestRecord.Parameters, 
Dimension1, 101, 101
Dimension2, 1, 1
DataName, V, I
DataValue, -2, -0.028914000000000002
DataValue, -1.9600000000000002, -0.028296
DataValue, -1.9200000000000002, -0.027292000000000004
DataValue, -1.8800000000000001, -0.026736000000000003
DataValue, -1.84, -0.026162
DataValue, -1.8, -0.025580000000000002
DataValue, -1.76, -0.025006
DataValue, -1.72, -0.024432000000000002
DataValue, -1.6800000000000002, -0.023840000000000004
DataValue, -1.6400000000000001, -0.023248
DataValue, -1.6, -0.022654
DataValue, -1.56, -0.022060000000000003
DataValue, -1.52, -0.021460000000000003
DataValue, -1.48, -0.020862000000000002
DataValue, -1.4400000000000002, -0.020256000000000003
DataValue, -1.4000000000000001, -0.019656000000000003
DataValue, -1.36, -0.01904
DataValue, -1.32, -0.018442
DataValue, -1.28, -0.017834000000000003
DataValue, -1.24, -0.017230000000000002
DataValue, -1.2, -0.016628
DataValue, -1.1600000000000001, -0.016034000000000003
DataValue, -1.12, -0.015446000000000001
DataValue, -1.08, -0.014860000000000002
DataValue, -1.04, -0.014278
DataValue, -1, -0.013714
DataValue, -0.96000000000000008, -0.013146000000000001
DataValue, -0.92, -0.012658
DataValue, -0.88, -0.012082
DataValue, -0.84000000000000008, -0.011564000000000001
DataValue, -0.8, -0.011096000000000002
DataValue, -0.76, -0.010616
DataValue, -0.72000000000000008, -0.010114000000000002
DataValue, -0.68, -0.0096196
DataValue, -0.64, -0.0091596
DataValue, -0.6, -0.0087076
DataValue, -0.56, -0.0082454
DataValue, -0.52, -0.007797
DataValue, -0.48000000000000004, -0.0073286
DataValue, -0.44, -0.006893
DataValue, -0.4, -0.0064434
DataValue, -0.36000000000000004, -0.0060214000000000005
DataValue, -0.32, -0.0055654
DataValue, -0.28, -0.0051464
DataValue, -0.24000000000000002, -0.00472
DataValue, -0.2, -0.0043072
DataValue, -0.16, -0.003872
DataValue, -0.12000000000000001, -0.0034776
DataValue, -0.08, -0.003081
DataValue, -0.04, -0.0027006
DataValue, 0, -0.0023426000000000002
DataValue, 0.04, -0.0019804
DataValue, 0.08, -0.0016464000000000001
DataValue, 0.12000000000000001, -0.0013298000000000001
DataValue, 0.16, -0.0010492
DataValue, 0.2, -0.00080234
DataValue, 0.24000000000000002, -0.00058606
DataValue, 0.28, -0.00042812000000000004
DataValue, 0.32, -0.00029108000000000004
DataValue, 0.36000000000000004, -0.00018782
DataValue, 0.4, -0.00010462000000000001
DataValue, 0.44, -3.553E-05
DataValue, 0.48000000000000004, 1.9952E-05
DataValue, 0.52, 6.0586E-05
DataValue, 0.56, 8.7468E-05
DataValue, 0.6, 0.000106574
DataValue, 0.64, 0.00011564000000000001
DataValue, 0.68, 0.00012094
DataValue, 0.72000000000000008, 0.00012552
DataValue, 0.76, 0.00012912
DataValue, 0.8, 0.00013414
DataValue, 0.84000000000000008, 0.00013812
DataValue, 0.88, 0.00014566
DataValue, 0.92, 0.00015738000000000001
DataValue, 0.96000000000000008, 0.00017600000000000002
DataValue, 1, 0.00020298
DataValue, 1.04, 0.00024372
DataValue, 1.08, 0.00028220000000000003
DataValue, 1.12, 0.00033860000000000004
DataValue, 1.1600000000000001, 0.00039170000000000003
DataValue, 1.2, 0.000449
DataValue, 1.24, 0.00050768
DataValue, 1.28, 0.00057968000000000006
DataValue, 1.32, 0.00064356
DataValue, 1.36, 0.0007144600000000001
DataValue, 1.4000000000000001, 0.0007948
DataValue, 1.4400000000000002, 0.00088660000000000008
DataValue, 1.48, 0.0009852
DataValue, 1.52, 0.0011059000000000002
DataValue, 1.56, 0.0012262
DataValue, 1.6, 0.0013736
DataValue, 1.6400000000000001, 0.0015316
DataValue, 1.6800000000000002, 0.001684
DataValue, 1.72, 0.0018606
DataValue, 1.76, 0.0020458
DataValue, 1.8, 0.0022316000000000003
DataValue, 1.84, 0.0024332
DataValue, 1.8800000000000001, 0.0026354
DataValue, 1.9200000000000002, 0.0028434000000000003
DataValue, 1.9600000000000002, 0.0030564
DataValue, 2, 0.0032822