
SetupTitle, I/V Sweep
PrimitiveTest, I/V Sweep
TestParameter, Context.MainFrame, B1500A
TestParameter, Channel.UnitType, SMU, SMU, SMU, SMU, SMU
TestParameter, Channel.Unit, SMU1:HP, SMU2:MP, SMU3:MP, SMU4:MP, SMU5:MP
TestParameter, Channel.IName, I, IDD1, IDD2, ISS, IPP
TestParameter, Channel.VName, V, VDD1, VDD2, VSS, VPP
TestParameter, Channel.Mode, V, V, V, V, V
TestParameter, Channel.Func, VAR1, CONST, CONST, CONST, CONST
TestParameter, Channel.Index, 
TestParameter, Channel.Time, 
TestParameter, Measurement.Port.Unit, SMU1:HP, SMU2:MP, SMU3:MP, SMU4:MP, SMU5:MP
TestParameter, Measurement.Port.SeriesResistor, NONE, NONE, NONE, NONE, NONE
TestParameter, Measurement.Port.Filter, ON, ON, ON, ON, ON
TestParameter, Measurement.Port.OutputVoltageComparison, 0, 0, 0, 0, 0
TestParameter, Measurement.Primary.Locus, Single
TestParameter, Measurement.Primary.Scale, LINEAR
TestParameter, Measurement.Primary.Start, -2
TestParameter, Measurement.Primary.Stop, 2
TestParameter, Measurement.Primary.Step, 0.04
TestParameter, Measurement.Primary.Compliance, 0.1
TestParameter, Measurement.Primary.PowerCompliance, 0
TestParameter, Measurement.Aborting.Condition, CONTINUE AT ANY
TestParameter, Measurement.PostOutput.Value, START
TestParameter, Measurement.PostOutput.Retention, OFF
TestParameter, Measurement.Bias.Source, -2, 1.8, 1.1, 0, 0
TestParameter, Measurement.Bias.Compliance, 0.1, 0.1, 0.1, 0.1, 0.1
TestParameter, Measurement.Monitor.Unit, SMU1:HP, SMU2:MP, SMU3:MP, SMU4:MP, SMU5:MP
TestParameter, Measurement.Monitor.Adc, HR ADC, HR ADC, HR ADC, HR ADC, HR ADC
TestParameter, Measurement.Monitor.Measurement, Compliance Side, Compliance Side, Compliance Side, Compliance Side, Compliance Side
TestParameter, Measurement.Monitor.RangingMode, LIMITED, LIMITED, LIMITED, LIMITED, LIMITED
TestParameter, Measurement.Monitor.RangeBoundary, 1nA, 1nA, 1nA, 1nA, 1nA
TestParameter, Measurement.Monitor.RangeRating, BY FULL RANGE, BY FULL RANGE, BY FULL RANGE, BY FULL RANGE, BY FULL RANGE
TestParameter, Measurement.Monitor.RangeRatingCoeff, 50, 50, 50, 50, 50
TestParameter, Measurement.Timing.Hold, 0
TestParameter, Measurement.Timing.Delay, 0
TestParameter, Measurement.Adc.HighSpeed.Mode, AUTO
TestParameter, Measurement.Adc.HighSpeed.Coeff, 1
TestParameter, Measurement.Adc.HighResolution.AutoZero, OFF
TestParameter, Measurement.Adc.HighResolution.Mode, AUTO
TestParameter, Measurement.Adc.HighResolution.Coeff, 6
TestParameter, Measurement.WaitTime.Source.Coeff, 1
TestParameter, Measurement.WaitTime.Source.Offset, 0
TestParameter, Measurement.WaitTime.Monitor.Coeff, 1
TestParameter, Measurement.WaitTime.Monitor.Offset, 0
TestParameter, Output.Graph.Enabled, true
TestParameter, Output.Graph.AutoScaling, false
TestParameter, Output.Graph.XAxis.Data, V
TestParameter, Output.Graph.XAxis.Scale, Linear
TestParameter, Output.Graph.XAxis.Left, -2
TestParameter, Output.Graph.XAxis.Right, 2
TestParameter, Output.Graph.XAxis.RunTimeAutoScale, true
TestParameter, Output.Graph.YAxis.Data, I
TestParameter, Output.Graph.YAxis.Scale, Linear
TestParameter, Output.Graph.YAxis.Bottom, -0.1
TestParameter, Output.Graph.YAxis.Top, 0.1
TestParameter, Output.Graph.YAxis.Group, 
TestParameter, Output.Graph.YAxis.RunTimeAutoScale, true
TestParameter, AutoAnalysis.Interpolation, false
TestParameter, AutoAnalysis.Var2StepCount, 1
TestParameter, AutoAnalysis.Var2StepScript, 
TestParameter, AutoAnalysis.Line1.Enabled, false
TestParameter, AutoAnalysis.Line1.Type, 1
TestParameter, AutoAnalysis.Line1.Fix, True
TestParameter, AutoAnalysis.Line1.YAxis, 0
TestParameter, AutoAnalysis.Line1.Point1.Type, 0
TestParameter, AutoAnalysis.Line1.Point1.XY.X, 
TestParameter, AutoAnalysis.Line1.Point1.XY.Y, 
TestParameter, AutoAnalysis.Line1.Point1.Data.Var, 
TestParameter, AutoAnalysis.Line1.Point1.Data.Condition, 
TestParameter, AutoAnalysis.Line1.Point1.Data.Start, false
TestParameter, AutoAnalysis.Line1.Point1.Data.StartVar, 
TestParameter, AutoAnalysis.Line1.Point1.Data.StartCondition, 
TestParameter, AutoAnalysis.Line1.Point2.Type, 0
TestParameter, AutoAnalysis.Line1.Point2.XY.X, 
TestParameter, AutoAnalysis.Line1.Point2.XY.Y, 
TestParameter, AutoAnalysis.Line1.Point2.Data.Var, 
TestParameter, AutoAnalysis.Line1.Point2.Data.Condition, 
TestParameter, AutoAnalysis.Line1.Point2.Data.Start, false
TestParameter, AutoAnalysis.Line1.Point2.Data.StartVar, 
TestParameter, AutoAnalysis.Line1.Point2.Data.StartCondition, 
TestParameter, AutoAnalysis.Line1.GradientExpr, 0
TestParameter, AutoAnalysis.Line2.Enabled, false
TestParameter, AutoAnalysis.Line2.Type, 1
TestParameter, AutoAnalysis.Line2.Fix, True
TestParameter, AutoAnalysis.Line2.YAxis, 0
TestParameter, AutoAnalysis.Line2.Point1.Type, 0
TestParameter, AutoAnalysis.Line2.Point1.XY.X, 
TestParameter, AutoAnalysis.Line2.Point1.XY.Y, 
TestParameter, AutoAnalysis.Line2.Point1.Data.Var, 
TestParameter, AutoAnalysis.Line2.Point1.Data.Condition, 
TestParameter, AutoAnalysis.Line2.Point1.Data.Start, false
TestParameter, AutoAnalysis.Line2.Point1.Data.StartVar, 
TestParameter, AutoAnalysis.Line2.Point1.Data.StartCondition, 
TestParameter, AutoAnalysis.Line2.Point2.Type, 0
TestParameter, AutoAnalysis.Line2.Point2.XY.X, 
TestParameter, AutoAnalysis.Line2.Point2.XY.Y, 
TestParameter, AutoAnalysis.Line2.Point2.Data.Var, 
TestParameter, AutoAnalysis.Line2.Point2.Data.Condition, 
TestParameter, AutoAnalysis.Line2.Point2.Data.Start, false
TestParameter, AutoAnalysis.Line2.Point2.Data.StartVar, 
TestParameter, AutoAnalysis.Line2.Point2.Data.StartCondition, 
TestParameter, AutoAnalysis.Line2.GradientExpr, 0
TestParameter, AutoAnalysis.Marker.Enabled, false
TestParameter, AutoAnalysis.Marker.Data.Var, 
TestParameter, AutoAnalysis.Marker.Data.Condition, 
TestParameter, AutoAnalysis.Marker.Data.Start, false
TestParameter, AutoAnalysis.Marker.Data.StartVar, 
TestParameter, AutoAnalysis.Marker.Data.StartCondition, 
MetaData, TestRecord.EntryPoint, true
MetaData, TestRecord.RecordTime, 10/19/2022 13:44:28
MetaData, TestRecord.TestTarget, 
MetaData, TestRecord.IterationIndex, 341
MetaData, TestRecord.Preservation, true
MetaData, TestRecord.Flag, 
MetaData, TestRecord.Remarks, 
MetaData, TestRecord.LinkKey, 6dbd4235-928e-4263-8cea-6fed32033478
MetaData, TestRecord.Parameters, 
Dimension1, 101, 101
Dimension2, 1, 1
DataName, V, I
DataValue, -2, -0.026432
DataValue, -1.9600000000000002, -0.025952000000000003
DataValue, -1.9200000000000002, -0.025476000000000002
DataValue, -1.8800000000000001, -0.024978000000000004
DataValue, -1.84, -0.024478000000000003
DataValue, -1.8, -0.023940000000000003
DataValue, -1.76, -0.023430000000000003
DataValue, -1.72, -0.022920000000000003
DataValue, -1.6800000000000002, -0.022422
DataValue, -1.6400000000000001, -0.021910000000000002
DataValue, -1.6, -0.021382
DataValue, -1.56, -0.020868
DataValue, -1.52, -0.020324000000000002
DataValue, -1.48, -0.019812000000000003
DataValue, -1.4400000000000002, -0.019266000000000002
DataValue, -1.4000000000000001, -0.018742
DataValue, -1.36, -0.018232
DataValue, -1.32, -0.017698000000000002
DataValue, -1.28, -0.017182000000000003
DataValue, -1.24, -0.016618
DataValue, -1.2, -0.016128
DataValue, -1.1600000000000001, -0.015568000000000002
DataValue, -1.12, -0.015070000000000002
DataValue, -1.08, -0.014584000000000002
DataValue, -1.04, -0.014034000000000001
DataValue, -1, -0.013554000000000002
DataValue, -0.96000000000000008, -0.013036
DataValue, -0.92, -0.012530000000000001
DataValue, -0.88, -0.01204
DataValue, -0.84000000000000008, -0.011652000000000001
DataValue, -0.8, -0.011148000000000002
DataValue, -0.76, -0.010652000000000002
DataValue, -0.72000000000000008, -0.010180000000000002
DataValue, -0.68, -0.0097488
DataValue, -0.64, -0.0093208
DataValue, -0.6, -0.0088696
DataValue, -0.56, -0.0084102
DataValue, -0.52, -0.0079744
DataValue, -0.48000000000000004, -0.0075476
DataValue, -0.44, -0.0071088
DataValue, -0.4, -0.0066996
DataValue, -0.36000000000000004, -0.0062638
DataValue, -0.32, -0.0058526
DataValue, -0.28, -0.0053854
DataValue, -0.24000000000000002, -0.0050538
DataValue, -0.2, -0.0046044
DataValue, -0.16, -0.0042096
DataValue, -0.12000000000000001, -0.003764
DataValue, -0.08, -0.0033798
DataValue, -0.04, -0.002924
DataValue, 0, -0.0026306
DataValue, 0.04, -0.0022744
DataValue, 0.08, -0.0019236000000000001
DataValue, 0.12000000000000001, -0.0015758
DataValue, 0.16, -0.0012334
DataValue, 0.2, -0.0010004
DataValue, 0.24000000000000002, -0.00075732
DataValue, 0.28, -0.00049604
DataValue, 0.32, -0.00036912
DataValue, 0.36000000000000004, -0.00023554
DataValue, 0.4, -0.0001538
DataValue, 0.44, -8.0906E-05
DataValue, 0.48000000000000004, -2.175E-05
DataValue, 0.52, 2.142E-05
DataValue, 0.56, 5.0612E-05
DataValue, 0.6, 6.3708000000000007E-05
DataValue, 0.64, 7.644E-05
DataValue, 0.68, 7.901E-05
DataValue, 0.72000000000000008, 8.6330000000000009E-05
DataValue, 0.76, 9.1454000000000009E-05
DataValue, 0.8, 9.4232E-05
DataValue, 0.84000000000000008, 9.2954E-05
DataValue, 0.88, 0.000104812
DataValue, 0.92, 0.000110804
DataValue, 0.96000000000000008, 0.00013044
DataValue, 1, 0.0001554
DataValue, 1.04, 0.0001798
DataValue, 1.08, 0.00022978
DataValue, 1.12, 0.00028238000000000004
DataValue, 1.1600000000000001, 0.0003457
DataValue, 1.2, 0.0004062
DataValue, 1.24, 0.00045536000000000003
DataValue, 1.28, 0.0005103
DataValue, 1.32, 0.00058636000000000007
DataValue, 1.36, 0.00065644
DataValue, 1.4000000000000001, 0.0007368
DataValue, 1.4400000000000002, 0.00082642
DataValue, 1.48, 0.00092702000000000008
DataValue, 1.52, 0.00104554
DataValue, 1.56, 0.0011816
DataValue, 1.6, 0.0013368
DataValue, 1.6400000000000001, 0.0014968
DataValue, 1.6800000000000002, 0.0016648000000000001
DataValue, 1.72, 0.00185
DataValue, 1.76, 0.0020306
DataValue, 1.8, 0.0022198
DataValue, 1.84, 0.0024076
DataValue, 1.8800000000000001, 0.0027018
DataValue, 1.9200000000000002, 0.002858
DataValue, 1.9600000000000002, 0.003077
DataValue, 2, 0.0032554