
SetupTitle, I/V Sweep
PrimitiveTest, I/V Sweep
TestParameter, Context.MainFrame, B1500A
TestParameter, Channel.UnitType, SMU, SMU, SMU, SMU, SMU
TestParameter, Channel.Unit, SMU1:HP, SMU2:MP, SMU3:MP, SMU4:MP, SMU5:MP
TestParameter, Channel.IName, I, IDD1, IDD2, ISS, IPP
TestParameter, Channel.VName, V, VDD1, VDD2, VSS, VPP
TestParameter, Channel.Mode, V, V, V, V, V
TestParameter, Channel.Func, VAR1, CONST, CONST, CONST, CONST
TestParameter, Channel.Index, 
TestParameter, Channel.Time, 
TestParameter, Measurement.Port.Unit, SMU1:HP, SMU2:MP, SMU3:MP, SMU4:MP, SMU5:MP
TestParameter, Measurement.Port.SeriesResistor, NONE, NONE, NONE, NONE, NONE
TestParameter, Measurement.Port.Filter, ON, ON, ON, ON, ON
TestParameter, Measurement.Port.OutputVoltageComparison, 0, 0, 0, 0, 0
TestParameter, Measurement.Primary.Locus, Single
TestParameter, Measurement.Primary.Scale, LINEAR
TestParameter, Measurement.Primary.Start, -2
TestParameter, Measurement.Primary.Stop, 2
TestParameter, Measurement.Primary.Step, 0.04
TestParameter, Measurement.Primary.Compliance, 0.1
TestParameter, Measurement.Primary.PowerCompliance, 0
TestParameter, Measurement.Aborting.Condition, CONTINUE AT ANY
TestParameter, Measurement.PostOutput.Value, START
TestParameter, Measurement.PostOutput.Retention, OFF
TestParameter, Measurement.Bias.Source, -2, 1.8, 1.1, 0, 0
TestParameter, Measurement.Bias.Compliance, 0.1, 0.1, 0.1, 0.1, 0.1
TestParameter, Measurement.Monitor.Unit, SMU1:HP, SMU2:MP, SMU3:MP, SMU4:MP, SMU5:MP
TestParameter, Measurement.Monitor.Adc, HR ADC, HR ADC, HR ADC, HR ADC, HR ADC
TestParameter, Measurement.Monitor.Measurement, Compliance Side, Compliance Side, Compliance Side, Compliance Side, Compliance Side
TestParameter, Measurement.Monitor.RangingMode, LIMITED, LIMITED, LIMITED, LIMITED, LIMITED
TestParameter, Measurement.Monitor.RangeBoundary, 1nA, 1nA, 1nA, 1nA, 1nA
TestParameter, Measurement.Monitor.RangeRating, BY FULL RANGE, BY FULL RANGE, BY FULL RANGE, BY FULL RANGE, BY FULL RANGE
TestParameter, Measurement.Monitor.RangeRatingCoeff, 50, 50, 50, 50, 50
TestParameter, Measurement.Timing.Hold, 0
TestParameter, Measurement.Timing.Delay, 0
TestParameter, Measurement.Adc.HighSpeed.Mode, AUTO
TestParameter, Measurement.Adc.HighSpeed.Coeff, 1
TestParameter, Measurement.Adc.HighResolution.AutoZero, OFF
TestParameter, Measurement.Adc.HighResolution.Mode, AUTO
TestParameter, Measurement.Adc.HighResolution.Coeff, 6
TestParameter, Measurement.WaitTime.Source.Coeff, 1
TestParameter, Measurement.WaitTime.Source.Offset, 0
TestParameter, Measurement.WaitTime.Monitor.Coeff, 1
TestParameter, Measurement.WaitTime.Monitor.Offset, 0
TestParameter, Output.Graph.Enabled, true
TestParameter, Output.Graph.AutoScaling, false
TestParameter, Output.Graph.XAxis.Data, V
TestParameter, Output.Graph.XAxis.Scale, Linear
TestParameter, Output.Graph.XAxis.Left, -2
TestParameter, Output.Graph.XAxis.Right, 2
TestParameter, Output.Graph.XAxis.RunTimeAutoScale, true
TestParameter, Output.Graph.YAxis.Data, I
TestParameter, Output.Graph.YAxis.Scale, Linear
TestParameter, Output.Graph.YAxis.Bottom, -0.1
TestParameter, Output.Graph.YAxis.Top, 0.1
TestParameter, Output.Graph.YAxis.Group, 
TestParameter, Output.Graph.YAxis.RunTimeAutoScale, true
TestParameter, AutoAnalysis.Interpolation, false
TestParameter, AutoAnalysis.Var2StepCount, 1
TestParameter, AutoAnalysis.Var2StepScript, 
TestParameter, AutoAnalysis.Line1.Enabled, false
TestParameter, AutoAnalysis.Line1.Type, 1
TestParameter, AutoAnalysis.Line1.Fix, True
TestParameter, AutoAnalysis.Line1.YAxis, 0
TestParameter, AutoAnalysis.Line1.Point1.Type, 0
TestParameter, AutoAnalysis.Line1.Point1.XY.X, 
TestParameter, AutoAnalysis.Line1.Point1.XY.Y, 
TestParameter, AutoAnalysis.Line1.Point1.Data.Var, 
TestParameter, AutoAnalysis.Line1.Point1.Data.Condition, 
TestParameter, AutoAnalysis.Line1.Point1.Data.Start, false
TestParameter, AutoAnalysis.Line1.Point1.Data.StartVar, 
TestParameter, AutoAnalysis.Line1.Point1.Data.StartCondition, 
TestParameter, AutoAnalysis.Line1.Point2.Type, 0
TestParameter, AutoAnalysis.Line1.Point2.XY.X, 
TestParameter, AutoAnalysis.Line1.Point2.XY.Y, 
TestParameter, AutoAnalysis.Line1.Point2.Data.Var, 
TestParameter, AutoAnalysis.Line1.Point2.Data.Condition, 
TestParameter, AutoAnalysis.Line1.Point2.Data.Start, false
TestParameter, AutoAnalysis.Line1.Point2.Data.StartVar, 
TestParameter, AutoAnalysis.Line1.Point2.Data.StartCondition, 
TestParameter, AutoAnalysis.Line1.GradientExpr, 0
TestParameter, AutoAnalysis.Line2.Enabled, false
TestParameter, AutoAnalysis.Line2.Type, 1
TestParameter, AutoAnalysis.Line2.Fix, True
TestParameter, AutoAnalysis.Line2.YAxis, 0
TestParameter, AutoAnalysis.Line2.Point1.Type, 0
TestParameter, AutoAnalysis.Line2.Point1.XY.X, 
TestParameter, AutoAnalysis.Line2.Point1.XY.Y, 
TestParameter, AutoAnalysis.Line2.Point1.Data.Var, 
TestParameter, AutoAnalysis.Line2.Point1.Data.Condition, 
TestParameter, AutoAnalysis.Line2.Point1.Data.Start, false
TestParameter, AutoAnalysis.Line2.Point1.Data.StartVar, 
TestParameter, AutoAnalysis.Line2.Point1.Data.StartCondition, 
TestParameter, AutoAnalysis.Line2.Point2.Type, 0
TestParameter, AutoAnalysis.Line2.Point2.XY.X, 
TestParameter, AutoAnalysis.Line2.Point2.XY.Y, 
TestParameter, AutoAnalysis.Line2.Point2.Data.Var, 
TestParameter, AutoAnalysis.Line2.Point2.Data.Condition, 
TestParameter, AutoAnalysis.Line2.Point2.Data.Start, false
TestParameter, AutoAnalysis.Line2.Point2.Data.StartVar, 
TestParameter, AutoAnalysis.Line2.Point2.Data.StartCondition, 
TestParameter, AutoAnalysis.Line2.GradientExpr, 0
TestParameter, AutoAnalysis.Marker.Enabled, false
TestParameter, AutoAnalysis.Marker.Data.Var, 
TestParameter, AutoAnalysis.Marker.Data.Condition, 
TestParameter, AutoAnalysis.Marker.Data.Start, false
TestParameter, AutoAnalysis.Marker.Data.StartVar, 
TestParameter, AutoAnalysis.Marker.Data.StartCondition, 
MetaData, TestRecord.EntryPoint, true
MetaData, TestRecord.RecordTime, 10/19/2022 13:48:48
MetaData, TestRecord.TestTarget, 
MetaData, TestRecord.IterationIndex, 350
MetaData, TestRecord.Preservation, true
MetaData, TestRecord.Flag, 
MetaData, TestRecord.Remarks, 
MetaData, TestRecord.LinkKey, 0b64caf6-593a-4a50-9dde-b8b404e11dd5
MetaData, TestRecord.Parameters, 
Dimension1, 101, 101
Dimension2, 1, 1
DataName, V, I
DataValue, -2, -0.013778000000000002
DataValue, -1.9600000000000002, -0.013678000000000001
DataValue, -1.9200000000000002, -0.013436000000000002
DataValue, -1.8800000000000001, -0.013146000000000001
DataValue, -1.84, -0.012860000000000002
DataValue, -1.8, -0.012578
DataValue, -1.76, -0.012344
DataValue, -1.72, -0.012020000000000001
DataValue, -1.6800000000000002, -0.011722000000000002
DataValue, -1.6400000000000001, -0.011486000000000001
DataValue, -1.6, -0.011194
DataValue, -1.56, -0.010914
DataValue, -1.52, -0.010624000000000002
DataValue, -1.48, -0.010350000000000002
DataValue, -1.4400000000000002, -0.010012
DataValue, -1.4000000000000001, -0.0097132
DataValue, -1.36, -0.00944
DataValue, -1.32, -0.0091192000000000009
DataValue, -1.28, -0.0088142
DataValue, -1.24, -0.0085494
DataValue, -1.2, -0.0079298
DataValue, -1.1600000000000001, -0.0077462
DataValue, -1.12, -0.0073662
DataValue, -1.08, -0.007161
DataValue, -1.04, -0.00669
DataValue, -1, -0.0065446
DataValue, -0.96000000000000008, -0.0061848
DataValue, -0.92, -0.005969
DataValue, -0.88, -0.005484
DataValue, -0.84000000000000008, -0.005161
DataValue, -0.8, -0.0049804
DataValue, -0.76, -0.0045708
DataValue, -0.72000000000000008, -0.0044334
DataValue, -0.68, -0.0041694
DataValue, -0.64, -0.0037888
DataValue, -0.6, -0.0035766
DataValue, -0.56, -0.0030644
DataValue, -0.52, -0.0029382
DataValue, -0.48000000000000004, -0.0026738
DataValue, -0.44, -0.0024976
DataValue, -0.4, -0.0022474
DataValue, -0.36000000000000004, -0.0020382
DataValue, -0.32, -0.0017172
DataValue, -0.28, -0.0014626
DataValue, -0.24000000000000002, -0.001282
DataValue, -0.2, -0.0010556
DataValue, -0.16, -0.0008593400000000001
DataValue, -0.12000000000000001, -0.00064288000000000008
DataValue, -0.08, -0.00042878
DataValue, -0.04, -0.00021584000000000002
DataValue, 0, -1.2913E-06
DataValue, 0.04, 0.00018424
DataValue, 0.08, 0.00038234
DataValue, 0.12000000000000001, 0.00057412
DataValue, 0.16, 0.0007701
DataValue, 0.2, 0.00092464
DataValue, 0.24000000000000002, 0.0011264
DataValue, 0.28, 0.0013576
DataValue, 0.32, 0.0014286
DataValue, 0.36000000000000004, 0.0017558
DataValue, 0.4, 0.0019106000000000002
DataValue, 0.44, 0.0021650000000000003
DataValue, 0.48000000000000004, 0.002292
DataValue, 0.52, 0.002639
DataValue, 0.56, 0.0027434
DataValue, 0.6, 0.0030632
DataValue, 0.64, 0.0033166000000000003
DataValue, 0.68, 0.0036420000000000003
DataValue, 0.72000000000000008, 0.003801
DataValue, 0.76, 0.0041270000000000005
DataValue, 0.8, 0.0043492
DataValue, 0.84000000000000008, 0.004746
DataValue, 0.88, 0.004895
DataValue, 0.92, 0.0054326
DataValue, 0.96000000000000008, 0.0056170000000000005
DataValue, 1, 0.0058966
DataValue, 1.04, 0.0061628
DataValue, 1.08, 0.0065142
DataValue, 1.12, 0.006714
DataValue, 1.1600000000000001, 0.0070812
DataValue, 1.2, 0.007432
DataValue, 1.24, 0.007816
DataValue, 1.28, 0.0080888
DataValue, 1.32, 0.0083736
DataValue, 1.36, 0.0085888
DataValue, 1.4000000000000001, 0.0089086000000000009
DataValue, 1.4400000000000002, 0.0094206
DataValue, 1.48, 0.0098536
DataValue, 1.52, 0.0101438
DataValue, 1.56, 0.0103838
DataValue, 1.6, 0.010667
DataValue, 1.6400000000000001, 0.0109616
DataValue, 1.6800000000000002, 0.011311400000000001
DataValue, 1.72, 0.011772000000000001
DataValue, 1.76, 0.012038000000000002
DataValue, 1.8, 0.012414000000000001
DataValue, 1.84, 0.012668
DataValue, 1.8800000000000001, 0.012976000000000001
DataValue, 1.9200000000000002, 0.013326000000000001
DataValue, 1.9600000000000002, 0.013572
DataValue, 2, 0.013854000000000002