
SetupTitle, I/V Sweep
PrimitiveTest, I/V Sweep
TestParameter, Context.MainFrame, B1500A
TestParameter, Channel.UnitType, SMU, SMU, SMU, SMU, SMU
TestParameter, Channel.Unit, SMU1:HP, SMU2:MP, SMU3:MP, SMU4:MP, SMU5:MP
TestParameter, Channel.IName, I, IDD1, IDD2, ISS, IPP
TestParameter, Channel.VName, V, VDD1, VDD2, VSS, VPP
TestParameter, Channel.Mode, V, V, V, V, V
TestParameter, Channel.Func, VAR1, CONST, CONST, CONST, CONST
TestParameter, Channel.Index, 
TestParameter, Channel.Time, 
TestParameter, Measurement.Port.Unit, SMU1:HP, SMU2:MP, SMU3:MP, SMU4:MP, SMU5:MP
TestParameter, Measurement.Port.SeriesResistor, NONE, NONE, NONE, NONE, NONE
TestParameter, Measurement.Port.Filter, ON, ON, ON, ON, ON
TestParameter, Measurement.Port.OutputVoltageComparison, 0, 0, 0, 0, 0
TestParameter, Measurement.Primary.Locus, Single
TestParameter, Measurement.Primary.Scale, LINEAR
TestParameter, Measurement.Primary.Start, -2
TestParameter, Measurement.Primary.Stop, 2
TestParameter, Measurement.Primary.Step, 0.04
TestParameter, Measurement.Primary.Compliance, 0.1
TestParameter, Measurement.Primary.PowerCompliance, 0
TestParameter, Measurement.Aborting.Condition, CONTINUE AT ANY
TestParameter, Measurement.PostOutput.Value, START
TestParameter, Measurement.PostOutput.Retention, OFF
TestParameter, Measurement.Bias.Source, -2, 1.8, 1.1, 0, 0
TestParameter, Measurement.Bias.Compliance, 0.1, 0.1, 0.1, 0.1, 0.1
TestParameter, Measurement.Monitor.Unit, SMU1:HP, SMU2:MP, SMU3:MP, SMU4:MP, SMU5:MP
TestParameter, Measurement.Monitor.Adc, HR ADC, HR ADC, HR ADC, HR ADC, HR ADC
TestParameter, Measurement.Monitor.Measurement, Compliance Side, Compliance Side, Compliance Side, Compliance Side, Compliance Side
TestParameter, Measurement.Monitor.RangingMode, LIMITED, LIMITED, LIMITED, LIMITED, LIMITED
TestParameter, Measurement.Monitor.RangeBoundary, 1nA, 1nA, 1nA, 1nA, 1nA
TestParameter, Measurement.Monitor.RangeRating, BY FULL RANGE, BY FULL RANGE, BY FULL RANGE, BY FULL RANGE, BY FULL RANGE
TestParameter, Measurement.Monitor.RangeRatingCoeff, 50, 50, 50, 50, 50
TestParameter, Measurement.Timing.Hold, 0
TestParameter, Measurement.Timing.Delay, 0
TestParameter, Measurement.Adc.HighSpeed.Mode, AUTO
TestParameter, Measurement.Adc.HighSpeed.Coeff, 1
TestParameter, Measurement.Adc.HighResolution.AutoZero, OFF
TestParameter, Measurement.Adc.HighResolution.Mode, AUTO
TestParameter, Measurement.Adc.HighResolution.Coeff, 6
TestParameter, Measurement.WaitTime.Source.Coeff, 1
TestParameter, Measurement.WaitTime.Source.Offset, 0
TestParameter, Measurement.WaitTime.Monitor.Coeff, 1
TestParameter, Measurement.WaitTime.Monitor.Offset, 0
TestParameter, Output.Graph.Enabled, true
TestParameter, Output.Graph.AutoScaling, false
TestParameter, Output.Graph.XAxis.Data, V
TestParameter, Output.Graph.XAxis.Scale, Linear
TestParameter, Output.Graph.XAxis.Left, -2
TestParameter, Output.Graph.XAxis.Right, 2
TestParameter, Output.Graph.XAxis.RunTimeAutoScale, true
TestParameter, Output.Graph.YAxis.Data, I
TestParameter, Output.Graph.YAxis.Scale, Linear
TestParameter, Output.Graph.YAxis.Bottom, -0.1
TestParameter, Output.Graph.YAxis.Top, 0.1
TestParameter, Output.Graph.YAxis.Group, 
TestParameter, Output.Graph.YAxis.RunTimeAutoScale, true
TestParameter, AutoAnalysis.Interpolation, false
TestParameter, AutoAnalysis.Var2StepCount, 1
TestParameter, AutoAnalysis.Var2StepScript, 
TestParameter, AutoAnalysis.Line1.Enabled, false
TestParameter, AutoAnalysis.Line1.Type, 1
TestParameter, AutoAnalysis.Line1.Fix, True
TestParameter, AutoAnalysis.Line1.YAxis, 0
TestParameter, AutoAnalysis.Line1.Point1.Type, 0
TestParameter, AutoAnalysis.Line1.Point1.XY.X, 
TestParameter, AutoAnalysis.Line1.Point1.XY.Y, 
TestParameter, AutoAnalysis.Line1.Point1.Data.Var, 
TestParameter, AutoAnalysis.Line1.Point1.Data.Condition, 
TestParameter, AutoAnalysis.Line1.Point1.Data.Start, false
TestParameter, AutoAnalysis.Line1.Point1.Data.StartVar, 
TestParameter, AutoAnalysis.Line1.Point1.Data.StartCondition, 
TestParameter, AutoAnalysis.Line1.Point2.Type, 0
TestParameter, AutoAnalysis.Line1.Point2.XY.X, 
TestParameter, AutoAnalysis.Line1.Point2.XY.Y, 
TestParameter, AutoAnalysis.Line1.Point2.Data.Var, 
TestParameter, AutoAnalysis.Line1.Point2.Data.Condition, 
TestParameter, AutoAnalysis.Line1.Point2.Data.Start, false
TestParameter, AutoAnalysis.Line1.Point2.Data.StartVar, 
TestParameter, AutoAnalysis.Line1.Point2.Data.StartCondition, 
TestParameter, AutoAnalysis.Line1.GradientExpr, 0
TestParameter, AutoAnalysis.Line2.Enabled, false
TestParameter, AutoAnalysis.Line2.Type, 1
TestParameter, AutoAnalysis.Line2.Fix, True
TestParameter, AutoAnalysis.Line2.YAxis, 0
TestParameter, AutoAnalysis.Line2.Point1.Type, 0
TestParameter, AutoAnalysis.Line2.Point1.XY.X, 
TestParameter, AutoAnalysis.Line2.Point1.XY.Y, 
TestParameter, AutoAnalysis.Line2.Point1.Data.Var, 
TestParameter, AutoAnalysis.Line2.Point1.Data.Condition, 
TestParameter, AutoAnalysis.Line2.Point1.Data.Start, false
TestParameter, AutoAnalysis.Line2.Point1.Data.StartVar, 
TestParameter, AutoAnalysis.Line2.Point1.Data.StartCondition, 
TestParameter, AutoAnalysis.Line2.Point2.Type, 0
TestParameter, AutoAnalysis.Line2.Point2.XY.X, 
TestParameter, AutoAnalysis.Line2.Point2.XY.Y, 
TestParameter, AutoAnalysis.Line2.Point2.Data.Var, 
TestParameter, AutoAnalysis.Line2.Point2.Data.Condition, 
TestParameter, AutoAnalysis.Line2.Point2.Data.Start, false
TestParameter, AutoAnalysis.Line2.Point2.Data.StartVar, 
TestParameter, AutoAnalysis.Line2.Point2.Data.StartCondition, 
TestParameter, AutoAnalysis.Line2.GradientExpr, 0
TestParameter, AutoAnalysis.Marker.Enabled, false
TestParameter, AutoAnalysis.Marker.Data.Var, 
TestParameter, AutoAnalysis.Marker.Data.Condition, 
TestParameter, AutoAnalysis.Marker.Data.Start, false
TestParameter, AutoAnalysis.Marker.Data.StartVar, 
TestParameter, AutoAnalysis.Marker.Data.StartCondition, 
MetaData, TestRecord.EntryPoint, true
MetaData, TestRecord.RecordTime, 10/19/2022 13:39:47
MetaData, TestRecord.TestTarget, 
MetaData, TestRecord.IterationIndex, 326
MetaData, TestRecord.Preservation, true
MetaData, TestRecord.Flag, 
MetaData, TestRecord.Remarks, 
MetaData, TestRecord.LinkKey, 4ca5fbaa-ada3-46f8-9487-8d2a5c281d15
MetaData, TestRecord.Parameters, 
Dimension1, 101, 101
Dimension2, 1, 1
DataName, V, I
DataValue, -2, -0.017092000000000003
DataValue, -1.9600000000000002, -0.016616000000000002
DataValue, -1.9200000000000002, -0.016130000000000002
DataValue, -1.8800000000000001, -0.015644
DataValue, -1.84, -0.015178
DataValue, -1.8, -0.014696
DataValue, -1.76, -0.014214000000000001
DataValue, -1.72, -0.013754
DataValue, -1.6800000000000002, -0.013280000000000002
DataValue, -1.6400000000000001, -0.012808000000000002
DataValue, -1.6, -0.012332000000000001
DataValue, -1.56, -0.011856
DataValue, -1.52, -0.011374
DataValue, -1.48, -0.010888
DataValue, -1.4400000000000002, -0.010376000000000002
DataValue, -1.4000000000000001, -0.0099034
DataValue, -1.36, -0.0094282
DataValue, -1.32, -0.0089526
DataValue, -1.28, -0.0084734
DataValue, -1.24, -0.0079988
DataValue, -1.2, -0.0074972
DataValue, -1.1600000000000001, -0.0070264
DataValue, -1.12, -0.0065628
DataValue, -1.08, -0.0061052
DataValue, -1.04, -0.0056406
DataValue, -1, -0.0051892
DataValue, -0.96000000000000008, -0.0047524
DataValue, -0.92, -0.004319
DataValue, -0.88, -0.003901
DataValue, -0.84000000000000008, -0.003491
DataValue, -0.8, -0.003097
DataValue, -0.76, -0.0027292
DataValue, -0.72000000000000008, -0.002386
DataValue, -0.68, -0.0020704
DataValue, -0.64, -0.001792
DataValue, -0.6, -0.0015402
DataValue, -0.56, -0.0013004
DataValue, -0.52, -0.0010886000000000001
DataValue, -0.48000000000000004, -0.00089002
DataValue, -0.44, -0.00070502
DataValue, -0.4, -0.00053532
DataValue, -0.36000000000000004, -0.00038664
DataValue, -0.32, -0.0002634
DataValue, -0.28, -0.00016862000000000002
DataValue, -0.24000000000000002, -0.0001032
DataValue, -0.2, -6.2772E-05
DataValue, -0.16, -3.7542E-05
DataValue, -0.12000000000000001, -2.1774000000000002E-05
DataValue, -0.08, -1.1354E-05
DataValue, -0.04, -4.5037000000000006E-06
DataValue, 0, 2.989E-07
DataValue, 0.04, 3.9912E-06
DataValue, 0.08, 7.5422E-06
DataValue, 0.12000000000000001, 1.0721000000000001E-05
DataValue, 0.16, 1.2448E-05
DataValue, 0.2, 1.4178E-05
DataValue, 0.24000000000000002, 1.5802000000000002E-05
DataValue, 0.28, 2.9572E-05
DataValue, 0.32, 5.0218E-05
DataValue, 0.36000000000000004, 8.529E-05
DataValue, 0.4, 0.00013564
DataValue, 0.44, 0.00020134000000000002
DataValue, 0.48000000000000004, 0.00028024
DataValue, 0.52, 0.00037174
DataValue, 0.56, 0.00047438000000000005
DataValue, 0.6, 0.00059046
DataValue, 0.64, 0.00072018000000000006
DataValue, 0.68, 0.00086392
DataValue, 0.72000000000000008, 0.0010177200000000002
DataValue, 0.76, 0.0011754
DataValue, 0.8, 0.0013642
DataValue, 0.84000000000000008, 0.0015634
DataValue, 0.88, 0.0017652
DataValue, 0.92, 0.0019814
DataValue, 0.96000000000000008, 0.0022234
DataValue, 1, 0.002484
DataValue, 1.04, 0.0027494
DataValue, 1.08, 0.003012
DataValue, 1.12, 0.0032964
DataValue, 1.1600000000000001, 0.003589
DataValue, 1.2, 0.003896
DataValue, 1.24, 0.0042034
DataValue, 1.28, 0.0045292
DataValue, 1.32, 0.0048614
DataValue, 1.36, 0.005203
DataValue, 1.4000000000000001, 0.005543
DataValue, 1.4400000000000002, 0.0058956
DataValue, 1.48, 0.0062578
DataValue, 1.52, 0.0066172
DataValue, 1.56, 0.0069960000000000005
DataValue, 1.6, 0.0073684
DataValue, 1.6400000000000001, 0.0077112000000000005
DataValue, 1.6800000000000002, 0.008082
DataValue, 1.72, 0.0084492
DataValue, 1.76, 0.008817
DataValue, 1.8, 0.009203
DataValue, 1.84, 0.0096164
DataValue, 1.8800000000000001, 0.0099882000000000009
DataValue, 1.9200000000000002, 0.0103564
DataValue, 1.9600000000000002, 0.01073
DataValue, 2, 0.011129400000000001