
SetupTitle, I/V Sweep
PrimitiveTest, I/V Sweep
TestParameter, Context.MainFrame, B1500A
TestParameter, Channel.UnitType, SMU, SMU, SMU, SMU
TestParameter, Channel.Unit, SMU1:HP, SMU2:MP, SMU3:MP, SMU4:MP
TestParameter, Channel.IName, I, IDD1, IDD2, II
TestParameter, Channel.VName, V, VDD1, VDD2, VV
TestParameter, Channel.Mode, V, V, V, V
TestParameter, Channel.Func, VAR1, CONST, CONST, CONST
TestParameter, Channel.Index, 
TestParameter, Channel.Time, 
TestParameter, Measurement.Port.Unit, SMU1:HP, SMU2:MP, SMU3:MP, SMU4:MP
TestParameter, Measurement.Port.SeriesResistor, NONE, NONE, NONE, NONE
TestParameter, Measurement.Port.Filter, ON, ON, ON, ON
TestParameter, Measurement.Port.OutputVoltageComparison, 0, 0, 0, 0
TestParameter, Measurement.Primary.Locus, Single
TestParameter, Measurement.Primary.Scale, LINEAR
TestParameter, Measurement.Primary.Start, -2
TestParameter, Measurement.Primary.Stop, 2
TestParameter, Measurement.Primary.Step, 0.04
TestParameter, Measurement.Primary.Compliance, 0.1
TestParameter, Measurement.Primary.PowerCompliance, 0
TestParameter, Measurement.Aborting.Condition, CONTINUE AT ANY
TestParameter, Measurement.PostOutput.Value, START
TestParameter, Measurement.PostOutput.Retention, OFF
TestParameter, Measurement.Bias.Source, -2, 1.8, 1.1, 0
TestParameter, Measurement.Bias.Compliance, 0.1, 0.1, 0.1, 0.1
TestParameter, Measurement.Monitor.Unit, SMU1:HP, SMU2:MP, SMU3:MP, SMU4:MP
TestParameter, Measurement.Monitor.Adc, HR ADC, HR ADC, HR ADC, HR ADC
TestParameter, Measurement.Monitor.Measurement, Compliance Side, Compliance Side, Compliance Side, Compliance Side
TestParameter, Measurement.Monitor.RangingMode, LIMITED, LIMITED, LIMITED, LIMITED
TestParameter, Measurement.Monitor.RangeBoundary, 1nA, 1nA, 1nA, 1nA
TestParameter, Measurement.Monitor.RangeRating, BY FULL RANGE, BY FULL RANGE, BY FULL RANGE, BY FULL RANGE
TestParameter, Measurement.Monitor.RangeRatingCoeff, 50, 50, 50, 50
TestParameter, Measurement.Timing.Hold, 0
TestParameter, Measurement.Timing.Delay, 0
TestParameter, Measurement.Adc.HighSpeed.Mode, AUTO
TestParameter, Measurement.Adc.HighSpeed.Coeff, 1
TestParameter, Measurement.Adc.HighResolution.AutoZero, OFF
TestParameter, Measurement.Adc.HighResolution.Mode, AUTO
TestParameter, Measurement.Adc.HighResolution.Coeff, 6
TestParameter, Measurement.WaitTime.Source.Coeff, 1
TestParameter, Measurement.WaitTime.Source.Offset, 0
TestParameter, Measurement.WaitTime.Monitor.Coeff, 1
TestParameter, Measurement.WaitTime.Monitor.Offset, 0
TestParameter, Output.Graph.Enabled, true
TestParameter, Output.Graph.AutoScaling, false
TestParameter, Output.Graph.XAxis.Data, V
TestParameter, Output.Graph.XAxis.Scale, Linear
TestParameter, Output.Graph.XAxis.Left, -2
TestParameter, Output.Graph.XAxis.Right, 2
TestParameter, Output.Graph.XAxis.RunTimeAutoScale, true
TestParameter, Output.Graph.YAxis.Data, I
TestParameter, Output.Graph.YAxis.Scale, Linear
TestParameter, Output.Graph.YAxis.Bottom, -0.1
TestParameter, Output.Graph.YAxis.Top, 0.1
TestParameter, Output.Graph.YAxis.Group, 
TestParameter, Output.Graph.YAxis.RunTimeAutoScale, true
TestParameter, AutoAnalysis.Interpolation, false
TestParameter, AutoAnalysis.Var2StepCount, 1
TestParameter, AutoAnalysis.Var2StepScript, 
TestParameter, AutoAnalysis.Line1.Enabled, false
TestParameter, AutoAnalysis.Line1.Type, 1
TestParameter, AutoAnalysis.Line1.Fix, True
TestParameter, AutoAnalysis.Line1.YAxis, 0
TestParameter, AutoAnalysis.Line1.Point1.Type, 0
TestParameter, AutoAnalysis.Line1.Point1.XY.X, 
TestParameter, AutoAnalysis.Line1.Point1.XY.Y, 
TestParameter, AutoAnalysis.Line1.Point1.Data.Var, 
TestParameter, AutoAnalysis.Line1.Point1.Data.Condition, 
TestParameter, AutoAnalysis.Line1.Point1.Data.Start, false
TestParameter, AutoAnalysis.Line1.Point1.Data.StartVar, 
TestParameter, AutoAnalysis.Line1.Point1.Data.StartCondition, 
TestParameter, AutoAnalysis.Line1.Point2.Type, 0
TestParameter, AutoAnalysis.Line1.Point2.XY.X, 
TestParameter, AutoAnalysis.Line1.Point2.XY.Y, 
TestParameter, AutoAnalysis.Line1.Point2.Data.Var, 
TestParameter, AutoAnalysis.Line1.Point2.Data.Condition, 
TestParameter, AutoAnalysis.Line1.Point2.Data.Start, false
TestParameter, AutoAnalysis.Line1.Point2.Data.StartVar, 
TestParameter, AutoAnalysis.Line1.Point2.Data.StartCondition, 
TestParameter, AutoAnalysis.Line1.GradientExpr, 0
TestParameter, AutoAnalysis.Line2.Enabled, false
TestParameter, AutoAnalysis.Line2.Type, 1
TestParameter, AutoAnalysis.Line2.Fix, True
TestParameter, AutoAnalysis.Line2.YAxis, 0
TestParameter, AutoAnalysis.Line2.Point1.Type, 0
TestParameter, AutoAnalysis.Line2.Point1.XY.X, 
TestParameter, AutoAnalysis.Line2.Point1.XY.Y, 
TestParameter, AutoAnalysis.Line2.Point1.Data.Var, 
TestParameter, AutoAnalysis.Line2.Point1.Data.Condition, 
TestParameter, AutoAnalysis.Line2.Point1.Data.Start, false
TestParameter, AutoAnalysis.Line2.Point1.Data.StartVar, 
TestParameter, AutoAnalysis.Line2.Point1.Data.StartCondition, 
TestParameter, AutoAnalysis.Line2.Point2.Type, 0
TestParameter, AutoAnalysis.Line2.Point2.XY.X, 
TestParameter, AutoAnalysis.Line2.Point2.XY.Y, 
TestParameter, AutoAnalysis.Line2.Point2.Data.Var, 
TestParameter, AutoAnalysis.Line2.Point2.Data.Condition, 
TestParameter, AutoAnalysis.Line2.Point2.Data.Start, false
TestParameter, AutoAnalysis.Line2.Point2.Data.StartVar, 
TestParameter, AutoAnalysis.Line2.Point2.Data.StartCondition, 
TestParameter, AutoAnalysis.Line2.GradientExpr, 0
TestParameter, AutoAnalysis.Marker.Enabled, false
TestParameter, AutoAnalysis.Marker.Data.Var, 
TestParameter, AutoAnalysis.Marker.Data.Condition, 
TestParameter, AutoAnalysis.Marker.Data.Start, false
TestParameter, AutoAnalysis.Marker.Data.StartVar, 
TestParameter, AutoAnalysis.Marker.Data.StartCondition, 
MetaData, TestRecord.EntryPoint, true
MetaData, TestRecord.RecordTime, 10/19/2022 16:19:56
MetaData, TestRecord.TestTarget, 
MetaData, TestRecord.IterationIndex, 171
MetaData, TestRecord.Preservation, true
MetaData, TestRecord.Flag, 
MetaData, TestRecord.Remarks, 
MetaData, TestRecord.LinkKey, 1f303637-54f4-4fa9-8bb4-5623785e03da
MetaData, TestRecord.Parameters, 
Dimension1, 101, 101
Dimension2, 1, 1
DataName, V, I
DataValue, -2, -0.018484
DataValue, -1.9600000000000002, -0.017818
DataValue, -1.9200000000000002, -0.017178000000000002
DataValue, -1.8800000000000001, -0.016536000000000002
DataValue, -1.84, -0.0159
DataValue, -1.8, -0.015264000000000002
DataValue, -1.76, -0.014626000000000002
DataValue, -1.72, -0.01399
DataValue, -1.6800000000000002, -0.013356000000000002
DataValue, -1.6400000000000001, -0.01272
DataValue, -1.6, -0.012086000000000001
DataValue, -1.56, -0.011454
DataValue, -1.52, -0.010822000000000002
DataValue, -1.48, -0.010190000000000001
DataValue, -1.4400000000000002, -0.0095714
DataValue, -1.4000000000000001, -0.0089428
DataValue, -1.36, -0.0083186
DataValue, -1.32, -0.0076944000000000005
DataValue, -1.28, -0.0070734000000000005
DataValue, -1.24, -0.0064554
DataValue, -1.2, -0.0058404
DataValue, -1.1600000000000001, -0.0052296
DataValue, -1.12, -0.0046268
DataValue, -1.08, -0.0040328000000000004
DataValue, -1.04, -0.0034532
DataValue, -1, -0.0028914
DataValue, -0.96000000000000008, -0.0023534
DataValue, -0.92, -0.0018526
DataValue, -0.88, -0.0014108
DataValue, -0.84000000000000008, -0.0010474
DataValue, -0.8, -0.00080768000000000007
DataValue, -0.76, -0.0006283
DataValue, -0.72000000000000008, -0.0005203
DataValue, -0.68, -0.00044202000000000005
DataValue, -0.64, -0.00037436
DataValue, -0.6, -0.0003166
DataValue, -0.56, -0.00026676
DataValue, -0.52, -0.00021882000000000002
DataValue, -0.48000000000000004, -0.00018694000000000002
DataValue, -0.44, -0.00014628000000000002
DataValue, -0.4, -0.00011482
DataValue, -0.36000000000000004, -0.0001104
DataValue, -0.32, -7.7384E-05
DataValue, -0.28, -5.7532000000000004E-05
DataValue, -0.24000000000000002, -4.032E-05
DataValue, -0.2, -2.688E-05
DataValue, -0.16, -1.6898E-05
DataValue, -0.12000000000000001, -1.9358E-05
DataValue, -0.08, -8.9595000000000012E-06
DataValue, -0.04, -3.1225E-06
DataValue, 0, 3.8934000000000007E-06
DataValue, 0.04, 7.2275000000000007E-06
DataValue, 0.08, 7.5265000000000007E-06
DataValue, 0.12000000000000001, 8.3695E-06
DataValue, 0.16, 9.3661000000000017E-06
DataValue, 0.2, 1.0742E-05
DataValue, 0.24000000000000002, 1.3072000000000001E-05
DataValue, 0.28, 1.5674E-05
DataValue, 0.32, 2.0448E-05
DataValue, 0.36000000000000004, 2.93E-05
DataValue, 0.4, 4.2196E-05
DataValue, 0.44, 5.5934000000000004E-05
DataValue, 0.48000000000000004, 6.995E-05
DataValue, 0.52, 8.4614E-05
DataValue, 0.56, 0.00010784
DataValue, 0.6, 0.00013284
DataValue, 0.64, 0.00016324000000000002
DataValue, 0.68, 0.00019602
DataValue, 0.72000000000000008, 0.00023454000000000001
DataValue, 0.76, 0.00027818
DataValue, 0.8, 0.00032768
DataValue, 0.84000000000000008, 0.00038286
DataValue, 0.88, 0.00043180000000000003
DataValue, 0.92, 0.00042524
DataValue, 0.96000000000000008, 0.00046266000000000005
DataValue, 1, 0.00055258
DataValue, 1.04, 0.00060354000000000007
DataValue, 1.08, 0.00065854
DataValue, 1.12, 0.0007201
DataValue, 1.1600000000000001, 0.00078672000000000008
DataValue, 1.2, 0.00087668
DataValue, 1.24, 0.00096556000000000007
DataValue, 1.28, 0.0010657400000000001
DataValue, 1.32, 0.001237
DataValue, 1.36, 0.0013668
DataValue, 1.4000000000000001, 0.00161
DataValue, 1.4400000000000002, 0.0023676
DataValue, 1.48, 0.0025134000000000003
DataValue, 1.52, 0.0026484
DataValue, 1.56, 0.0027934
DataValue, 1.6, 0.0029426
DataValue, 1.6400000000000001, 0.0031246
DataValue, 1.6800000000000002, 0.0032686
DataValue, 1.72, 0.0034198
DataValue, 1.76, 0.0035736
DataValue, 1.8, 0.003731
DataValue, 1.84, 0.0039342
DataValue, 1.8800000000000001, 0.0041832
DataValue, 1.9200000000000002, 0.0044132
DataValue, 1.9600000000000002, 0.0046238
DataValue, 2, 0.0048342