
SetupTitle, I/V Sweep
PrimitiveTest, I/V Sweep
TestParameter, Context.MainFrame, B1500A
TestParameter, Channel.UnitType, SMU, SMU, SMU, SMU
TestParameter, Channel.Unit, SMU1:HP, SMU2:MP, SMU3:MP, SMU4:MP
TestParameter, Channel.IName, I, IDD1, IDD2, II
TestParameter, Channel.VName, V, VDD1, VDD2, VV
TestParameter, Channel.Mode, V, V, V, V
TestParameter, Channel.Func, VAR1, CONST, CONST, CONST
TestParameter, Channel.Index, 
TestParameter, Channel.Time, 
TestParameter, Measurement.Port.Unit, SMU1:HP, SMU2:MP, SMU3:MP, SMU4:MP
TestParameter, Measurement.Port.SeriesResistor, NONE, NONE, NONE, NONE
TestParameter, Measurement.Port.Filter, ON, ON, ON, ON
TestParameter, Measurement.Port.OutputVoltageComparison, 0, 0, 0, 0
TestParameter, Measurement.Primary.Locus, Single
TestParameter, Measurement.Primary.Scale, LINEAR
TestParameter, Measurement.Primary.Start, -2
TestParameter, Measurement.Primary.Stop, 2
TestParameter, Measurement.Primary.Step, 0.04
TestParameter, Measurement.Primary.Compliance, 0.1
TestParameter, Measurement.Primary.PowerCompliance, 0
TestParameter, Measurement.Aborting.Condition, CONTINUE AT ANY
TestParameter, Measurement.PostOutput.Value, START
TestParameter, Measurement.PostOutput.Retention, OFF
TestParameter, Measurement.Bias.Source, -2, 1.8, 1.1, 0
TestParameter, Measurement.Bias.Compliance, 0.1, 0.1, 0.1, 0.1
TestParameter, Measurement.Monitor.Unit, SMU1:HP, SMU2:MP, SMU3:MP, SMU4:MP
TestParameter, Measurement.Monitor.Adc, HR ADC, HR ADC, HR ADC, HR ADC
TestParameter, Measurement.Monitor.Measurement, Compliance Side, Compliance Side, Compliance Side, Compliance Side
TestParameter, Measurement.Monitor.RangingMode, LIMITED, LIMITED, LIMITED, LIMITED
TestParameter, Measurement.Monitor.RangeBoundary, 1nA, 1nA, 1nA, 1nA
TestParameter, Measurement.Monitor.RangeRating, BY FULL RANGE, BY FULL RANGE, BY FULL RANGE, BY FULL RANGE
TestParameter, Measurement.Monitor.RangeRatingCoeff, 50, 50, 50, 50
TestParameter, Measurement.Timing.Hold, 0
TestParameter, Measurement.Timing.Delay, 0
TestParameter, Measurement.Adc.HighSpeed.Mode, AUTO
TestParameter, Measurement.Adc.HighSpeed.Coeff, 1
TestParameter, Measurement.Adc.HighResolution.AutoZero, OFF
TestParameter, Measurement.Adc.HighResolution.Mode, AUTO
TestParameter, Measurement.Adc.HighResolution.Coeff, 6
TestParameter, Measurement.WaitTime.Source.Coeff, 1
TestParameter, Measurement.WaitTime.Source.Offset, 0
TestParameter, Measurement.WaitTime.Monitor.Coeff, 1
TestParameter, Measurement.WaitTime.Monitor.Offset, 0
TestParameter, Output.Graph.Enabled, true
TestParameter, Output.Graph.AutoScaling, false
TestParameter, Output.Graph.XAxis.Data, V
TestParameter, Output.Graph.XAxis.Scale, Linear
TestParameter, Output.Graph.XAxis.Left, -2
TestParameter, Output.Graph.XAxis.Right, 2
TestParameter, Output.Graph.XAxis.RunTimeAutoScale, true
TestParameter, Output.Graph.YAxis.Data, I
TestParameter, Output.Graph.YAxis.Scale, Linear
TestParameter, Output.Graph.YAxis.Bottom, -0.1
TestParameter, Output.Graph.YAxis.Top, 0.1
TestParameter, Output.Graph.YAxis.Group, 
TestParameter, Output.Graph.YAxis.RunTimeAutoScale, true
TestParameter, AutoAnalysis.Interpolation, false
TestParameter, AutoAnalysis.Var2StepCount, 1
TestParameter, AutoAnalysis.Var2StepScript, 
TestParameter, AutoAnalysis.Line1.Enabled, false
TestParameter, AutoAnalysis.Line1.Type, 1
TestParameter, AutoAnalysis.Line1.Fix, True
TestParameter, AutoAnalysis.Line1.YAxis, 0
TestParameter, AutoAnalysis.Line1.Point1.Type, 0
TestParameter, AutoAnalysis.Line1.Point1.XY.X, 
TestParameter, AutoAnalysis.Line1.Point1.XY.Y, 
TestParameter, AutoAnalysis.Line1.Point1.Data.Var, 
TestParameter, AutoAnalysis.Line1.Point1.Data.Condition, 
TestParameter, AutoAnalysis.Line1.Point1.Data.Start, false
TestParameter, AutoAnalysis.Line1.Point1.Data.StartVar, 
TestParameter, AutoAnalysis.Line1.Point1.Data.StartCondition, 
TestParameter, AutoAnalysis.Line1.Point2.Type, 0
TestParameter, AutoAnalysis.Line1.Point2.XY.X, 
TestParameter, AutoAnalysis.Line1.Point2.XY.Y, 
TestParameter, AutoAnalysis.Line1.Point2.Data.Var, 
TestParameter, AutoAnalysis.Line1.Point2.Data.Condition, 
TestParameter, AutoAnalysis.Line1.Point2.Data.Start, false
TestParameter, AutoAnalysis.Line1.Point2.Data.StartVar, 
TestParameter, AutoAnalysis.Line1.Point2.Data.StartCondition, 
TestParameter, AutoAnalysis.Line1.GradientExpr, 0
TestParameter, AutoAnalysis.Line2.Enabled, false
TestParameter, AutoAnalysis.Line2.Type, 1
TestParameter, AutoAnalysis.Line2.Fix, True
TestParameter, AutoAnalysis.Line2.YAxis, 0
TestParameter, AutoAnalysis.Line2.Point1.Type, 0
TestParameter, AutoAnalysis.Line2.Point1.XY.X, 
TestParameter, AutoAnalysis.Line2.Point1.XY.Y, 
TestParameter, AutoAnalysis.Line2.Point1.Data.Var, 
TestParameter, AutoAnalysis.Line2.Point1.Data.Condition, 
TestParameter, AutoAnalysis.Line2.Point1.Data.Start, false
TestParameter, AutoAnalysis.Line2.Point1.Data.StartVar, 
TestParameter, AutoAnalysis.Line2.Point1.Data.StartCondition, 
TestParameter, AutoAnalysis.Line2.Point2.Type, 0
TestParameter, AutoAnalysis.Line2.Point2.XY.X, 
TestParameter, AutoAnalysis.Line2.Point2.XY.Y, 
TestParameter, AutoAnalysis.Line2.Point2.Data.Var, 
TestParameter, AutoAnalysis.Line2.Point2.Data.Condition, 
TestParameter, AutoAnalysis.Line2.Point2.Data.Start, false
TestParameter, AutoAnalysis.Line2.Point2.Data.StartVar, 
TestParameter, AutoAnalysis.Line2.Point2.Data.StartCondition, 
TestParameter, AutoAnalysis.Line2.GradientExpr, 0
TestParameter, AutoAnalysis.Marker.Enabled, false
TestParameter, AutoAnalysis.Marker.Data.Var, 
TestParameter, AutoAnalysis.Marker.Data.Condition, 
TestParameter, AutoAnalysis.Marker.Data.Start, false
TestParameter, AutoAnalysis.Marker.Data.StartVar, 
TestParameter, AutoAnalysis.Marker.Data.StartCondition, 
MetaData, TestRecord.EntryPoint, true
MetaData, TestRecord.RecordTime, 10/19/2022 16:17:53
MetaData, TestRecord.TestTarget, 
MetaData, TestRecord.IterationIndex, 166
MetaData, TestRecord.Preservation, true
MetaData, TestRecord.Flag, 
MetaData, TestRecord.Remarks, 
MetaData, TestRecord.LinkKey, a0b6c99c-1dbf-4a6c-a8a5-a3503106b7ab
MetaData, TestRecord.Parameters, 
Dimension1, 101, 101
Dimension2, 1, 1
DataName, V, I
DataValue, -2, -0.1
DataValue, -1.9600000000000002, -0.10000200000000001
DataValue, -1.9200000000000002, -0.10000200000000001
DataValue, -1.8800000000000001, -0.10000200000000001
DataValue, -1.84, -0.1
DataValue, -1.8, -0.10000200000000001
DataValue, -1.76, -0.098380000000000009
DataValue, -1.72, -0.095176000000000011
DataValue, -1.6800000000000002, -0.09195
DataValue, -1.6400000000000001, -0.08826
DataValue, -1.6, -0.08499000000000001
DataValue, -1.56, -0.08204
DataValue, -1.52, -0.078806
DataValue, -1.48, -0.075552000000000008
DataValue, -1.4400000000000002, -0.072326
DataValue, -1.4000000000000001, -0.06906000000000001
DataValue, -1.36, -0.06582
DataValue, -1.32, -0.062564000000000008
DataValue, -1.28, -0.059336000000000007
DataValue, -1.24, -0.055956000000000006
DataValue, -1.2, -0.052600000000000008
DataValue, -1.1600000000000001, -0.04934
DataValue, -1.12, -0.046130000000000004
DataValue, -1.08, -0.042914
DataValue, -1.04, -0.039762000000000006
DataValue, -1, -0.036608
DataValue, -0.96000000000000008, -0.032988
DataValue, -0.92, -0.029318000000000004
DataValue, -0.88, -0.026336000000000002
DataValue, -0.84000000000000008, -0.023402000000000003
DataValue, -0.8, -0.020448
DataValue, -0.76, -0.017628
DataValue, -0.72000000000000008, -0.01488
DataValue, -0.68, -0.012248
DataValue, -0.64, -0.0097634
DataValue, -0.6, -0.007482
DataValue, -0.56, -0.0051378000000000005
DataValue, -0.52, -0.0034696
DataValue, -0.48000000000000004, -0.002176
DataValue, -0.44, -0.0013012
DataValue, -0.4, -0.00078058
DataValue, -0.36000000000000004, -0.00048628
DataValue, -0.32, -0.0003011
DataValue, -0.28, -0.00017336
DataValue, -0.24000000000000002, -8.4054E-05
DataValue, -0.2, -3.378E-05
DataValue, -0.16, -1.3212E-05
DataValue, -0.12000000000000001, -6.78E-06
DataValue, -0.08, -5.1248000000000005E-06
DataValue, -0.04, -4.6305000000000008E-06
DataValue, 0, -4.4122000000000007E-06
DataValue, 0.04, -4.3185E-06
DataValue, 0.08, -4.2277E-06
DataValue, 0.12000000000000001, -4.0959E-06
DataValue, 0.16, -3.9726000000000007E-06
DataValue, 0.2, -3.8583E-06
DataValue, 0.24000000000000002, -3.7346E-06
DataValue, 0.28, -3.5246000000000005E-06
DataValue, 0.32, -3.4667E-06
DataValue, 0.36000000000000004, -3.3064000000000002E-06
DataValue, 0.4, -3.0185000000000004E-06
DataValue, 0.44, -2.4315000000000004E-06
DataValue, 0.48000000000000004, -1.4772E-07
DataValue, 0.52, 7.788E-06
DataValue, 0.56, 3.2966E-05
DataValue, 0.6, 9.3092000000000009E-05
DataValue, 0.64, 0.00018106
DataValue, 0.68, 0.00027042
DataValue, 0.72000000000000008, 0.00035164
DataValue, 0.76, 0.00042966
DataValue, 0.8, 0.00051506
DataValue, 0.84000000000000008, 0.0006284
DataValue, 0.88, 0.00082218
DataValue, 0.92, 0.0012032
DataValue, 0.96000000000000008, 0.00182
DataValue, 1, 0.002685
DataValue, 1.04, 0.0037394
DataValue, 1.08, 0.004923
DataValue, 1.12, 0.0062396000000000005
DataValue, 1.1600000000000001, 0.0076216
DataValue, 1.2, 0.0091098
DataValue, 1.24, 0.0105576
DataValue, 1.28, 0.012912000000000002
DataValue, 1.32, 0.014490000000000001
DataValue, 1.36, 0.016120000000000002
DataValue, 1.4000000000000001, 0.01788
DataValue, 1.4400000000000002, 0.019454000000000003
DataValue, 1.48, 0.021162
DataValue, 1.52, 0.022944000000000003
DataValue, 1.56, 0.024684
DataValue, 1.6, 0.026406000000000002
DataValue, 1.6400000000000001, 0.028168000000000002
DataValue, 1.6800000000000002, 0.030160000000000003
DataValue, 1.72, 0.031916
DataValue, 1.76, 0.033716
DataValue, 1.8, 0.03554
DataValue, 1.84, 0.037694000000000005
DataValue, 1.8800000000000001, 0.039546000000000005
DataValue, 1.9200000000000002, 0.041372000000000006
DataValue, 1.9600000000000002, 0.043252000000000006
DataValue, 2, 0.045108