
SetupTitle, I/V Sweep
PrimitiveTest, I/V Sweep
TestParameter, Context.MainFrame, B1500A
TestParameter, Channel.UnitType, SMU, SMU, SMU, SMU
TestParameter, Channel.Unit, SMU1:HP, SMU2:MP, SMU3:MP, SMU4:MP
TestParameter, Channel.IName, I, IDD1, IDD2, II
TestParameter, Channel.VName, V, VDD1, VDD2, VV
TestParameter, Channel.Mode, V, V, V, V
TestParameter, Channel.Func, VAR1, CONST, CONST, CONST
TestParameter, Channel.Index, 
TestParameter, Channel.Time, 
TestParameter, Measurement.Port.Unit, SMU1:HP, SMU2:MP, SMU3:MP, SMU4:MP
TestParameter, Measurement.Port.SeriesResistor, NONE, NONE, NONE, NONE
TestParameter, Measurement.Port.Filter, ON, ON, ON, ON
TestParameter, Measurement.Port.OutputVoltageComparison, 0, 0, 0, 0
TestParameter, Measurement.Primary.Locus, Single
TestParameter, Measurement.Primary.Scale, LINEAR
TestParameter, Measurement.Primary.Start, -2
TestParameter, Measurement.Primary.Stop, 2
TestParameter, Measurement.Primary.Step, 0.04
TestParameter, Measurement.Primary.Compliance, 0.1
TestParameter, Measurement.Primary.PowerCompliance, 0
TestParameter, Measurement.Aborting.Condition, CONTINUE AT ANY
TestParameter, Measurement.PostOutput.Value, START
TestParameter, Measurement.PostOutput.Retention, OFF
TestParameter, Measurement.Bias.Source, -2, 1.8, 1.1, 0
TestParameter, Measurement.Bias.Compliance, 0.1, 0.1, 0.1, 0.1
TestParameter, Measurement.Monitor.Unit, SMU1:HP, SMU2:MP, SMU3:MP, SMU4:MP
TestParameter, Measurement.Monitor.Adc, HR ADC, HR ADC, HR ADC, HR ADC
TestParameter, Measurement.Monitor.Measurement, Compliance Side, Compliance Side, Compliance Side, Compliance Side
TestParameter, Measurement.Monitor.RangingMode, LIMITED, LIMITED, LIMITED, LIMITED
TestParameter, Measurement.Monitor.RangeBoundary, 1nA, 1nA, 1nA, 1nA
TestParameter, Measurement.Monitor.RangeRating, BY FULL RANGE, BY FULL RANGE, BY FULL RANGE, BY FULL RANGE
TestParameter, Measurement.Monitor.RangeRatingCoeff, 50, 50, 50, 50
TestParameter, Measurement.Timing.Hold, 0
TestParameter, Measurement.Timing.Delay, 0
TestParameter, Measurement.Adc.HighSpeed.Mode, AUTO
TestParameter, Measurement.Adc.HighSpeed.Coeff, 1
TestParameter, Measurement.Adc.HighResolution.AutoZero, OFF
TestParameter, Measurement.Adc.HighResolution.Mode, AUTO
TestParameter, Measurement.Adc.HighResolution.Coeff, 6
TestParameter, Measurement.WaitTime.Source.Coeff, 1
TestParameter, Measurement.WaitTime.Source.Offset, 0
TestParameter, Measurement.WaitTime.Monitor.Coeff, 1
TestParameter, Measurement.WaitTime.Monitor.Offset, 0
TestParameter, Output.Graph.Enabled, true
TestParameter, Output.Graph.AutoScaling, false
TestParameter, Output.Graph.XAxis.Data, V
TestParameter, Output.Graph.XAxis.Scale, Linear
TestParameter, Output.Graph.XAxis.Left, -2
TestParameter, Output.Graph.XAxis.Right, 2
TestParameter, Output.Graph.XAxis.RunTimeAutoScale, true
TestParameter, Output.Graph.YAxis.Data, I
TestParameter, Output.Graph.YAxis.Scale, Linear
TestParameter, Output.Graph.YAxis.Bottom, -0.1
TestParameter, Output.Graph.YAxis.Top, 0.1
TestParameter, Output.Graph.YAxis.Group, 
TestParameter, Output.Graph.YAxis.RunTimeAutoScale, true
TestParameter, AutoAnalysis.Interpolation, false
TestParameter, AutoAnalysis.Var2StepCount, 1
TestParameter, AutoAnalysis.Var2StepScript, 
TestParameter, AutoAnalysis.Line1.Enabled, false
TestParameter, AutoAnalysis.Line1.Type, 1
TestParameter, AutoAnalysis.Line1.Fix, True
TestParameter, AutoAnalysis.Line1.YAxis, 0
TestParameter, AutoAnalysis.Line1.Point1.Type, 0
TestParameter, AutoAnalysis.Line1.Point1.XY.X, 
TestParameter, AutoAnalysis.Line1.Point1.XY.Y, 
TestParameter, AutoAnalysis.Line1.Point1.Data.Var, 
TestParameter, AutoAnalysis.Line1.Point1.Data.Condition, 
TestParameter, AutoAnalysis.Line1.Point1.Data.Start, false
TestParameter, AutoAnalysis.Line1.Point1.Data.StartVar, 
TestParameter, AutoAnalysis.Line1.Point1.Data.StartCondition, 
TestParameter, AutoAnalysis.Line1.Point2.Type, 0
TestParameter, AutoAnalysis.Line1.Point2.XY.X, 
TestParameter, AutoAnalysis.Line1.Point2.XY.Y, 
TestParameter, AutoAnalysis.Line1.Point2.Data.Var, 
TestParameter, AutoAnalysis.Line1.Point2.Data.Condition, 
TestParameter, AutoAnalysis.Line1.Point2.Data.Start, false
TestParameter, AutoAnalysis.Line1.Point2.Data.StartVar, 
TestParameter, AutoAnalysis.Line1.Point2.Data.StartCondition, 
TestParameter, AutoAnalysis.Line1.GradientExpr, 0
TestParameter, AutoAnalysis.Line2.Enabled, false
TestParameter, AutoAnalysis.Line2.Type, 1
TestParameter, AutoAnalysis.Line2.Fix, True
TestParameter, AutoAnalysis.Line2.YAxis, 0
TestParameter, AutoAnalysis.Line2.Point1.Type, 0
TestParameter, AutoAnalysis.Line2.Point1.XY.X, 
TestParameter, AutoAnalysis.Line2.Point1.XY.Y, 
TestParameter, AutoAnalysis.Line2.Point1.Data.Var, 
TestParameter, AutoAnalysis.Line2.Point1.Data.Condition, 
TestParameter, AutoAnalysis.Line2.Point1.Data.Start, false
TestParameter, AutoAnalysis.Line2.Point1.Data.StartVar, 
TestParameter, AutoAnalysis.Line2.Point1.Data.StartCondition, 
TestParameter, AutoAnalysis.Line2.Point2.Type, 0
TestParameter, AutoAnalysis.Line2.Point2.XY.X, 
TestParameter, AutoAnalysis.Line2.Point2.XY.Y, 
TestParameter, AutoAnalysis.Line2.Point2.Data.Var, 
TestParameter, AutoAnalysis.Line2.Point2.Data.Condition, 
TestParameter, AutoAnalysis.Line2.Point2.Data.Start, false
TestParameter, AutoAnalysis.Line2.Point2.Data.StartVar, 
TestParameter, AutoAnalysis.Line2.Point2.Data.StartCondition, 
TestParameter, AutoAnalysis.Line2.GradientExpr, 0
TestParameter, AutoAnalysis.Marker.Enabled, false
TestParameter, AutoAnalysis.Marker.Data.Var, 
TestParameter, AutoAnalysis.Marker.Data.Condition, 
TestParameter, AutoAnalysis.Marker.Data.Start, false
TestParameter, AutoAnalysis.Marker.Data.StartVar, 
TestParameter, AutoAnalysis.Marker.Data.StartCondition, 
MetaData, TestRecord.EntryPoint, true
MetaData, TestRecord.RecordTime, 10/19/2022 16:23:32
MetaData, TestRecord.TestTarget, 
MetaData, TestRecord.IterationIndex, 179
MetaData, TestRecord.Preservation, true
MetaData, TestRecord.Flag, 
MetaData, TestRecord.Remarks, 
MetaData, TestRecord.LinkKey, a9b1ecf3-7b0b-4ea9-b4bc-a8b63c75f33d
MetaData, TestRecord.Parameters, 
Dimension1, 101, 101
Dimension2, 1, 1
DataName, V, I
DataValue, -2, -0.078966000000000008
DataValue, -1.9600000000000002, -0.0766
DataValue, -1.9200000000000002, -0.0742
DataValue, -1.8800000000000001, -0.071798
DataValue, -1.84, -0.069488000000000008
DataValue, -1.8, -0.06706200000000001
DataValue, -1.76, -0.064636
DataValue, -1.72, -0.062148000000000009
DataValue, -1.6800000000000002, -0.059792000000000005
DataValue, -1.6400000000000001, -0.057436000000000008
DataValue, -1.6, -0.055048000000000007
DataValue, -1.56, -0.052686000000000004
DataValue, -1.52, -0.050364000000000006
DataValue, -1.48, -0.048068000000000007
DataValue, -1.4400000000000002, -0.045796
DataValue, -1.4000000000000001, -0.043554
DataValue, -1.36, -0.041322000000000005
DataValue, -1.32, -0.039142
DataValue, -1.28, -0.036988
DataValue, -1.24, -0.034854
DataValue, -1.2, -0.03273
DataValue, -1.1600000000000001, -0.030640000000000004
DataValue, -1.12, -0.02858
DataValue, -1.08, -0.026542000000000003
DataValue, -1.04, -0.024526000000000003
DataValue, -1, -0.022558
DataValue, -0.96000000000000008, -0.020612000000000002
DataValue, -0.92, -0.018704000000000002
DataValue, -0.88, -0.016834000000000002
DataValue, -0.84000000000000008, -0.01501
DataValue, -0.8, -0.013246
DataValue, -0.76, -0.011508
DataValue, -0.72000000000000008, -0.0098788
DataValue, -0.68, -0.008353600000000001
DataValue, -0.64, -0.0068886
DataValue, -0.6, -0.005516
DataValue, -0.56, -0.0042378
DataValue, -0.52, -0.0030576
DataValue, -0.48000000000000004, -0.002018
DataValue, -0.44, -0.001149
DataValue, -0.4, -0.00052248000000000008
DataValue, -0.36000000000000004, -0.0001756
DataValue, -0.32, -5.5860000000000004E-05
DataValue, -0.28, -1.9124000000000002E-05
DataValue, -0.24000000000000002, -8.6615000000000017E-06
DataValue, -0.2, -4.7714000000000006E-06
DataValue, -0.16, -2.9491000000000003E-06
DataValue, -0.12000000000000001, -1.9351000000000003E-06
DataValue, -0.08, -1.2318000000000002E-06
DataValue, -0.04, -9.8789999999999989E-07
DataValue, 0, -7.0602E-07
DataValue, 0.04, -8.9069000000000011E-06
DataValue, 0.08, -4.8474E-06
DataValue, 0.12000000000000001, -2.9483000000000002E-06
DataValue, 0.16, -1.8507000000000001E-06
DataValue, 0.2, -1.1185000000000002E-06
DataValue, 0.24000000000000002, -6.7576E-07
DataValue, 0.28, -3.6812E-07
DataValue, 0.32, -1.2724E-07
DataValue, 0.36000000000000004, -7.58478E-08
DataValue, 0.4, -2.9854199999999995E-08
DataValue, 0.44, -9.8803999999999983E-09
DataValue, 0.48000000000000004, 3.228E-10
DataValue, 0.52, 1.6151199999999998E-08
DataValue, 0.56, 2.59152E-08
DataValue, 0.6, 3.7875999999999995E-08
DataValue, 0.64, 5.4481799999999994E-08
DataValue, 0.68, 8.1414199999999988E-08
DataValue, 0.72000000000000008, 1.2888E-07
DataValue, 0.76, 2.0516E-07
DataValue, 0.8, 3.2762E-07
DataValue, 0.84000000000000008, 5.0818E-07
DataValue, 0.88, 8.0986E-07
DataValue, 0.92, 1.3856000000000001E-06
DataValue, 0.96000000000000008, 2.6956E-06
DataValue, 1, 5.6035000000000006E-06
DataValue, 1.04, 1.4374E-05
DataValue, 1.08, 3.2284E-05
DataValue, 1.12, 6.1526000000000007E-05
DataValue, 1.1600000000000001, 2.004E-05
DataValue, 1.2, 7.0454E-05
DataValue, 1.24, 0.00021008000000000002
DataValue, 1.28, 0.00045974000000000004
DataValue, 1.32, 0.0008117
DataValue, 1.36, 0.0012334
DataValue, 1.4000000000000001, 0.0016696
DataValue, 1.4400000000000002, 0.0021022000000000002
DataValue, 1.48, 0.0025
DataValue, 1.52, 0.0028514
DataValue, 1.56, 0.0031228000000000002
DataValue, 1.6, 0.0033556000000000002
DataValue, 1.6400000000000001, 0.0036174
DataValue, 1.6800000000000002, 0.0039444
DataValue, 1.72, 0.0045214
DataValue, 1.76, 0.005143
DataValue, 1.8, 0.0058122
DataValue, 1.84, 0.0065628
DataValue, 1.8800000000000001, 0.0073266
DataValue, 1.9200000000000002, 0.0080846
DataValue, 1.9600000000000002, 0.0089702
DataValue, 2, 0.0097588