
SetupTitle, I/V Sweep
PrimitiveTest, I/V Sweep
TestParameter, Context.MainFrame, B1500A
TestParameter, Channel.UnitType, SMU, SMU, SMU, SMU
TestParameter, Channel.Unit, SMU1:HP, SMU2:MP, SMU3:MP, SMU4:MP
TestParameter, Channel.IName, I, IDD1, IDD2, II
TestParameter, Channel.VName, V, VDD1, VDD2, VV
TestParameter, Channel.Mode, V, V, V, V
TestParameter, Channel.Func, VAR1, CONST, CONST, CONST
TestParameter, Channel.Index, 
TestParameter, Channel.Time, 
TestParameter, Measurement.Port.Unit, SMU1:HP, SMU2:MP, SMU3:MP, SMU4:MP
TestParameter, Measurement.Port.SeriesResistor, NONE, NONE, NONE, NONE
TestParameter, Measurement.Port.Filter, ON, ON, ON, ON
TestParameter, Measurement.Port.OutputVoltageComparison, 0, 0, 0, 0
TestParameter, Measurement.Primary.Locus, Single
TestParameter, Measurement.Primary.Scale, LINEAR
TestParameter, Measurement.Primary.Start, -2
TestParameter, Measurement.Primary.Stop, 2
TestParameter, Measurement.Primary.Step, 0.04
TestParameter, Measurement.Primary.Compliance, 0.1
TestParameter, Measurement.Primary.PowerCompliance, 0
TestParameter, Measurement.Aborting.Condition, CONTINUE AT ANY
TestParameter, Measurement.PostOutput.Value, START
TestParameter, Measurement.PostOutput.Retention, OFF
TestParameter, Measurement.Bias.Source, -2, 1.8, 1.1, 0
TestParameter, Measurement.Bias.Compliance, 0.1, 0.1, 0.1, 0.1
TestParameter, Measurement.Monitor.Unit, SMU1:HP, SMU2:MP, SMU3:MP, SMU4:MP
TestParameter, Measurement.Monitor.Adc, HR ADC, HR ADC, HR ADC, HR ADC
TestParameter, Measurement.Monitor.Measurement, Compliance Side, Compliance Side, Compliance Side, Compliance Side
TestParameter, Measurement.Monitor.RangingMode, LIMITED, LIMITED, LIMITED, LIMITED
TestParameter, Measurement.Monitor.RangeBoundary, 1nA, 1nA, 1nA, 1nA
TestParameter, Measurement.Monitor.RangeRating, BY FULL RANGE, BY FULL RANGE, BY FULL RANGE, BY FULL RANGE
TestParameter, Measurement.Monitor.RangeRatingCoeff, 50, 50, 50, 50
TestParameter, Measurement.Timing.Hold, 0
TestParameter, Measurement.Timing.Delay, 0
TestParameter, Measurement.Adc.HighSpeed.Mode, AUTO
TestParameter, Measurement.Adc.HighSpeed.Coeff, 1
TestParameter, Measurement.Adc.HighResolution.AutoZero, OFF
TestParameter, Measurement.Adc.HighResolution.Mode, AUTO
TestParameter, Measurement.Adc.HighResolution.Coeff, 6
TestParameter, Measurement.WaitTime.Source.Coeff, 1
TestParameter, Measurement.WaitTime.Source.Offset, 0
TestParameter, Measurement.WaitTime.Monitor.Coeff, 1
TestParameter, Measurement.WaitTime.Monitor.Offset, 0
TestParameter, Output.Graph.Enabled, true
TestParameter, Output.Graph.AutoScaling, false
TestParameter, Output.Graph.XAxis.Data, V
TestParameter, Output.Graph.XAxis.Scale, Linear
TestParameter, Output.Graph.XAxis.Left, -2
TestParameter, Output.Graph.XAxis.Right, 2
TestParameter, Output.Graph.XAxis.RunTimeAutoScale, true
TestParameter, Output.Graph.YAxis.Data, I
TestParameter, Output.Graph.YAxis.Scale, Linear
TestParameter, Output.Graph.YAxis.Bottom, -0.1
TestParameter, Output.Graph.YAxis.Top, 0.1
TestParameter, Output.Graph.YAxis.Group, 
TestParameter, Output.Graph.YAxis.RunTimeAutoScale, true
TestParameter, AutoAnalysis.Interpolation, false
TestParameter, AutoAnalysis.Var2StepCount, 1
TestParameter, AutoAnalysis.Var2StepScript, 
TestParameter, AutoAnalysis.Line1.Enabled, false
TestParameter, AutoAnalysis.Line1.Type, 1
TestParameter, AutoAnalysis.Line1.Fix, True
TestParameter, AutoAnalysis.Line1.YAxis, 0
TestParameter, AutoAnalysis.Line1.Point1.Type, 0
TestParameter, AutoAnalysis.Line1.Point1.XY.X, 
TestParameter, AutoAnalysis.Line1.Point1.XY.Y, 
TestParameter, AutoAnalysis.Line1.Point1.Data.Var, 
TestParameter, AutoAnalysis.Line1.Point1.Data.Condition, 
TestParameter, AutoAnalysis.Line1.Point1.Data.Start, false
TestParameter, AutoAnalysis.Line1.Point1.Data.StartVar, 
TestParameter, AutoAnalysis.Line1.Point1.Data.StartCondition, 
TestParameter, AutoAnalysis.Line1.Point2.Type, 0
TestParameter, AutoAnalysis.Line1.Point2.XY.X, 
TestParameter, AutoAnalysis.Line1.Point2.XY.Y, 
TestParameter, AutoAnalysis.Line1.Point2.Data.Var, 
TestParameter, AutoAnalysis.Line1.Point2.Data.Condition, 
TestParameter, AutoAnalysis.Line1.Point2.Data.Start, false
TestParameter, AutoAnalysis.Line1.Point2.Data.StartVar, 
TestParameter, AutoAnalysis.Line1.Point2.Data.StartCondition, 
TestParameter, AutoAnalysis.Line1.GradientExpr, 0
TestParameter, AutoAnalysis.Line2.Enabled, false
TestParameter, AutoAnalysis.Line2.Type, 1
TestParameter, AutoAnalysis.Line2.Fix, True
TestParameter, AutoAnalysis.Line2.YAxis, 0
TestParameter, AutoAnalysis.Line2.Point1.Type, 0
TestParameter, AutoAnalysis.Line2.Point1.XY.X, 
TestParameter, AutoAnalysis.Line2.Point1.XY.Y, 
TestParameter, AutoAnalysis.Line2.Point1.Data.Var, 
TestParameter, AutoAnalysis.Line2.Point1.Data.Condition, 
TestParameter, AutoAnalysis.Line2.Point1.Data.Start, false
TestParameter, AutoAnalysis.Line2.Point1.Data.StartVar, 
TestParameter, AutoAnalysis.Line2.Point1.Data.StartCondition, 
TestParameter, AutoAnalysis.Line2.Point2.Type, 0
TestParameter, AutoAnalysis.Line2.Point2.XY.X, 
TestParameter, AutoAnalysis.Line2.Point2.XY.Y, 
TestParameter, AutoAnalysis.Line2.Point2.Data.Var, 
TestParameter, AutoAnalysis.Line2.Point2.Data.Condition, 
TestParameter, AutoAnalysis.Line2.Point2.Data.Start, false
TestParameter, AutoAnalysis.Line2.Point2.Data.StartVar, 
TestParameter, AutoAnalysis.Line2.Point2.Data.StartCondition, 
TestParameter, AutoAnalysis.Line2.GradientExpr, 0
TestParameter, AutoAnalysis.Marker.Enabled, false
TestParameter, AutoAnalysis.Marker.Data.Var, 
TestParameter, AutoAnalysis.Marker.Data.Condition, 
TestParameter, AutoAnalysis.Marker.Data.Start, false
TestParameter, AutoAnalysis.Marker.Data.StartVar, 
TestParameter, AutoAnalysis.Marker.Data.StartCondition, 
MetaData, TestRecord.EntryPoint, true
MetaData, TestRecord.RecordTime, 10/19/2022 16:21:04
MetaData, TestRecord.TestTarget, 
MetaData, TestRecord.IterationIndex, 174
MetaData, TestRecord.Preservation, true
MetaData, TestRecord.Flag, 
MetaData, TestRecord.Remarks, 
MetaData, TestRecord.LinkKey, 8649dc6b-3686-4cff-b801-5868879d1e83
MetaData, TestRecord.Parameters, 
Dimension1, 101, 101
Dimension2, 1, 1
DataName, V, I
DataValue, -2, -0.09453
DataValue, -1.9600000000000002, -0.089794000000000013
DataValue, -1.9200000000000002, -0.088178
DataValue, -1.8800000000000001, -0.086898
DataValue, -1.84, -0.085818
DataValue, -1.8, -0.083804
DataValue, -1.76, -0.081376
DataValue, -1.72, -0.07917
DataValue, -1.6800000000000002, -0.076908
DataValue, -1.6400000000000001, -0.074674
DataValue, -1.6, -0.072476000000000013
DataValue, -1.56, -0.070166
DataValue, -1.52, -0.068056
DataValue, -1.48, -0.065742000000000009
DataValue, -1.4400000000000002, -0.06353
DataValue, -1.4000000000000001, -0.060714000000000004
DataValue, -1.36, -0.058782000000000008
DataValue, -1.32, -0.05698
DataValue, -1.28, -0.052612000000000006
DataValue, -1.24, -0.05045
DataValue, -1.2, -0.049048
DataValue, -1.1600000000000001, -0.046738
DataValue, -1.12, -0.044616
DataValue, -1.08, -0.041922
DataValue, -1.04, -0.040130000000000006
DataValue, -1, -0.039512000000000005
DataValue, -0.96000000000000008, -0.035264000000000004
DataValue, -0.92, -0.033254000000000006
DataValue, -0.88, -0.030854000000000003
DataValue, -0.84000000000000008, -0.02985
DataValue, -0.8, -0.02934
DataValue, -0.76, -0.026664000000000004
DataValue, -0.72000000000000008, -0.024708
DataValue, -0.68, -0.022748
DataValue, -0.64, -0.020778
DataValue, -0.6, -0.019006000000000002
DataValue, -0.56, -0.017122000000000002
DataValue, -0.52, -0.015360000000000002
DataValue, -0.48000000000000004, -0.013598
DataValue, -0.44, -0.011758000000000001
DataValue, -0.4, -0.010116000000000002
DataValue, -0.36000000000000004, -0.0077156
DataValue, -0.32, -0.0058066
DataValue, -0.28, -0.0046172
DataValue, -0.24000000000000002, -0.0035694
DataValue, -0.2, -0.0026528
DataValue, -0.16, -0.0018822
DataValue, -0.12000000000000001, -0.0012634
DataValue, -0.08, -0.00032510000000000004
DataValue, -0.04, -0.00011784000000000001
DataValue, 0, -1.679E-05
DataValue, 0.04, 3.0256E-05
DataValue, 0.08, 5.7706E-05
DataValue, 0.12000000000000001, 7.7434E-05
DataValue, 0.16, 9.4428E-05
DataValue, 0.2, 0.00010895200000000001
DataValue, 0.24000000000000002, 8.9332E-05
DataValue, 0.28, 0.000109002
DataValue, 0.32, 0.00010142
DataValue, 0.36000000000000004, 0.0001352
DataValue, 0.4, 0.0001831
DataValue, 0.44, 0.00025434000000000003
DataValue, 0.48000000000000004, 0.00035194
DataValue, 0.52, 0.0004776
DataValue, 0.56, 0.00063012000000000007
DataValue, 0.6, 0.00079914
DataValue, 0.64, 0.0009783
DataValue, 0.68, 0.0011684
DataValue, 0.72000000000000008, 0.001299
DataValue, 0.76, 0.0015918
DataValue, 0.8, 0.0018694
DataValue, 0.84000000000000008, 0.0020942
DataValue, 0.88, 0.002306
DataValue, 0.92, 0.0024898
DataValue, 0.96000000000000008, 0.0026926
DataValue, 1, 0.0028936
DataValue, 1.04, 0.0030924
DataValue, 1.08, 0.003293
DataValue, 1.12, 0.0034964
DataValue, 1.1600000000000001, 0.0037076
DataValue, 1.2, 0.0039264
DataValue, 1.24, 0.0041562000000000005
DataValue, 1.28, 0.0044008
DataValue, 1.32, 0.0046622
DataValue, 1.36, 0.004943
DataValue, 1.4000000000000001, 0.0052426
DataValue, 1.4400000000000002, 0.0055624
DataValue, 1.48, 0.0059018000000000004
DataValue, 1.52, 0.0062614
DataValue, 1.56, 0.0066408000000000005
DataValue, 1.6, 0.0070378
DataValue, 1.6400000000000001, 0.0074512
DataValue, 1.6800000000000002, 0.007881
DataValue, 1.72, 0.0083264
DataValue, 1.76, 0.0087864
DataValue, 1.8, 0.0092584
DataValue, 1.84, 0.009742
DataValue, 1.8800000000000001, 0.0102336
DataValue, 1.9200000000000002, 0.0107374
DataValue, 1.9600000000000002, 0.0112468
DataValue, 2, 0.011776000000000002