
SetupTitle, I/V Sweep
PrimitiveTest, I/V Sweep
TestParameter, Context.MainFrame, B1500A
TestParameter, Channel.UnitType, SMU, SMU, SMU, SMU
TestParameter, Channel.Unit, SMU1:HP, SMU2:MP, SMU3:MP, SMU4:MP
TestParameter, Channel.IName, I, IDD1, IDD2, II
TestParameter, Channel.VName, V, VDD1, VDD2, VV
TestParameter, Channel.Mode, V, V, V, V
TestParameter, Channel.Func, VAR1, CONST, CONST, CONST
TestParameter, Channel.Index, 
TestParameter, Channel.Time, 
TestParameter, Measurement.Port.Unit, SMU1:HP, SMU2:MP, SMU3:MP, SMU4:MP
TestParameter, Measurement.Port.SeriesResistor, NONE, NONE, NONE, NONE
TestParameter, Measurement.Port.Filter, ON, ON, ON, ON
TestParameter, Measurement.Port.OutputVoltageComparison, 0, 0, 0, 0
TestParameter, Measurement.Primary.Locus, Single
TestParameter, Measurement.Primary.Scale, LINEAR
TestParameter, Measurement.Primary.Start, -2
TestParameter, Measurement.Primary.Stop, 2
TestParameter, Measurement.Primary.Step, 0.04
TestParameter, Measurement.Primary.Compliance, 0.1
TestParameter, Measurement.Primary.PowerCompliance, 0
TestParameter, Measurement.Aborting.Condition, CONTINUE AT ANY
TestParameter, Measurement.PostOutput.Value, START
TestParameter, Measurement.PostOutput.Retention, OFF
TestParameter, Measurement.Bias.Source, -2, 1.8, 1.1, 0
TestParameter, Measurement.Bias.Compliance, 0.1, 0.1, 0.1, 0.1
TestParameter, Measurement.Monitor.Unit, SMU1:HP, SMU2:MP, SMU3:MP, SMU4:MP
TestParameter, Measurement.Monitor.Adc, HR ADC, HR ADC, HR ADC, HR ADC
TestParameter, Measurement.Monitor.Measurement, Compliance Side, Compliance Side, Compliance Side, Compliance Side
TestParameter, Measurement.Monitor.RangingMode, LIMITED, LIMITED, LIMITED, LIMITED
TestParameter, Measurement.Monitor.RangeBoundary, 1nA, 1nA, 1nA, 1nA
TestParameter, Measurement.Monitor.RangeRating, BY FULL RANGE, BY FULL RANGE, BY FULL RANGE, BY FULL RANGE
TestParameter, Measurement.Monitor.RangeRatingCoeff, 50, 50, 50, 50
TestParameter, Measurement.Timing.Hold, 0
TestParameter, Measurement.Timing.Delay, 0
TestParameter, Measurement.Adc.HighSpeed.Mode, AUTO
TestParameter, Measurement.Adc.HighSpeed.Coeff, 1
TestParameter, Measurement.Adc.HighResolution.AutoZero, OFF
TestParameter, Measurement.Adc.HighResolution.Mode, AUTO
TestParameter, Measurement.Adc.HighResolution.Coeff, 6
TestParameter, Measurement.WaitTime.Source.Coeff, 1
TestParameter, Measurement.WaitTime.Source.Offset, 0
TestParameter, Measurement.WaitTime.Monitor.Coeff, 1
TestParameter, Measurement.WaitTime.Monitor.Offset, 0
TestParameter, Output.Graph.Enabled, true
TestParameter, Output.Graph.AutoScaling, false
TestParameter, Output.Graph.XAxis.Data, V
TestParameter, Output.Graph.XAxis.Scale, Linear
TestParameter, Output.Graph.XAxis.Left, -2
TestParameter, Output.Graph.XAxis.Right, 2
TestParameter, Output.Graph.XAxis.RunTimeAutoScale, true
TestParameter, Output.Graph.YAxis.Data, I
TestParameter, Output.Graph.YAxis.Scale, Linear
TestParameter, Output.Graph.YAxis.Bottom, -0.1
TestParameter, Output.Graph.YAxis.Top, 0.1
TestParameter, Output.Graph.YAxis.Group, 
TestParameter, Output.Graph.YAxis.RunTimeAutoScale, true
TestParameter, AutoAnalysis.Interpolation, false
TestParameter, AutoAnalysis.Var2StepCount, 1
TestParameter, AutoAnalysis.Var2StepScript, 
TestParameter, AutoAnalysis.Line1.Enabled, false
TestParameter, AutoAnalysis.Line1.Type, 1
TestParameter, AutoAnalysis.Line1.Fix, True
TestParameter, AutoAnalysis.Line1.YAxis, 0
TestParameter, AutoAnalysis.Line1.Point1.Type, 0
TestParameter, AutoAnalysis.Line1.Point1.XY.X, 
TestParameter, AutoAnalysis.Line1.Point1.XY.Y, 
TestParameter, AutoAnalysis.Line1.Point1.Data.Var, 
TestParameter, AutoAnalysis.Line1.Point1.Data.Condition, 
TestParameter, AutoAnalysis.Line1.Point1.Data.Start, false
TestParameter, AutoAnalysis.Line1.Point1.Data.StartVar, 
TestParameter, AutoAnalysis.Line1.Point1.Data.StartCondition, 
TestParameter, AutoAnalysis.Line1.Point2.Type, 0
TestParameter, AutoAnalysis.Line1.Point2.XY.X, 
TestParameter, AutoAnalysis.Line1.Point2.XY.Y, 
TestParameter, AutoAnalysis.Line1.Point2.Data.Var, 
TestParameter, AutoAnalysis.Line1.Point2.Data.Condition, 
TestParameter, AutoAnalysis.Line1.Point2.Data.Start, false
TestParameter, AutoAnalysis.Line1.Point2.Data.StartVar, 
TestParameter, AutoAnalysis.Line1.Point2.Data.StartCondition, 
TestParameter, AutoAnalysis.Line1.GradientExpr, 0
TestParameter, AutoAnalysis.Line2.Enabled, false
TestParameter, AutoAnalysis.Line2.Type, 1
TestParameter, AutoAnalysis.Line2.Fix, True
TestParameter, AutoAnalysis.Line2.YAxis, 0
TestParameter, AutoAnalysis.Line2.Point1.Type, 0
TestParameter, AutoAnalysis.Line2.Point1.XY.X, 
TestParameter, AutoAnalysis.Line2.Point1.XY.Y, 
TestParameter, AutoAnalysis.Line2.Point1.Data.Var, 
TestParameter, AutoAnalysis.Line2.Point1.Data.Condition, 
TestParameter, AutoAnalysis.Line2.Point1.Data.Start, false
TestParameter, AutoAnalysis.Line2.Point1.Data.StartVar, 
TestParameter, AutoAnalysis.Line2.Point1.Data.StartCondition, 
TestParameter, AutoAnalysis.Line2.Point2.Type, 0
TestParameter, AutoAnalysis.Line2.Point2.XY.X, 
TestParameter, AutoAnalysis.Line2.Point2.XY.Y, 
TestParameter, AutoAnalysis.Line2.Point2.Data.Var, 
TestParameter, AutoAnalysis.Line2.Point2.Data.Condition, 
TestParameter, AutoAnalysis.Line2.Point2.Data.Start, false
TestParameter, AutoAnalysis.Line2.Point2.Data.StartVar, 
TestParameter, AutoAnalysis.Line2.Point2.Data.StartCondition, 
TestParameter, AutoAnalysis.Line2.GradientExpr, 0
TestParameter, AutoAnalysis.Marker.Enabled, false
TestParameter, AutoAnalysis.Marker.Data.Var, 
TestParameter, AutoAnalysis.Marker.Data.Condition, 
TestParameter, AutoAnalysis.Marker.Data.Start, false
TestParameter, AutoAnalysis.Marker.Data.StartVar, 
TestParameter, AutoAnalysis.Marker.Data.StartCondition, 
MetaData, TestRecord.EntryPoint, true
MetaData, TestRecord.RecordTime, 10/19/2022 16:22:28
MetaData, TestRecord.TestTarget, 
MetaData, TestRecord.IterationIndex, 177
MetaData, TestRecord.Preservation, true
MetaData, TestRecord.Flag, 
MetaData, TestRecord.Remarks, 
MetaData, TestRecord.LinkKey, cd1e593f-454c-4a98-967b-94e70d33f0ec
MetaData, TestRecord.Parameters, 
Dimension1, 101, 101
Dimension2, 1, 1
DataName, V, I
DataValue, -2, -0.095998000000000014
DataValue, -1.9600000000000002, -0.092654000000000014
DataValue, -1.9200000000000002, -0.091742
DataValue, -1.8800000000000001, -0.090734000000000009
DataValue, -1.84, -0.088240000000000013
DataValue, -1.8, -0.085314
DataValue, -1.76, -0.083910000000000012
DataValue, -1.72, -0.081248
DataValue, -1.6800000000000002, -0.07806
DataValue, -1.6400000000000001, -0.076190000000000008
DataValue, -1.6, -0.074280000000000013
DataValue, -1.56, -0.072152000000000008
DataValue, -1.52, -0.069938
DataValue, -1.48, -0.067752
DataValue, -1.4400000000000002, -0.065550000000000011
DataValue, -1.4000000000000001, -0.06319000000000001
DataValue, -1.36, -0.060984000000000003
DataValue, -1.32, -0.058890000000000005
DataValue, -1.28, -0.056788000000000005
DataValue, -1.24, -0.054666000000000006
DataValue, -1.2, -0.052594
DataValue, -1.1600000000000001, -0.050528
DataValue, -1.12, -0.048440000000000004
DataValue, -1.08, -0.046276000000000005
DataValue, -1.04, -0.044142
DataValue, -1, -0.04207
DataValue, -0.96000000000000008, -0.040054000000000006
DataValue, -0.92, -0.038028000000000006
DataValue, -0.88, -0.036004
DataValue, -0.84000000000000008, -0.034016000000000005
DataValue, -0.8, -0.031988
DataValue, -0.76, -0.029954
DataValue, -0.72000000000000008, -0.027934000000000004
DataValue, -0.68, -0.025972000000000002
DataValue, -0.64, -0.023984000000000002
DataValue, -0.6, -0.021336
DataValue, -0.56, -0.019204000000000002
DataValue, -0.52, -0.01735
DataValue, -0.48000000000000004, -0.015548000000000001
DataValue, -0.44, -0.013202000000000002
DataValue, -0.4, -0.010812
DataValue, -0.36000000000000004, -0.0092814
DataValue, -0.32, -0.007847
DataValue, -0.28, -0.006508
DataValue, -0.24000000000000002, -0.0052226
DataValue, -0.2, -0.0036004
DataValue, -0.16, -0.0026742
DataValue, -0.12000000000000001, -0.0019374000000000002
DataValue, -0.08, -0.0013586
DataValue, -0.04, -0.00089114
DataValue, 0, -0.00052906
DataValue, 0.04, -0.00026778
DataValue, 0.08, 3.0184E-05
DataValue, 0.12000000000000001, 0.000111364
DataValue, 0.16, 0.00015514
DataValue, 0.2, 0.00018598
DataValue, 0.24000000000000002, 0.00020632000000000002
DataValue, 0.28, 0.00022156
DataValue, 0.32, 0.00023422000000000002
DataValue, 0.36000000000000004, 0.00024734000000000003
DataValue, 0.4, 0.00026128
DataValue, 0.44, 0.00028242
DataValue, 0.48000000000000004, 0.00031316000000000004
DataValue, 0.52, 0.00036354000000000003
DataValue, 0.56, 0.00044778000000000005
DataValue, 0.6, 0.00057526000000000007
DataValue, 0.64, 0.00074794
DataValue, 0.68, 0.00096072000000000009
DataValue, 0.72000000000000008, 0.0011854
DataValue, 0.76, 0.0014370000000000001
DataValue, 0.8, 0.0016832
DataValue, 0.84000000000000008, 0.0019402
DataValue, 0.88, 0.0021938
DataValue, 0.92, 0.0024238000000000003
DataValue, 0.96000000000000008, 0.0026454
DataValue, 1, 0.002855
DataValue, 1.04, 0.0030524000000000003
DataValue, 1.08, 0.0032476000000000002
DataValue, 1.12, 0.0034316
DataValue, 1.1600000000000001, 0.0036124
DataValue, 1.2, 0.0037972
DataValue, 1.24, 0.003988
DataValue, 1.28, 0.004193
DataValue, 1.32, 0.0044150000000000005
DataValue, 1.36, 0.00467
DataValue, 1.4000000000000001, 0.0049324
DataValue, 1.4400000000000002, 0.0052234000000000004
DataValue, 1.48, 0.005536
DataValue, 1.52, 0.0058712
DataValue, 1.56, 0.0062172
DataValue, 1.6, 0.0065822
DataValue, 1.6400000000000001, 0.0069706
DataValue, 1.6800000000000002, 0.007385
DataValue, 1.72, 0.0077962000000000005
DataValue, 1.76, 0.0082338
DataValue, 1.8, 0.0086886
DataValue, 1.84, 0.009152200000000001
DataValue, 1.8800000000000001, 0.0096318
DataValue, 1.9200000000000002, 0.0101298
DataValue, 1.9600000000000002, 0.0106274
DataValue, 2, 0.011133200000000001