
SetupTitle, I/V Sweep
PrimitiveTest, I/V Sweep
TestParameter, Context.MainFrame, B1500A
TestParameter, Channel.UnitType, SMU, SMU, SMU, SMU
TestParameter, Channel.Unit, SMU1:HP, SMU2:MP, SMU3:MP, SMU4:MP
TestParameter, Channel.IName, I, IDD1, IDD2, II
TestParameter, Channel.VName, V, VDD1, VDD2, VV
TestParameter, Channel.Mode, V, V, V, V
TestParameter, Channel.Func, VAR1, CONST, CONST, CONST
TestParameter, Channel.Index, 
TestParameter, Channel.Time, 
TestParameter, Measurement.Port.Unit, SMU1:HP, SMU2:MP, SMU3:MP, SMU4:MP
TestParameter, Measurement.Port.SeriesResistor, NONE, NONE, NONE, NONE
TestParameter, Measurement.Port.Filter, ON, ON, ON, ON
TestParameter, Measurement.Port.OutputVoltageComparison, 0, 0, 0, 0
TestParameter, Measurement.Primary.Locus, Single
TestParameter, Measurement.Primary.Scale, LINEAR
TestParameter, Measurement.Primary.Start, -2
TestParameter, Measurement.Primary.Stop, 2
TestParameter, Measurement.Primary.Step, 0.04
TestParameter, Measurement.Primary.Compliance, 0.1
TestParameter, Measurement.Primary.PowerCompliance, 0
TestParameter, Measurement.Aborting.Condition, CONTINUE AT ANY
TestParameter, Measurement.PostOutput.Value, START
TestParameter, Measurement.PostOutput.Retention, OFF
TestParameter, Measurement.Bias.Source, -2, 1.8, 1.1, 0
TestParameter, Measurement.Bias.Compliance, 0.1, 0.1, 0.1, 0.1
TestParameter, Measurement.Monitor.Unit, SMU1:HP, SMU2:MP, SMU3:MP, SMU4:MP
TestParameter, Measurement.Monitor.Adc, HR ADC, HR ADC, HR ADC, HR ADC
TestParameter, Measurement.Monitor.Measurement, Compliance Side, Compliance Side, Compliance Side, Compliance Side
TestParameter, Measurement.Monitor.RangingMode, LIMITED, LIMITED, LIMITED, LIMITED
TestParameter, Measurement.Monitor.RangeBoundary, 1nA, 1nA, 1nA, 1nA
TestParameter, Measurement.Monitor.RangeRating, BY FULL RANGE, BY FULL RANGE, BY FULL RANGE, BY FULL RANGE
TestParameter, Measurement.Monitor.RangeRatingCoeff, 50, 50, 50, 50
TestParameter, Measurement.Timing.Hold, 0
TestParameter, Measurement.Timing.Delay, 0
TestParameter, Measurement.Adc.HighSpeed.Mode, AUTO
TestParameter, Measurement.Adc.HighSpeed.Coeff, 1
TestParameter, Measurement.Adc.HighResolution.AutoZero, OFF
TestParameter, Measurement.Adc.HighResolution.Mode, AUTO
TestParameter, Measurement.Adc.HighResolution.Coeff, 6
TestParameter, Measurement.WaitTime.Source.Coeff, 1
TestParameter, Measurement.WaitTime.Source.Offset, 0
TestParameter, Measurement.WaitTime.Monitor.Coeff, 1
TestParameter, Measurement.WaitTime.Monitor.Offset, 0
TestParameter, Output.Graph.Enabled, true
TestParameter, Output.Graph.AutoScaling, false
TestParameter, Output.Graph.XAxis.Data, V
TestParameter, Output.Graph.XAxis.Scale, Linear
TestParameter, Output.Graph.XAxis.Left, -2
TestParameter, Output.Graph.XAxis.Right, 2
TestParameter, Output.Graph.XAxis.RunTimeAutoScale, true
TestParameter, Output.Graph.YAxis.Data, I
TestParameter, Output.Graph.YAxis.Scale, Linear
TestParameter, Output.Graph.YAxis.Bottom, -0.1
TestParameter, Output.Graph.YAxis.Top, 0.1
TestParameter, Output.Graph.YAxis.Group, 
TestParameter, Output.Graph.YAxis.RunTimeAutoScale, true
TestParameter, AutoAnalysis.Interpolation, false
TestParameter, AutoAnalysis.Var2StepCount, 1
TestParameter, AutoAnalysis.Var2StepScript, 
TestParameter, AutoAnalysis.Line1.Enabled, false
TestParameter, AutoAnalysis.Line1.Type, 1
TestParameter, AutoAnalysis.Line1.Fix, True
TestParameter, AutoAnalysis.Line1.YAxis, 0
TestParameter, AutoAnalysis.Line1.Point1.Type, 0
TestParameter, AutoAnalysis.Line1.Point1.XY.X, 
TestParameter, AutoAnalysis.Line1.Point1.XY.Y, 
TestParameter, AutoAnalysis.Line1.Point1.Data.Var, 
TestParameter, AutoAnalysis.Line1.Point1.Data.Condition, 
TestParameter, AutoAnalysis.Line1.Point1.Data.Start, false
TestParameter, AutoAnalysis.Line1.Point1.Data.StartVar, 
TestParameter, AutoAnalysis.Line1.Point1.Data.StartCondition, 
TestParameter, AutoAnalysis.Line1.Point2.Type, 0
TestParameter, AutoAnalysis.Line1.Point2.XY.X, 
TestParameter, AutoAnalysis.Line1.Point2.XY.Y, 
TestParameter, AutoAnalysis.Line1.Point2.Data.Var, 
TestParameter, AutoAnalysis.Line1.Point2.Data.Condition, 
TestParameter, AutoAnalysis.Line1.Point2.Data.Start, false
TestParameter, AutoAnalysis.Line1.Point2.Data.StartVar, 
TestParameter, AutoAnalysis.Line1.Point2.Data.StartCondition, 
TestParameter, AutoAnalysis.Line1.GradientExpr, 0
TestParameter, AutoAnalysis.Line2.Enabled, false
TestParameter, AutoAnalysis.Line2.Type, 1
TestParameter, AutoAnalysis.Line2.Fix, True
TestParameter, AutoAnalysis.Line2.YAxis, 0
TestParameter, AutoAnalysis.Line2.Point1.Type, 0
TestParameter, AutoAnalysis.Line2.Point1.XY.X, 
TestParameter, AutoAnalysis.Line2.Point1.XY.Y, 
TestParameter, AutoAnalysis.Line2.Point1.Data.Var, 
TestParameter, AutoAnalysis.Line2.Point1.Data.Condition, 
TestParameter, AutoAnalysis.Line2.Point1.Data.Start, false
TestParameter, AutoAnalysis.Line2.Point1.Data.StartVar, 
TestParameter, AutoAnalysis.Line2.Point1.Data.StartCondition, 
TestParameter, AutoAnalysis.Line2.Point2.Type, 0
TestParameter, AutoAnalysis.Line2.Point2.XY.X, 
TestParameter, AutoAnalysis.Line2.Point2.XY.Y, 
TestParameter, AutoAnalysis.Line2.Point2.Data.Var, 
TestParameter, AutoAnalysis.Line2.Point2.Data.Condition, 
TestParameter, AutoAnalysis.Line2.Point2.Data.Start, false
TestParameter, AutoAnalysis.Line2.Point2.Data.StartVar, 
TestParameter, AutoAnalysis.Line2.Point2.Data.StartCondition, 
TestParameter, AutoAnalysis.Line2.GradientExpr, 0
TestParameter, AutoAnalysis.Marker.Enabled, false
TestParameter, AutoAnalysis.Marker.Data.Var, 
TestParameter, AutoAnalysis.Marker.Data.Condition, 
TestParameter, AutoAnalysis.Marker.Data.Start, false
TestParameter, AutoAnalysis.Marker.Data.StartVar, 
TestParameter, AutoAnalysis.Marker.Data.StartCondition, 
MetaData, TestRecord.EntryPoint, true
MetaData, TestRecord.RecordTime, 10/19/2022 16:20:24
MetaData, TestRecord.TestTarget, 
MetaData, TestRecord.IterationIndex, 173
MetaData, TestRecord.Preservation, true
MetaData, TestRecord.Flag, 
MetaData, TestRecord.Remarks, 
MetaData, TestRecord.LinkKey, f80f042c-3651-49c6-84d4-e7cca805530b
MetaData, TestRecord.Parameters, 
Dimension1, 101, 101
Dimension2, 1, 1
DataName, V, I
DataValue, -2, -0.023240000000000004
DataValue, -1.9600000000000002, -0.022500000000000003
DataValue, -1.9200000000000002, -0.02177
DataValue, -1.8800000000000001, -0.021060000000000002
DataValue, -1.84, -0.020344
DataValue, -1.8, -0.01963
DataValue, -1.76, -0.018906000000000003
DataValue, -1.72, -0.018188000000000003
DataValue, -1.6800000000000002, -0.017486
DataValue, -1.6400000000000001, -0.016764
DataValue, -1.6, -0.016056
DataValue, -1.56, -0.015358000000000002
DataValue, -1.52, -0.014638000000000002
DataValue, -1.48, -0.013932000000000002
DataValue, -1.4400000000000002, -0.013238000000000002
DataValue, -1.4000000000000001, -0.012538
DataValue, -1.36, -0.011842000000000002
DataValue, -1.32, -0.011158000000000001
DataValue, -1.28, -0.010472
DataValue, -1.24, -0.0098334
DataValue, -1.2, -0.0091490000000000009
DataValue, -1.1600000000000001, -0.0084936
DataValue, -1.12, -0.0078514
DataValue, -1.08, -0.0072250000000000005
DataValue, -1.04, -0.006619
DataValue, -1, -0.0060334
DataValue, -0.96000000000000008, -0.0054714
DataValue, -0.92, -0.00494
DataValue, -0.88, -0.0044326
DataValue, -0.84000000000000008, -0.0039542
DataValue, -0.8, -0.0035122
DataValue, -0.76, -0.0031096
DataValue, -0.72000000000000008, -0.0027500000000000003
DataValue, -0.68, -0.0024188
DataValue, -0.64, -0.0021096
DataValue, -0.6, -0.0018376
DataValue, -0.56, -0.0016098
DataValue, -0.52, -0.0014176
DataValue, -0.48000000000000004, -0.0012544000000000001
DataValue, -0.44, -0.0011078
DataValue, -0.4, -0.0009757
DataValue, -0.36000000000000004, -0.00084350000000000007
DataValue, -0.32, -0.00071882
DataValue, -0.28, -0.00060148
DataValue, -0.24000000000000002, -0.0004929
DataValue, -0.2, -0.00039582
DataValue, -0.16, -0.00031400000000000004
DataValue, -0.12000000000000001, -0.00024858000000000004
DataValue, -0.08, -0.00019576
DataValue, -0.04, -0.00014982
DataValue, 0, -0.00010622000000000001
DataValue, 0.04, -6.6052E-05
DataValue, 0.08, -2.5014E-05
DataValue, 0.12000000000000001, 1.3840000000000001E-05
DataValue, 0.16, 5.0724000000000004E-05
DataValue, 0.2, 8.5364E-05
DataValue, 0.24000000000000002, 0.00011428000000000001
DataValue, 0.28, 0.0001455
DataValue, 0.32, 0.00017286000000000002
DataValue, 0.36000000000000004, 0.00019684000000000002
DataValue, 0.4, 0.00021820000000000002
DataValue, 0.44, 0.00023686
DataValue, 0.48000000000000004, 0.00025432
DataValue, 0.52, 0.00027082
DataValue, 0.56, 0.00028554000000000003
DataValue, 0.6, 0.00029972
DataValue, 0.64, 0.00031608
DataValue, 0.68, 0.00033468
DataValue, 0.72000000000000008, 0.00035434
DataValue, 0.76, 0.00037396
DataValue, 0.8, 0.00039364
DataValue, 0.84000000000000008, 0.00041312
DataValue, 0.88, 0.00043416
DataValue, 0.92, 0.00045620000000000003
DataValue, 0.96000000000000008, 0.00047962000000000005
DataValue, 1, 0.00050486
DataValue, 1.04, 0.00053174000000000006
DataValue, 1.08, 0.00056114
DataValue, 1.12, 0.00059516000000000007
DataValue, 1.1600000000000001, 0.00063828000000000008
DataValue, 1.2, 0.00069646000000000009
DataValue, 1.24, 0.00077650000000000006
DataValue, 1.28, 0.0008815400000000001
DataValue, 1.32, 0.001011
DataValue, 1.36, 0.0011618
DataValue, 1.4000000000000001, 0.0013284
DataValue, 1.4400000000000002, 0.0015052
DataValue, 1.48, 0.001688
DataValue, 1.52, 0.001871
DataValue, 1.56, 0.0020492
DataValue, 1.6, 0.0022212
DataValue, 1.6400000000000001, 0.0023856
DataValue, 1.6800000000000002, 0.0025436
DataValue, 1.72, 0.0026964000000000003
DataValue, 1.76, 0.0028458
DataValue, 1.8, 0.0029924
DataValue, 1.84, 0.0031368
DataValue, 1.8800000000000001, 0.0032804
DataValue, 1.9200000000000002, 0.0034230000000000003
DataValue, 1.9600000000000002, 0.0035654000000000003
DataValue, 2, 0.0037066