
SetupTitle, I/V Sweep
PrimitiveTest, I/V Sweep
TestParameter, Context.MainFrame, B1500A
TestParameter, Channel.UnitType, SMU, SMU, SMU, SMU
TestParameter, Channel.Unit, SMU1:HP, SMU2:MP, SMU3:MP, SMU4:MP
TestParameter, Channel.IName, I, IDD1, IDD2, II
TestParameter, Channel.VName, V, VDD1, VDD2, VV
TestParameter, Channel.Mode, V, V, V, V
TestParameter, Channel.Func, VAR1, CONST, CONST, CONST
TestParameter, Channel.Index, 
TestParameter, Channel.Time, 
TestParameter, Measurement.Port.Unit, SMU1:HP, SMU2:MP, SMU3:MP, SMU4:MP
TestParameter, Measurement.Port.SeriesResistor, NONE, NONE, NONE, NONE
TestParameter, Measurement.Port.Filter, ON, ON, ON, ON
TestParameter, Measurement.Port.OutputVoltageComparison, 0, 0, 0, 0
TestParameter, Measurement.Primary.Locus, Single
TestParameter, Measurement.Primary.Scale, LINEAR
TestParameter, Measurement.Primary.Start, -2
TestParameter, Measurement.Primary.Stop, 2
TestParameter, Measurement.Primary.Step, 0.04
TestParameter, Measurement.Primary.Compliance, 0.1
TestParameter, Measurement.Primary.PowerCompliance, 0
TestParameter, Measurement.Aborting.Condition, CONTINUE AT ANY
TestParameter, Measurement.PostOutput.Value, START
TestParameter, Measurement.PostOutput.Retention, OFF
TestParameter, Measurement.Bias.Source, -2, 1.8, 1.1, 0
TestParameter, Measurement.Bias.Compliance, 0.1, 0.1, 0.1, 0.1
TestParameter, Measurement.Monitor.Unit, SMU1:HP, SMU2:MP, SMU3:MP, SMU4:MP
TestParameter, Measurement.Monitor.Adc, HR ADC, HR ADC, HR ADC, HR ADC
TestParameter, Measurement.Monitor.Measurement, Compliance Side, Compliance Side, Compliance Side, Compliance Side
TestParameter, Measurement.Monitor.RangingMode, LIMITED, LIMITED, LIMITED, LIMITED
TestParameter, Measurement.Monitor.RangeBoundary, 1nA, 1nA, 1nA, 1nA
TestParameter, Measurement.Monitor.RangeRating, BY FULL RANGE, BY FULL RANGE, BY FULL RANGE, BY FULL RANGE
TestParameter, Measurement.Monitor.RangeRatingCoeff, 50, 50, 50, 50
TestParameter, Measurement.Timing.Hold, 0
TestParameter, Measurement.Timing.Delay, 0
TestParameter, Measurement.Adc.HighSpeed.Mode, AUTO
TestParameter, Measurement.Adc.HighSpeed.Coeff, 1
TestParameter, Measurement.Adc.HighResolution.AutoZero, OFF
TestParameter, Measurement.Adc.HighResolution.Mode, AUTO
TestParameter, Measurement.Adc.HighResolution.Coeff, 6
TestParameter, Measurement.WaitTime.Source.Coeff, 1
TestParameter, Measurement.WaitTime.Source.Offset, 0
TestParameter, Measurement.WaitTime.Monitor.Coeff, 1
TestParameter, Measurement.WaitTime.Monitor.Offset, 0
TestParameter, Output.Graph.Enabled, true
TestParameter, Output.Graph.AutoScaling, false
TestParameter, Output.Graph.XAxis.Data, V
TestParameter, Output.Graph.XAxis.Scale, Linear
TestParameter, Output.Graph.XAxis.Left, -2
TestParameter, Output.Graph.XAxis.Right, 2
TestParameter, Output.Graph.XAxis.RunTimeAutoScale, true
TestParameter, Output.Graph.YAxis.Data, I
TestParameter, Output.Graph.YAxis.Scale, Linear
TestParameter, Output.Graph.YAxis.Bottom, -0.1
TestParameter, Output.Graph.YAxis.Top, 0.1
TestParameter, Output.Graph.YAxis.Group, 
TestParameter, Output.Graph.YAxis.RunTimeAutoScale, true
TestParameter, AutoAnalysis.Interpolation, false
TestParameter, AutoAnalysis.Var2StepCount, 1
TestParameter, AutoAnalysis.Var2StepScript, 
TestParameter, AutoAnalysis.Line1.Enabled, false
TestParameter, AutoAnalysis.Line1.Type, 1
TestParameter, AutoAnalysis.Line1.Fix, True
TestParameter, AutoAnalysis.Line1.YAxis, 0
TestParameter, AutoAnalysis.Line1.Point1.Type, 0
TestParameter, AutoAnalysis.Line1.Point1.XY.X, 
TestParameter, AutoAnalysis.Line1.Point1.XY.Y, 
TestParameter, AutoAnalysis.Line1.Point1.Data.Var, 
TestParameter, AutoAnalysis.Line1.Point1.Data.Condition, 
TestParameter, AutoAnalysis.Line1.Point1.Data.Start, false
TestParameter, AutoAnalysis.Line1.Point1.Data.StartVar, 
TestParameter, AutoAnalysis.Line1.Point1.Data.StartCondition, 
TestParameter, AutoAnalysis.Line1.Point2.Type, 0
TestParameter, AutoAnalysis.Line1.Point2.XY.X, 
TestParameter, AutoAnalysis.Line1.Point2.XY.Y, 
TestParameter, AutoAnalysis.Line1.Point2.Data.Var, 
TestParameter, AutoAnalysis.Line1.Point2.Data.Condition, 
TestParameter, AutoAnalysis.Line1.Point2.Data.Start, false
TestParameter, AutoAnalysis.Line1.Point2.Data.StartVar, 
TestParameter, AutoAnalysis.Line1.Point2.Data.StartCondition, 
TestParameter, AutoAnalysis.Line1.GradientExpr, 0
TestParameter, AutoAnalysis.Line2.Enabled, false
TestParameter, AutoAnalysis.Line2.Type, 1
TestParameter, AutoAnalysis.Line2.Fix, True
TestParameter, AutoAnalysis.Line2.YAxis, 0
TestParameter, AutoAnalysis.Line2.Point1.Type, 0
TestParameter, AutoAnalysis.Line2.Point1.XY.X, 
TestParameter, AutoAnalysis.Line2.Point1.XY.Y, 
TestParameter, AutoAnalysis.Line2.Point1.Data.Var, 
TestParameter, AutoAnalysis.Line2.Point1.Data.Condition, 
TestParameter, AutoAnalysis.Line2.Point1.Data.Start, false
TestParameter, AutoAnalysis.Line2.Point1.Data.StartVar, 
TestParameter, AutoAnalysis.Line2.Point1.Data.StartCondition, 
TestParameter, AutoAnalysis.Line2.Point2.Type, 0
TestParameter, AutoAnalysis.Line2.Point2.XY.X, 
TestParameter, AutoAnalysis.Line2.Point2.XY.Y, 
TestParameter, AutoAnalysis.Line2.Point2.Data.Var, 
TestParameter, AutoAnalysis.Line2.Point2.Data.Condition, 
TestParameter, AutoAnalysis.Line2.Point2.Data.Start, false
TestParameter, AutoAnalysis.Line2.Point2.Data.StartVar, 
TestParameter, AutoAnalysis.Line2.Point2.Data.StartCondition, 
TestParameter, AutoAnalysis.Line2.GradientExpr, 0
TestParameter, AutoAnalysis.Marker.Enabled, false
TestParameter, AutoAnalysis.Marker.Data.Var, 
TestParameter, AutoAnalysis.Marker.Data.Condition, 
TestParameter, AutoAnalysis.Marker.Data.Start, false
TestParameter, AutoAnalysis.Marker.Data.StartVar, 
TestParameter, AutoAnalysis.Marker.Data.StartCondition, 
MetaData, TestRecord.EntryPoint, true
MetaData, TestRecord.RecordTime, 10/19/2022 15:55:42
MetaData, TestRecord.TestTarget, 
MetaData, TestRecord.IterationIndex, 109
MetaData, TestRecord.Preservation, true
MetaData, TestRecord.Flag, 
MetaData, TestRecord.Remarks, 
MetaData, TestRecord.LinkKey, 01ba0afc-beb0-457f-8d47-66b8245102ed
MetaData, TestRecord.Parameters, 
Dimension1, 101, 101
Dimension2, 1, 1
DataName, V, I
DataValue, -2, -9.388E-08
DataValue, -1.9600000000000002, 8.294E-08
DataValue, -1.9200000000000002, 1.6812E-08
DataValue, -1.8800000000000001, 4.954E-08
DataValue, -1.84, 3.4245999999999995E-09
DataValue, -1.8, 9.882E-08
DataValue, -1.76, 4.4005199999999994E-08
DataValue, -1.72, 9.454E-08
DataValue, -1.6800000000000002, -4.3339999999999996E-08
DataValue, -1.6400000000000001, 9.1899999999999993E-10
DataValue, -1.6, -5.1515999999999995E-09
DataValue, -1.56, -8.372E-08
DataValue, -1.52, 4.2119999999999996E-08
DataValue, -1.48, 2.4052E-09
DataValue, -1.4400000000000002, -3.952E-08
DataValue, -1.4000000000000001, -7.756E-08
DataValue, -1.36, 8.264E-08
DataValue, -1.32, 2.4468E-09
DataValue, -1.28, -1.3626E-07
DataValue, -1.24, 1.616E-08
DataValue, -1.2, -8.358E-08
DataValue, -1.1600000000000001, 4.738E-08
DataValue, -1.12, 8.3485999999999991E-09
DataValue, -1.08, 8.656E-08
DataValue, -1.04, 3.044E-08
DataValue, -1, 4.392E-08
DataValue, -0.96000000000000008, -9.616E-08
DataValue, -0.92, 5.276E-08
DataValue, -0.88, -5.1295999999999993E-09
DataValue, -0.84000000000000008, 4.82E-08
DataValue, -0.8, -3.1575999999999995E-09
DataValue, -0.76, -2.5484E-08
DataValue, -0.72000000000000008, 8.7939999999999992E-08
DataValue, -0.68, 1.332E-08
DataValue, -0.64, 1.126E-08
DataValue, -0.6, -8.174E-08
DataValue, -0.56, 5.038E-08
DataValue, -0.52, 3.2909999999999995E-08
DataValue, -0.48000000000000004, 8.224E-08
DataValue, -0.44, 2.00326E-08
DataValue, -0.4, 1.2712E-07
DataValue, -0.36000000000000004, 8E-09
DataValue, -0.32, 5.156E-08
DataValue, -0.28, -1.132E-07
DataValue, -0.24000000000000002, 7.748E-08
DataValue, -0.2, -8.378E-08
DataValue, -0.16, -2.0914399999999996E-08
DataValue, -0.12000000000000001, 7.75E-08
DataValue, -0.08, -7.526E-08
DataValue, -0.04, -2.4000199999999997E-08
DataValue, 0, -4.59894E-08
DataValue, 0.04, -3.3095799999999996E-08
DataValue, 0.08, 6.9327999999999991E-09
DataValue, 0.12000000000000001, 8.884E-08
DataValue, 0.16, 4.5263799999999997E-08
DataValue, 0.2, 8.902E-08
DataValue, 0.24000000000000002, 3.07014E-08
DataValue, 0.28, 9.5619999999999992E-08
DataValue, 0.32, -4.444E-08
DataValue, 0.36000000000000004, -1.0739999999999998E-09
DataValue, 0.4, 1.71882E-08
DataValue, 0.44, 1.4277999999999999E-07
DataValue, 0.48000000000000004, 1.98166E-08
DataValue, 0.52, 7.716E-08
DataValue, 0.56, -1.05E-07
DataValue, 0.6, -5.0283599999999994E-08
DataValue, 0.64, -2.072E-08
DataValue, 0.68, -4.31E-08
DataValue, 0.72000000000000008, 8.534E-08
DataValue, 0.76, -8.442E-08
DataValue, 0.8, -1.8687199999999998E-08
DataValue, 0.84000000000000008, -1.2508E-07
DataValue, 0.88, -2.8739999999999998E-08
DataValue, 0.92, -4.434E-08
DataValue, 0.96000000000000008, 1.2678E-07
DataValue, 1, 3.6742399999999994E-08
DataValue, 1.04, 9.472E-08
DataValue, 1.08, 2.9238199999999998E-08
DataValue, 1.12, 9.444E-08
DataValue, 1.1600000000000001, -4.442E-08
DataValue, 1.2, 4.416E-09
DataValue, 1.24, 2.04458E-08
DataValue, 1.28, -1.2982E-07
DataValue, 1.32, -4.7619E-08
DataValue, 1.36, -5.4024199999999992E-08
DataValue, 1.4000000000000001, -9.424E-08
DataValue, 1.4400000000000002, 5.276E-08
DataValue, 1.48, 9.286E-08
DataValue, 1.52, 2.1739999999999998E-08
DataValue, 1.56, -5.8842599999999991E-08
DataValue, 1.6, -3.14328E-08
DataValue, 1.6400000000000001, 5.8551999999999994E-09
DataValue, 1.6800000000000002, -1.007E-07
DataValue, 1.72, -2.5507399999999997E-08
DataValue, 1.76, -9.392E-08
DataValue, 1.8, 8.19E-08
DataValue, 1.84, 1.77258E-08
DataValue, 1.8800000000000001, 6.752E-08
DataValue, 1.9200000000000002, -8.958E-08
DataValue, 1.9600000000000002, -1.662E-08
DataValue, 2, -4.606E-08