
SetupTitle, I/V Sweep
PrimitiveTest, I/V Sweep
TestParameter, Context.MainFrame, B1500A
TestParameter, Channel.UnitType, SMU, SMU, SMU, SMU
TestParameter, Channel.Unit, SMU1:HP, SMU2:MP, SMU3:MP, SMU4:MP
TestParameter, Channel.IName, I, IDD1, IDD2, II
TestParameter, Channel.VName, V, VDD1, VDD2, VV
TestParameter, Channel.Mode, V, V, V, V
TestParameter, Channel.Func, VAR1, CONST, CONST, CONST
TestParameter, Channel.Index, 
TestParameter, Channel.Time, 
TestParameter, Measurement.Port.Unit, SMU1:HP, SMU2:MP, SMU3:MP, SMU4:MP
TestParameter, Measurement.Port.SeriesResistor, NONE, NONE, NONE, NONE
TestParameter, Measurement.Port.Filter, ON, ON, ON, ON
TestParameter, Measurement.Port.OutputVoltageComparison, 0, 0, 0, 0
TestParameter, Measurement.Primary.Locus, Single
TestParameter, Measurement.Primary.Scale, LINEAR
TestParameter, Measurement.Primary.Start, -2
TestParameter, Measurement.Primary.Stop, 2
TestParameter, Measurement.Primary.Step, 0.04
TestParameter, Measurement.Primary.Compliance, 0.1
TestParameter, Measurement.Primary.PowerCompliance, 0
TestParameter, Measurement.Aborting.Condition, CONTINUE AT ANY
TestParameter, Measurement.PostOutput.Value, START
TestParameter, Measurement.PostOutput.Retention, OFF
TestParameter, Measurement.Bias.Source, -2, 1.8, 1.1, 0
TestParameter, Measurement.Bias.Compliance, 0.1, 0.1, 0.1, 0.1
TestParameter, Measurement.Monitor.Unit, SMU1:HP, SMU2:MP, SMU3:MP, SMU4:MP
TestParameter, Measurement.Monitor.Adc, HR ADC, HR ADC, HR ADC, HR ADC
TestParameter, Measurement.Monitor.Measurement, Compliance Side, Compliance Side, Compliance Side, Compliance Side
TestParameter, Measurement.Monitor.RangingMode, LIMITED, LIMITED, LIMITED, LIMITED
TestParameter, Measurement.Monitor.RangeBoundary, 1nA, 1nA, 1nA, 1nA
TestParameter, Measurement.Monitor.RangeRating, BY FULL RANGE, BY FULL RANGE, BY FULL RANGE, BY FULL RANGE
TestParameter, Measurement.Monitor.RangeRatingCoeff, 50, 50, 50, 50
TestParameter, Measurement.Timing.Hold, 0
TestParameter, Measurement.Timing.Delay, 0
TestParameter, Measurement.Adc.HighSpeed.Mode, AUTO
TestParameter, Measurement.Adc.HighSpeed.Coeff, 1
TestParameter, Measurement.Adc.HighResolution.AutoZero, OFF
TestParameter, Measurement.Adc.HighResolution.Mode, AUTO
TestParameter, Measurement.Adc.HighResolution.Coeff, 6
TestParameter, Measurement.WaitTime.Source.Coeff, 1
TestParameter, Measurement.WaitTime.Source.Offset, 0
TestParameter, Measurement.WaitTime.Monitor.Coeff, 1
TestParameter, Measurement.WaitTime.Monitor.Offset, 0
TestParameter, Output.Graph.Enabled, true
TestParameter, Output.Graph.AutoScaling, false
TestParameter, Output.Graph.XAxis.Data, V
TestParameter, Output.Graph.XAxis.Scale, Linear
TestParameter, Output.Graph.XAxis.Left, -2
TestParameter, Output.Graph.XAxis.Right, 2
TestParameter, Output.Graph.XAxis.RunTimeAutoScale, true
TestParameter, Output.Graph.YAxis.Data, I
TestParameter, Output.Graph.YAxis.Scale, Linear
TestParameter, Output.Graph.YAxis.Bottom, -0.1
TestParameter, Output.Graph.YAxis.Top, 0.1
TestParameter, Output.Graph.YAxis.Group, 
TestParameter, Output.Graph.YAxis.RunTimeAutoScale, true
TestParameter, AutoAnalysis.Interpolation, false
TestParameter, AutoAnalysis.Var2StepCount, 1
TestParameter, AutoAnalysis.Var2StepScript, 
TestParameter, AutoAnalysis.Line1.Enabled, false
TestParameter, AutoAnalysis.Line1.Type, 1
TestParameter, AutoAnalysis.Line1.Fix, True
TestParameter, AutoAnalysis.Line1.YAxis, 0
TestParameter, AutoAnalysis.Line1.Point1.Type, 0
TestParameter, AutoAnalysis.Line1.Point1.XY.X, 
TestParameter, AutoAnalysis.Line1.Point1.XY.Y, 
TestParameter, AutoAnalysis.Line1.Point1.Data.Var, 
TestParameter, AutoAnalysis.Line1.Point1.Data.Condition, 
TestParameter, AutoAnalysis.Line1.Point1.Data.Start, false
TestParameter, AutoAnalysis.Line1.Point1.Data.StartVar, 
TestParameter, AutoAnalysis.Line1.Point1.Data.StartCondition, 
TestParameter, AutoAnalysis.Line1.Point2.Type, 0
TestParameter, AutoAnalysis.Line1.Point2.XY.X, 
TestParameter, AutoAnalysis.Line1.Point2.XY.Y, 
TestParameter, AutoAnalysis.Line1.Point2.Data.Var, 
TestParameter, AutoAnalysis.Line1.Point2.Data.Condition, 
TestParameter, AutoAnalysis.Line1.Point2.Data.Start, false
TestParameter, AutoAnalysis.Line1.Point2.Data.StartVar, 
TestParameter, AutoAnalysis.Line1.Point2.Data.StartCondition, 
TestParameter, AutoAnalysis.Line1.GradientExpr, 0
TestParameter, AutoAnalysis.Line2.Enabled, false
TestParameter, AutoAnalysis.Line2.Type, 1
TestParameter, AutoAnalysis.Line2.Fix, True
TestParameter, AutoAnalysis.Line2.YAxis, 0
TestParameter, AutoAnalysis.Line2.Point1.Type, 0
TestParameter, AutoAnalysis.Line2.Point1.XY.X, 
TestParameter, AutoAnalysis.Line2.Point1.XY.Y, 
TestParameter, AutoAnalysis.Line2.Point1.Data.Var, 
TestParameter, AutoAnalysis.Line2.Point1.Data.Condition, 
TestParameter, AutoAnalysis.Line2.Point1.Data.Start, false
TestParameter, AutoAnalysis.Line2.Point1.Data.StartVar, 
TestParameter, AutoAnalysis.Line2.Point1.Data.StartCondition, 
TestParameter, AutoAnalysis.Line2.Point2.Type, 0
TestParameter, AutoAnalysis.Line2.Point2.XY.X, 
TestParameter, AutoAnalysis.Line2.Point2.XY.Y, 
TestParameter, AutoAnalysis.Line2.Point2.Data.Var, 
TestParameter, AutoAnalysis.Line2.Point2.Data.Condition, 
TestParameter, AutoAnalysis.Line2.Point2.Data.Start, false
TestParameter, AutoAnalysis.Line2.Point2.Data.StartVar, 
TestParameter, AutoAnalysis.Line2.Point2.Data.StartCondition, 
TestParameter, AutoAnalysis.Line2.GradientExpr, 0
TestParameter, AutoAnalysis.Marker.Enabled, false
TestParameter, AutoAnalysis.Marker.Data.Var, 
TestParameter, AutoAnalysis.Marker.Data.Condition, 
TestParameter, AutoAnalysis.Marker.Data.Start, false
TestParameter, AutoAnalysis.Marker.Data.StartVar, 
TestParameter, AutoAnalysis.Marker.Data.StartCondition, 
MetaData, TestRecord.EntryPoint, true
MetaData, TestRecord.RecordTime, 10/19/2022 16:25:59
MetaData, TestRecord.TestTarget, 
MetaData, TestRecord.IterationIndex, 192
MetaData, TestRecord.Preservation, true
MetaData, TestRecord.Flag, 
MetaData, TestRecord.Remarks, 
MetaData, TestRecord.LinkKey, 51539e2c-6d49-4ad4-a3db-0dbf6f95b15a
MetaData, TestRecord.Parameters, 
Dimension1, 101, 101
Dimension2, 1, 1
DataName, V, I
DataValue, -2, -0.06314800000000001
DataValue, -1.9600000000000002, -0.061968
DataValue, -1.9200000000000002, -0.060748
DataValue, -1.8800000000000001, -0.059510000000000007
DataValue, -1.84, -0.058392000000000006
DataValue, -1.8, -0.056850000000000005
DataValue, -1.76, -0.055634
DataValue, -1.72, -0.054452000000000007
DataValue, -1.6800000000000002, -0.052780000000000007
DataValue, -1.6400000000000001, -0.051388
DataValue, -1.6, -0.050012
DataValue, -1.56, -0.048636000000000006
DataValue, -1.52, -0.047426
DataValue, -1.48, -0.04612
DataValue, -1.4400000000000002, -0.044700000000000004
DataValue, -1.4000000000000001, -0.043396000000000004
DataValue, -1.36, -0.041966
DataValue, -1.32, -0.040670000000000005
DataValue, -1.28, -0.039420000000000004
DataValue, -1.24, -0.03817
DataValue, -1.2, -0.036956
DataValue, -1.1600000000000001, -0.035706
DataValue, -1.12, -0.034524000000000006
DataValue, -1.08, -0.033280000000000004
DataValue, -1.04, -0.032062
DataValue, -1, -0.0308
DataValue, -0.96000000000000008, -0.029566000000000002
DataValue, -0.92, -0.028336000000000004
DataValue, -0.88, -0.027112
DataValue, -0.84000000000000008, -0.025890000000000003
DataValue, -0.8, -0.02468
DataValue, -0.76, -0.023430000000000003
DataValue, -0.72000000000000008, -0.02221
DataValue, -0.68, -0.020982
DataValue, -0.64, -0.019762000000000002
DataValue, -0.6, -0.018544
DataValue, -0.56, -0.017318
DataValue, -0.52, -0.016092000000000002
DataValue, -0.48000000000000004, -0.014872000000000002
DataValue, -0.44, -0.013642000000000001
DataValue, -0.4, -0.01242
DataValue, -0.36000000000000004, -0.011188000000000002
DataValue, -0.32, -0.0099636
DataValue, -0.28, -0.0087248
DataValue, -0.24000000000000002, -0.007489
DataValue, -0.2, -0.0062488000000000005
DataValue, -0.16, -0.0050078
DataValue, -0.12000000000000001, -0.0037614000000000002
DataValue, -0.08, -0.0025112
DataValue, -0.04, -0.0012612
DataValue, 0, -8.2864E-06
DataValue, 0.04, 0.0012472
DataValue, 0.08, 0.0025036
DataValue, 0.12000000000000001, 0.0037624
DataValue, 0.16, 0.0050228
DataValue, 0.2, 0.0062902
DataValue, 0.24000000000000002, 0.0075536000000000006
DataValue, 0.28, 0.008819200000000001
DataValue, 0.32, 0.0100792
DataValue, 0.36000000000000004, 0.0113382
DataValue, 0.4, 0.012620000000000001
DataValue, 0.44, 0.013876000000000001
DataValue, 0.48000000000000004, 0.015138000000000002
DataValue, 0.52, 0.016394000000000002
DataValue, 0.56, 0.017662
DataValue, 0.6, 0.018916000000000002
DataValue, 0.64, 0.02014
DataValue, 0.68, 0.021426
DataValue, 0.72000000000000008, 0.022736000000000003
DataValue, 0.76, 0.024092000000000002
DataValue, 0.8, 0.025574000000000003
DataValue, 0.84000000000000008, 0.026994
DataValue, 0.88, 0.028616000000000003
DataValue, 0.92, 0.030080000000000003
DataValue, 0.96000000000000008, 0.031566000000000004
DataValue, 1, 0.033252000000000004
DataValue, 1.04, 0.034666
DataValue, 1.08, 0.036124
DataValue, 1.12, 0.037610000000000005
DataValue, 1.1600000000000001, 0.039060000000000004
DataValue, 1.2, 0.040532000000000006
DataValue, 1.24, 0.042080000000000006
DataValue, 1.28, 0.043564000000000005
DataValue, 1.32, 0.045166000000000005
DataValue, 1.36, 0.04694
DataValue, 1.4000000000000001, 0.04868
DataValue, 1.4400000000000002, 0.050362000000000004
DataValue, 1.48, 0.051994000000000005
DataValue, 1.52, 0.053110000000000004
DataValue, 1.56, 0.047702
DataValue, 1.6, 0.049826
DataValue, 1.6400000000000001, 0.052280000000000007
DataValue, 1.6800000000000002, 0.055214000000000006
DataValue, 1.72, 0.057578000000000004
DataValue, 1.76, 0.060452000000000006
DataValue, 1.8, 0.063520000000000007
DataValue, 1.84, 0.06628400000000001
DataValue, 1.8800000000000001, 0.068876
DataValue, 1.9200000000000002, 0.071032000000000012
DataValue, 1.9600000000000002, 0.072966
DataValue, 2, 0.076424