
SetupTitle, I/V Sweep
PrimitiveTest, I/V Sweep
TestParameter, Context.MainFrame, B1500A
TestParameter, Channel.UnitType, SMU, SMU, SMU, SMU
TestParameter, Channel.Unit, SMU1:HP, SMU2:MP, SMU3:MP, SMU4:MP
TestParameter, Channel.IName, I, IDD1, IDD2, II
TestParameter, Channel.VName, V, VDD1, VDD2, VV
TestParameter, Channel.Mode, V, V, V, V
TestParameter, Channel.Func, VAR1, CONST, CONST, CONST
TestParameter, Channel.Index, 
TestParameter, Channel.Time, 
TestParameter, Measurement.Port.Unit, SMU1:HP, SMU2:MP, SMU3:MP, SMU4:MP
TestParameter, Measurement.Port.SeriesResistor, NONE, NONE, NONE, NONE
TestParameter, Measurement.Port.Filter, ON, ON, ON, ON
TestParameter, Measurement.Port.OutputVoltageComparison, 0, 0, 0, 0
TestParameter, Measurement.Primary.Locus, Single
TestParameter, Measurement.Primary.Scale, LINEAR
TestParameter, Measurement.Primary.Start, -2
TestParameter, Measurement.Primary.Stop, 2
TestParameter, Measurement.Primary.Step, 0.04
TestParameter, Measurement.Primary.Compliance, 0.1
TestParameter, Measurement.Primary.PowerCompliance, 0
TestParameter, Measurement.Aborting.Condition, CONTINUE AT ANY
TestParameter, Measurement.PostOutput.Value, START
TestParameter, Measurement.PostOutput.Retention, OFF
TestParameter, Measurement.Bias.Source, -2, 1.8, 1.1, 0
TestParameter, Measurement.Bias.Compliance, 0.1, 0.1, 0.1, 0.1
TestParameter, Measurement.Monitor.Unit, SMU1:HP, SMU2:MP, SMU3:MP, SMU4:MP
TestParameter, Measurement.Monitor.Adc, HR ADC, HR ADC, HR ADC, HR ADC
TestParameter, Measurement.Monitor.Measurement, Compliance Side, Compliance Side, Compliance Side, Compliance Side
TestParameter, Measurement.Monitor.RangingMode, LIMITED, LIMITED, LIMITED, LIMITED
TestParameter, Measurement.Monitor.RangeBoundary, 1nA, 1nA, 1nA, 1nA
TestParameter, Measurement.Monitor.RangeRating, BY FULL RANGE, BY FULL RANGE, BY FULL RANGE, BY FULL RANGE
TestParameter, Measurement.Monitor.RangeRatingCoeff, 50, 50, 50, 50
TestParameter, Measurement.Timing.Hold, 0
TestParameter, Measurement.Timing.Delay, 0
TestParameter, Measurement.Adc.HighSpeed.Mode, AUTO
TestParameter, Measurement.Adc.HighSpeed.Coeff, 1
TestParameter, Measurement.Adc.HighResolution.AutoZero, OFF
TestParameter, Measurement.Adc.HighResolution.Mode, AUTO
TestParameter, Measurement.Adc.HighResolution.Coeff, 6
TestParameter, Measurement.WaitTime.Source.Coeff, 1
TestParameter, Measurement.WaitTime.Source.Offset, 0
TestParameter, Measurement.WaitTime.Monitor.Coeff, 1
TestParameter, Measurement.WaitTime.Monitor.Offset, 0
TestParameter, Output.Graph.Enabled, true
TestParameter, Output.Graph.AutoScaling, false
TestParameter, Output.Graph.XAxis.Data, V
TestParameter, Output.Graph.XAxis.Scale, Linear
TestParameter, Output.Graph.XAxis.Left, -2
TestParameter, Output.Graph.XAxis.Right, 2
TestParameter, Output.Graph.XAxis.RunTimeAutoScale, true
TestParameter, Output.Graph.YAxis.Data, I
TestParameter, Output.Graph.YAxis.Scale, Linear
TestParameter, Output.Graph.YAxis.Bottom, -0.1
TestParameter, Output.Graph.YAxis.Top, 0.1
TestParameter, Output.Graph.YAxis.Group, 
TestParameter, Output.Graph.YAxis.RunTimeAutoScale, true
TestParameter, AutoAnalysis.Interpolation, false
TestParameter, AutoAnalysis.Var2StepCount, 1
TestParameter, AutoAnalysis.Var2StepScript, 
TestParameter, AutoAnalysis.Line1.Enabled, false
TestParameter, AutoAnalysis.Line1.Type, 1
TestParameter, AutoAnalysis.Line1.Fix, True
TestParameter, AutoAnalysis.Line1.YAxis, 0
TestParameter, AutoAnalysis.Line1.Point1.Type, 0
TestParameter, AutoAnalysis.Line1.Point1.XY.X, 
TestParameter, AutoAnalysis.Line1.Point1.XY.Y, 
TestParameter, AutoAnalysis.Line1.Point1.Data.Var, 
TestParameter, AutoAnalysis.Line1.Point1.Data.Condition, 
TestParameter, AutoAnalysis.Line1.Point1.Data.Start, false
TestParameter, AutoAnalysis.Line1.Point1.Data.StartVar, 
TestParameter, AutoAnalysis.Line1.Point1.Data.StartCondition, 
TestParameter, AutoAnalysis.Line1.Point2.Type, 0
TestParameter, AutoAnalysis.Line1.Point2.XY.X, 
TestParameter, AutoAnalysis.Line1.Point2.XY.Y, 
TestParameter, AutoAnalysis.Line1.Point2.Data.Var, 
TestParameter, AutoAnalysis.Line1.Point2.Data.Condition, 
TestParameter, AutoAnalysis.Line1.Point2.Data.Start, false
TestParameter, AutoAnalysis.Line1.Point2.Data.StartVar, 
TestParameter, AutoAnalysis.Line1.Point2.Data.StartCondition, 
TestParameter, AutoAnalysis.Line1.GradientExpr, 0
TestParameter, AutoAnalysis.Line2.Enabled, false
TestParameter, AutoAnalysis.Line2.Type, 1
TestParameter, AutoAnalysis.Line2.Fix, True
TestParameter, AutoAnalysis.Line2.YAxis, 0
TestParameter, AutoAnalysis.Line2.Point1.Type, 0
TestParameter, AutoAnalysis.Line2.Point1.XY.X, 
TestParameter, AutoAnalysis.Line2.Point1.XY.Y, 
TestParameter, AutoAnalysis.Line2.Point1.Data.Var, 
TestParameter, AutoAnalysis.Line2.Point1.Data.Condition, 
TestParameter, AutoAnalysis.Line2.Point1.Data.Start, false
TestParameter, AutoAnalysis.Line2.Point1.Data.StartVar, 
TestParameter, AutoAnalysis.Line2.Point1.Data.StartCondition, 
TestParameter, AutoAnalysis.Line2.Point2.Type, 0
TestParameter, AutoAnalysis.Line2.Point2.XY.X, 
TestParameter, AutoAnalysis.Line2.Point2.XY.Y, 
TestParameter, AutoAnalysis.Line2.Point2.Data.Var, 
TestParameter, AutoAnalysis.Line2.Point2.Data.Condition, 
TestParameter, AutoAnalysis.Line2.Point2.Data.Start, false
TestParameter, AutoAnalysis.Line2.Point2.Data.StartVar, 
TestParameter, AutoAnalysis.Line2.Point2.Data.StartCondition, 
TestParameter, AutoAnalysis.Line2.GradientExpr, 0
TestParameter, AutoAnalysis.Marker.Enabled, false
TestParameter, AutoAnalysis.Marker.Data.Var, 
TestParameter, AutoAnalysis.Marker.Data.Condition, 
TestParameter, AutoAnalysis.Marker.Data.Start, false
TestParameter, AutoAnalysis.Marker.Data.StartVar, 
TestParameter, AutoAnalysis.Marker.Data.StartCondition, 
MetaData, TestRecord.EntryPoint, true
MetaData, TestRecord.RecordTime, 10/19/2022 16:29:36
MetaData, TestRecord.TestTarget, 
MetaData, TestRecord.IterationIndex, 2
MetaData, TestRecord.Preservation, true
MetaData, TestRecord.Flag, 
MetaData, TestRecord.Remarks, 
MetaData, TestRecord.LinkKey, 177e7101-7efa-42fd-8977-ed24b460e687
MetaData, TestRecord.Parameters, 
Dimension1, 101, 101
Dimension2, 1, 1
DataName, V, I
DataValue, -2, -0.041282000000000006
DataValue, -1.9600000000000002, -0.041002000000000004
DataValue, -1.9200000000000002, -0.040452
DataValue, -1.8800000000000001, -0.039716
DataValue, -1.84, -0.038924
DataValue, -1.8, -0.038096000000000005
DataValue, -1.76, -0.037242000000000004
DataValue, -1.72, -0.03636
DataValue, -1.6800000000000002, -0.035476
DataValue, -1.6400000000000001, -0.034584000000000004
DataValue, -1.6, -0.033684000000000006
DataValue, -1.56, -0.032772
DataValue, -1.52, -0.031854
DataValue, -1.48, -0.030928000000000004
DataValue, -1.4400000000000002, -0.029990000000000003
DataValue, -1.4000000000000001, -0.029050000000000003
DataValue, -1.36, -0.028108
DataValue, -1.32, -0.027150000000000004
DataValue, -1.28, -0.02619
DataValue, -1.24, -0.025216000000000002
DataValue, -1.2, -0.024248000000000002
DataValue, -1.1600000000000001, -0.023266000000000002
DataValue, -1.12, -0.022282000000000003
DataValue, -1.08, -0.021292000000000002
DataValue, -1.04, -0.020302
DataValue, -1, -0.019298000000000003
DataValue, -0.96000000000000008, -0.018298000000000002
DataValue, -0.92, -0.017292000000000002
DataValue, -0.88, -0.016288
DataValue, -0.84000000000000008, -0.015278000000000002
DataValue, -0.8, -0.014266000000000001
DataValue, -0.76, -0.013260000000000001
DataValue, -0.72000000000000008, -0.012252
DataValue, -0.68, -0.011244
DataValue, -0.64, -0.010244000000000001
DataValue, -0.6, -0.0092586
DataValue, -0.56, -0.0082724000000000009
DataValue, -0.52, -0.0072964
DataValue, -0.48000000000000004, -0.0063374
DataValue, -0.44, -0.0053992
DataValue, -0.4, -0.0044864
DataValue, -0.36000000000000004, -0.0036096
DataValue, -0.32, -0.0027806000000000003
DataValue, -0.28, -0.0020158
DataValue, -0.24000000000000002, -0.0013422
DataValue, -0.2, -0.00079344000000000007
DataValue, -0.16, -0.00039926
DataValue, -0.12000000000000001, -0.00017188000000000002
DataValue, -0.08, -6.681E-05
DataValue, -0.04, -1.949E-05
DataValue, 0, 3.1704E-07
DataValue, 0.04, 8.0169000000000011E-06
DataValue, 0.08, 1.1494E-05
DataValue, 0.12000000000000001, 1.4118000000000001E-05
DataValue, 0.16, 1.7156E-05
DataValue, 0.2, 2.1868E-05
DataValue, 0.24000000000000002, 3.1494E-05
DataValue, 0.28, 4.7486E-05
DataValue, 0.32, 7.1E-05
DataValue, 0.36000000000000004, 8.8852000000000009E-05
DataValue, 0.4, 0.00010528000000000001
DataValue, 0.44, 0.00014404
DataValue, 0.48000000000000004, 0.00019546
DataValue, 0.52, 0.00028928
DataValue, 0.56, 0.00044736000000000005
DataValue, 0.6, 0.00072052
DataValue, 0.64, 0.00115002
DataValue, 0.68, 0.001752
DataValue, 0.72000000000000008, 0.0024924
DataValue, 0.76, 0.003343
DataValue, 0.8, 0.0042802000000000005
DataValue, 0.84000000000000008, 0.0052894000000000005
DataValue, 0.88, 0.0063558
DataValue, 0.92, 0.0074734
DataValue, 0.96000000000000008, 0.0086268
DataValue, 1, 0.0098144000000000009
DataValue, 1.04, 0.011026000000000001
DataValue, 1.08, 0.012260000000000002
DataValue, 1.12, 0.013498000000000001
DataValue, 1.1600000000000001, 0.014746
DataValue, 1.2, 0.016002000000000002
DataValue, 1.24, 0.017266
DataValue, 1.28, 0.018494
DataValue, 1.32, 0.019742000000000003
DataValue, 1.36, 0.020980000000000002
DataValue, 1.4000000000000001, 0.022178000000000003
DataValue, 1.4400000000000002, 0.023362
DataValue, 1.48, 0.024562
DataValue, 1.52, 0.025746
DataValue, 1.56, 0.026920000000000003
DataValue, 1.6, 0.028088000000000002
DataValue, 1.6400000000000001, 0.029244000000000003
DataValue, 1.6800000000000002, 0.030382000000000003
DataValue, 1.72, 0.031504000000000004
DataValue, 1.76, 0.032630000000000006
DataValue, 1.8, 0.033748
DataValue, 1.84, 0.034892000000000006
DataValue, 1.8800000000000001, 0.036128
DataValue, 1.9200000000000002, 0.037392
DataValue, 1.9600000000000002, 0.041806
DataValue, 2, 0.045764000000000006