
SetupTitle, I/V Sweep
PrimitiveTest, I/V Sweep
TestParameter, Context.MainFrame, B1500A
TestParameter, Channel.UnitType, SMU, SMU, SMU, SMU
TestParameter, Channel.Unit, SMU1:HP, SMU2:MP, SMU3:MP, SMU4:MP
TestParameter, Channel.IName, I, IDD1, IDD2, II
TestParameter, Channel.VName, V, VDD1, VDD2, VV
TestParameter, Channel.Mode, V, V, V, V
TestParameter, Channel.Func, VAR1, CONST, CONST, CONST
TestParameter, Channel.Index, 
TestParameter, Channel.Time, 
TestParameter, Measurement.Port.Unit, SMU1:HP, SMU2:MP, SMU3:MP, SMU4:MP
TestParameter, Measurement.Port.SeriesResistor, NONE, NONE, NONE, NONE
TestParameter, Measurement.Port.Filter, ON, ON, ON, ON
TestParameter, Measurement.Port.OutputVoltageComparison, 0, 0, 0, 0
TestParameter, Measurement.Primary.Locus, Single
TestParameter, Measurement.Primary.Scale, LINEAR
TestParameter, Measurement.Primary.Start, -2
TestParameter, Measurement.Primary.Stop, 2
TestParameter, Measurement.Primary.Step, 0.04
TestParameter, Measurement.Primary.Compliance, 0.1
TestParameter, Measurement.Primary.PowerCompliance, 0
TestParameter, Measurement.Aborting.Condition, CONTINUE AT ANY
TestParameter, Measurement.PostOutput.Value, START
TestParameter, Measurement.PostOutput.Retention, OFF
TestParameter, Measurement.Bias.Source, -2, 1.8, 1.1, 0
TestParameter, Measurement.Bias.Compliance, 0.1, 0.1, 0.1, 0.1
TestParameter, Measurement.Monitor.Unit, SMU1:HP, SMU2:MP, SMU3:MP, SMU4:MP
TestParameter, Measurement.Monitor.Adc, HR ADC, HR ADC, HR ADC, HR ADC
TestParameter, Measurement.Monitor.Measurement, Compliance Side, Compliance Side, Compliance Side, Compliance Side
TestParameter, Measurement.Monitor.RangingMode, LIMITED, LIMITED, LIMITED, LIMITED
TestParameter, Measurement.Monitor.RangeBoundary, 1nA, 1nA, 1nA, 1nA
TestParameter, Measurement.Monitor.RangeRating, BY FULL RANGE, BY FULL RANGE, BY FULL RANGE, BY FULL RANGE
TestParameter, Measurement.Monitor.RangeRatingCoeff, 50, 50, 50, 50
TestParameter, Measurement.Timing.Hold, 0
TestParameter, Measurement.Timing.Delay, 0
TestParameter, Measurement.Adc.HighSpeed.Mode, AUTO
TestParameter, Measurement.Adc.HighSpeed.Coeff, 1
TestParameter, Measurement.Adc.HighResolution.AutoZero, OFF
TestParameter, Measurement.Adc.HighResolution.Mode, AUTO
TestParameter, Measurement.Adc.HighResolution.Coeff, 6
TestParameter, Measurement.WaitTime.Source.Coeff, 1
TestParameter, Measurement.WaitTime.Source.Offset, 0
TestParameter, Measurement.WaitTime.Monitor.Coeff, 1
TestParameter, Measurement.WaitTime.Monitor.Offset, 0
TestParameter, Output.Graph.Enabled, true
TestParameter, Output.Graph.AutoScaling, false
TestParameter, Output.Graph.XAxis.Data, V
TestParameter, Output.Graph.XAxis.Scale, Linear
TestParameter, Output.Graph.XAxis.Left, -2
TestParameter, Output.Graph.XAxis.Right, 2
TestParameter, Output.Graph.XAxis.RunTimeAutoScale, true
TestParameter, Output.Graph.YAxis.Data, I
TestParameter, Output.Graph.YAxis.Scale, Linear
TestParameter, Output.Graph.YAxis.Bottom, -0.1
TestParameter, Output.Graph.YAxis.Top, 0.1
TestParameter, Output.Graph.YAxis.Group, 
TestParameter, Output.Graph.YAxis.RunTimeAutoScale, true
TestParameter, AutoAnalysis.Interpolation, false
TestParameter, AutoAnalysis.Var2StepCount, 1
TestParameter, AutoAnalysis.Var2StepScript, 
TestParameter, AutoAnalysis.Line1.Enabled, false
TestParameter, AutoAnalysis.Line1.Type, 1
TestParameter, AutoAnalysis.Line1.Fix, True
TestParameter, AutoAnalysis.Line1.YAxis, 0
TestParameter, AutoAnalysis.Line1.Point1.Type, 0
TestParameter, AutoAnalysis.Line1.Point1.XY.X, 
TestParameter, AutoAnalysis.Line1.Point1.XY.Y, 
TestParameter, AutoAnalysis.Line1.Point1.Data.Var, 
TestParameter, AutoAnalysis.Line1.Point1.Data.Condition, 
TestParameter, AutoAnalysis.Line1.Point1.Data.Start, false
TestParameter, AutoAnalysis.Line1.Point1.Data.StartVar, 
TestParameter, AutoAnalysis.Line1.Point1.Data.StartCondition, 
TestParameter, AutoAnalysis.Line1.Point2.Type, 0
TestParameter, AutoAnalysis.Line1.Point2.XY.X, 
TestParameter, AutoAnalysis.Line1.Point2.XY.Y, 
TestParameter, AutoAnalysis.Line1.Point2.Data.Var, 
TestParameter, AutoAnalysis.Line1.Point2.Data.Condition, 
TestParameter, AutoAnalysis.Line1.Point2.Data.Start, false
TestParameter, AutoAnalysis.Line1.Point2.Data.StartVar, 
TestParameter, AutoAnalysis.Line1.Point2.Data.StartCondition, 
TestParameter, AutoAnalysis.Line1.GradientExpr, 0
TestParameter, AutoAnalysis.Line2.Enabled, false
TestParameter, AutoAnalysis.Line2.Type, 1
TestParameter, AutoAnalysis.Line2.Fix, True
TestParameter, AutoAnalysis.Line2.YAxis, 0
TestParameter, AutoAnalysis.Line2.Point1.Type, 0
TestParameter, AutoAnalysis.Line2.Point1.XY.X, 
TestParameter, AutoAnalysis.Line2.Point1.XY.Y, 
TestParameter, AutoAnalysis.Line2.Point1.Data.Var, 
TestParameter, AutoAnalysis.Line2.Point1.Data.Condition, 
TestParameter, AutoAnalysis.Line2.Point1.Data.Start, false
TestParameter, AutoAnalysis.Line2.Point1.Data.StartVar, 
TestParameter, AutoAnalysis.Line2.Point1.Data.StartCondition, 
TestParameter, AutoAnalysis.Line2.Point2.Type, 0
TestParameter, AutoAnalysis.Line2.Point2.XY.X, 
TestParameter, AutoAnalysis.Line2.Point2.XY.Y, 
TestParameter, AutoAnalysis.Line2.Point2.Data.Var, 
TestParameter, AutoAnalysis.Line2.Point2.Data.Condition, 
TestParameter, AutoAnalysis.Line2.Point2.Data.Start, false
TestParameter, AutoAnalysis.Line2.Point2.Data.StartVar, 
TestParameter, AutoAnalysis.Line2.Point2.Data.StartCondition, 
TestParameter, AutoAnalysis.Line2.GradientExpr, 0
TestParameter, AutoAnalysis.Marker.Enabled, false
TestParameter, AutoAnalysis.Marker.Data.Var, 
TestParameter, AutoAnalysis.Marker.Data.Condition, 
TestParameter, AutoAnalysis.Marker.Data.Start, false
TestParameter, AutoAnalysis.Marker.Data.StartVar, 
TestParameter, AutoAnalysis.Marker.Data.StartCondition, 
MetaData, TestRecord.EntryPoint, true
MetaData, TestRecord.RecordTime, 10/19/2022 16:24:45
MetaData, TestRecord.TestTarget, 
MetaData, TestRecord.IterationIndex, 186
MetaData, TestRecord.Preservation, true
MetaData, TestRecord.Flag, 
MetaData, TestRecord.Remarks, 
MetaData, TestRecord.LinkKey, e89d18bc-a985-4bfc-85c0-0a3f50b3cb8b
MetaData, TestRecord.Parameters, 
Dimension1, 101, 101
Dimension2, 1, 1
DataName, V, I
DataValue, -2, -0.046008000000000007
DataValue, -1.9600000000000002, -0.045194000000000005
DataValue, -1.9200000000000002, -0.04664
DataValue, -1.8800000000000001, -0.046594000000000003
DataValue, -1.84, -0.046740000000000004
DataValue, -1.8, -0.045302
DataValue, -1.76, -0.043812000000000004
DataValue, -1.72, -0.042132
DataValue, -1.6800000000000002, -0.040434000000000005
DataValue, -1.6400000000000001, -0.038684
DataValue, -1.6, -0.036938000000000006
DataValue, -1.56, -0.035172
DataValue, -1.52, -0.033406000000000005
DataValue, -1.48, -0.031638
DataValue, -1.4400000000000002, -0.029874
DataValue, -1.4000000000000001, -0.028114000000000004
DataValue, -1.36, -0.026358000000000003
DataValue, -1.32, -0.024612000000000002
DataValue, -1.28, -0.022872000000000003
DataValue, -1.24, -0.021144000000000003
DataValue, -1.2, -0.019434000000000003
DataValue, -1.1600000000000001, -0.017742
DataValue, -1.12, -0.016066
DataValue, -1.08, -0.014426000000000001
DataValue, -1.04, -0.012818000000000001
DataValue, -1, -0.011260000000000001
DataValue, -0.96000000000000008, -0.0097566
DataValue, -0.92, -0.0083072
DataValue, -0.88, -0.0069322
DataValue, -0.84000000000000008, -0.0056296
DataValue, -0.8, -0.0044102
DataValue, -0.76, -0.0032828
DataValue, -0.72000000000000008, -0.0022634
DataValue, -0.68, -0.001382
DataValue, -0.64, -0.00069344
DataValue, -0.6, -0.00026346000000000003
DataValue, -0.56, -7.9462E-05
DataValue, -0.52, -2.358E-05
DataValue, -0.48000000000000004, -8.0629E-06
DataValue, -0.44, -3.3237000000000005E-06
DataValue, -0.4, -1.5853E-06
DataValue, -0.36000000000000004, -8.0226E-07
DataValue, -0.32, -4.777E-07
DataValue, -0.28, -2.7742E-07
DataValue, -0.24000000000000002, -1.339E-07
DataValue, -0.2, -8.30224E-08
DataValue, -0.16, -4.7853399999999994E-08
DataValue, -0.12000000000000001, -2.0642199999999998E-08
DataValue, -0.08, -5.6206E-09
DataValue, -0.04, 1.5171799999999998E-08
DataValue, 0, 2.8017E-08
DataValue, 0.04, 4.06292E-08
DataValue, 0.08, 5.5875599999999995E-08
DataValue, 0.12000000000000001, 7.832319999999999E-08
DataValue, 0.16, 1.1928E-07
DataValue, 0.2, 2.163E-07
DataValue, 0.24000000000000002, 3.831E-07
DataValue, 0.28, 5.563E-07
DataValue, 0.32, 7.0004E-07
DataValue, 0.36000000000000004, 5.8088E-07
DataValue, 0.4, 9.4794E-07
DataValue, 0.44, 1.0435E-06
DataValue, 0.48000000000000004, 1.6279000000000001E-06
DataValue, 0.52, 2.3900000000000004E-06
DataValue, 0.56, 4.2163000000000006E-06
DataValue, 0.6, 9.9944E-06
DataValue, 0.64, 2.9228000000000002E-05
DataValue, 0.68, 9.5984000000000008E-05
DataValue, 0.72000000000000008, 0.00029182000000000004
DataValue, 0.76, 0.00068594
DataValue, 0.8, 0.0012490000000000001
DataValue, 0.84000000000000008, 0.0019192
DataValue, 0.88, 0.002656
DataValue, 0.92, 0.0034344
DataValue, 0.96000000000000008, 0.0042408
DataValue, 1, 0.005069
DataValue, 1.04, 0.0059118
DataValue, 1.08, 0.0067674
DataValue, 1.12, 0.0076278000000000006
DataValue, 1.1600000000000001, 0.0084992
DataValue, 1.2, 0.0093762
DataValue, 1.24, 0.0102582
DataValue, 1.28, 0.011144
DataValue, 1.32, 0.012042
DataValue, 1.36, 0.012934000000000001
DataValue, 1.4000000000000001, 0.013826000000000002
DataValue, 1.4400000000000002, 0.014724000000000001
DataValue, 1.48, 0.015622000000000002
DataValue, 1.52, 0.01652
DataValue, 1.56, 0.017424000000000002
DataValue, 1.6, 0.018326000000000002
DataValue, 1.6400000000000001, 0.019232000000000003
DataValue, 1.6800000000000002, 0.02014
DataValue, 1.72, 0.021048
DataValue, 1.76, 0.021956000000000003
DataValue, 1.8, 0.022904
DataValue, 1.84, 0.023826000000000003
DataValue, 1.8800000000000001, 0.024752000000000003
DataValue, 1.9200000000000002, 0.025686000000000004
DataValue, 1.9600000000000002, 0.026608000000000003
DataValue, 2, 0.027532