
SetupTitle, I/V Sweep
PrimitiveTest, I/V Sweep
TestParameter, Context.MainFrame, B1500A
TestParameter, Channel.UnitType, SMU, SMU, SMU, SMU
TestParameter, Channel.Unit, SMU1:HP, SMU2:MP, SMU3:MP, SMU4:MP
TestParameter, Channel.IName, I, IDD1, IDD2, II
TestParameter, Channel.VName, V, VDD1, VDD2, VV
TestParameter, Channel.Mode, V, V, V, V
TestParameter, Channel.Func, VAR1, CONST, CONST, CONST
TestParameter, Channel.Index, 
TestParameter, Channel.Time, 
TestParameter, Measurement.Port.Unit, SMU1:HP, SMU2:MP, SMU3:MP, SMU4:MP
TestParameter, Measurement.Port.SeriesResistor, NONE, NONE, NONE, NONE
TestParameter, Measurement.Port.Filter, ON, ON, ON, ON
TestParameter, Measurement.Port.OutputVoltageComparison, 0, 0, 0, 0
TestParameter, Measurement.Primary.Locus, Single
TestParameter, Measurement.Primary.Scale, LINEAR
TestParameter, Measurement.Primary.Start, -2
TestParameter, Measurement.Primary.Stop, 2
TestParameter, Measurement.Primary.Step, 0.04
TestParameter, Measurement.Primary.Compliance, 0.1
TestParameter, Measurement.Primary.PowerCompliance, 0
TestParameter, Measurement.Aborting.Condition, CONTINUE AT ANY
TestParameter, Measurement.PostOutput.Value, START
TestParameter, Measurement.PostOutput.Retention, OFF
TestParameter, Measurement.Bias.Source, -2, 1.8, 1.1, 0
TestParameter, Measurement.Bias.Compliance, 0.1, 0.1, 0.1, 0.1
TestParameter, Measurement.Monitor.Unit, SMU1:HP, SMU2:MP, SMU3:MP, SMU4:MP
TestParameter, Measurement.Monitor.Adc, HR ADC, HR ADC, HR ADC, HR ADC
TestParameter, Measurement.Monitor.Measurement, Compliance Side, Compliance Side, Compliance Side, Compliance Side
TestParameter, Measurement.Monitor.RangingMode, LIMITED, LIMITED, LIMITED, LIMITED
TestParameter, Measurement.Monitor.RangeBoundary, 1nA, 1nA, 1nA, 1nA
TestParameter, Measurement.Monitor.RangeRating, BY FULL RANGE, BY FULL RANGE, BY FULL RANGE, BY FULL RANGE
TestParameter, Measurement.Monitor.RangeRatingCoeff, 50, 50, 50, 50
TestParameter, Measurement.Timing.Hold, 0
TestParameter, Measurement.Timing.Delay, 0
TestParameter, Measurement.Adc.HighSpeed.Mode, AUTO
TestParameter, Measurement.Adc.HighSpeed.Coeff, 1
TestParameter, Measurement.Adc.HighResolution.AutoZero, OFF
TestParameter, Measurement.Adc.HighResolution.Mode, AUTO
TestParameter, Measurement.Adc.HighResolution.Coeff, 6
TestParameter, Measurement.WaitTime.Source.Coeff, 1
TestParameter, Measurement.WaitTime.Source.Offset, 0
TestParameter, Measurement.WaitTime.Monitor.Coeff, 1
TestParameter, Measurement.WaitTime.Monitor.Offset, 0
TestParameter, Output.Graph.Enabled, true
TestParameter, Output.Graph.AutoScaling, false
TestParameter, Output.Graph.XAxis.Data, V
TestParameter, Output.Graph.XAxis.Scale, Linear
TestParameter, Output.Graph.XAxis.Left, -2
TestParameter, Output.Graph.XAxis.Right, 2
TestParameter, Output.Graph.XAxis.RunTimeAutoScale, true
TestParameter, Output.Graph.YAxis.Data, I
TestParameter, Output.Graph.YAxis.Scale, Linear
TestParameter, Output.Graph.YAxis.Bottom, -0.1
TestParameter, Output.Graph.YAxis.Top, 0.1
TestParameter, Output.Graph.YAxis.Group, 
TestParameter, Output.Graph.YAxis.RunTimeAutoScale, true
TestParameter, AutoAnalysis.Interpolation, false
TestParameter, AutoAnalysis.Var2StepCount, 1
TestParameter, AutoAnalysis.Var2StepScript, 
TestParameter, AutoAnalysis.Line1.Enabled, false
TestParameter, AutoAnalysis.Line1.Type, 1
TestParameter, AutoAnalysis.Line1.Fix, True
TestParameter, AutoAnalysis.Line1.YAxis, 0
TestParameter, AutoAnalysis.Line1.Point1.Type, 0
TestParameter, AutoAnalysis.Line1.Point1.XY.X, 
TestParameter, AutoAnalysis.Line1.Point1.XY.Y, 
TestParameter, AutoAnalysis.Line1.Point1.Data.Var, 
TestParameter, AutoAnalysis.Line1.Point1.Data.Condition, 
TestParameter, AutoAnalysis.Line1.Point1.Data.Start, false
TestParameter, AutoAnalysis.Line1.Point1.Data.StartVar, 
TestParameter, AutoAnalysis.Line1.Point1.Data.StartCondition, 
TestParameter, AutoAnalysis.Line1.Point2.Type, 0
TestParameter, AutoAnalysis.Line1.Point2.XY.X, 
TestParameter, AutoAnalysis.Line1.Point2.XY.Y, 
TestParameter, AutoAnalysis.Line1.Point2.Data.Var, 
TestParameter, AutoAnalysis.Line1.Point2.Data.Condition, 
TestParameter, AutoAnalysis.Line1.Point2.Data.Start, false
TestParameter, AutoAnalysis.Line1.Point2.Data.StartVar, 
TestParameter, AutoAnalysis.Line1.Point2.Data.StartCondition, 
TestParameter, AutoAnalysis.Line1.GradientExpr, 0
TestParameter, AutoAnalysis.Line2.Enabled, false
TestParameter, AutoAnalysis.Line2.Type, 1
TestParameter, AutoAnalysis.Line2.Fix, True
TestParameter, AutoAnalysis.Line2.YAxis, 0
TestParameter, AutoAnalysis.Line2.Point1.Type, 0
TestParameter, AutoAnalysis.Line2.Point1.XY.X, 
TestParameter, AutoAnalysis.Line2.Point1.XY.Y, 
TestParameter, AutoAnalysis.Line2.Point1.Data.Var, 
TestParameter, AutoAnalysis.Line2.Point1.Data.Condition, 
TestParameter, AutoAnalysis.Line2.Point1.Data.Start, false
TestParameter, AutoAnalysis.Line2.Point1.Data.StartVar, 
TestParameter, AutoAnalysis.Line2.Point1.Data.StartCondition, 
TestParameter, AutoAnalysis.Line2.Point2.Type, 0
TestParameter, AutoAnalysis.Line2.Point2.XY.X, 
TestParameter, AutoAnalysis.Line2.Point2.XY.Y, 
TestParameter, AutoAnalysis.Line2.Point2.Data.Var, 
TestParameter, AutoAnalysis.Line2.Point2.Data.Condition, 
TestParameter, AutoAnalysis.Line2.Point2.Data.Start, false
TestParameter, AutoAnalysis.Line2.Point2.Data.StartVar, 
TestParameter, AutoAnalysis.Line2.Point2.Data.StartCondition, 
TestParameter, AutoAnalysis.Line2.GradientExpr, 0
TestParameter, AutoAnalysis.Marker.Enabled, false
TestParameter, AutoAnalysis.Marker.Data.Var, 
TestParameter, AutoAnalysis.Marker.Data.Condition, 
TestParameter, AutoAnalysis.Marker.Data.Start, false
TestParameter, AutoAnalysis.Marker.Data.StartVar, 
TestParameter, AutoAnalysis.Marker.Data.StartCondition, 
MetaData, TestRecord.EntryPoint, true
MetaData, TestRecord.RecordTime, 10/19/2022 16:19:09
MetaData, TestRecord.TestTarget, 
MetaData, TestRecord.IterationIndex, 169
MetaData, TestRecord.Preservation, true
MetaData, TestRecord.Flag, 
MetaData, TestRecord.Remarks, 
MetaData, TestRecord.LinkKey, db26643b-eacd-4a8b-afea-22b9a07d860f
MetaData, TestRecord.Parameters, 
Dimension1, 101, 101
Dimension2, 1, 1
DataName, V, I
DataValue, -2, -0.03762
DataValue, -1.9600000000000002, -0.036306000000000005
DataValue, -1.9200000000000002, -0.035192
DataValue, -1.8800000000000001, -0.034122
DataValue, -1.84, -0.033066000000000005
DataValue, -1.8, -0.031954
DataValue, -1.76, -0.030826000000000003
DataValue, -1.72, -0.029712000000000002
DataValue, -1.6800000000000002, -0.028616000000000003
DataValue, -1.6400000000000001, -0.027486000000000003
DataValue, -1.6, -0.026358000000000003
DataValue, -1.56, -0.025242
DataValue, -1.52, -0.024118
DataValue, -1.48, -0.023010000000000003
DataValue, -1.4400000000000002, -0.021904000000000003
DataValue, -1.4000000000000001, -0.020806
DataValue, -1.36, -0.019718000000000003
DataValue, -1.32, -0.018652000000000002
DataValue, -1.28, -0.017588000000000003
DataValue, -1.24, -0.016540000000000003
DataValue, -1.2, -0.015502000000000002
DataValue, -1.1600000000000001, -0.014466000000000001
DataValue, -1.12, -0.013436000000000002
DataValue, -1.08, -0.012414000000000001
DataValue, -1.04, -0.011398
DataValue, -1, -0.010394
DataValue, -0.96000000000000008, -0.0093936
DataValue, -0.92, -0.008401200000000001
DataValue, -0.88, -0.0074198
DataValue, -0.84000000000000008, -0.0064518
DataValue, -0.8, -0.0054994
DataValue, -0.76, -0.0045726000000000004
DataValue, -0.72000000000000008, -0.003673
DataValue, -0.68, -0.0028138
DataValue, -0.64, -0.0020142
DataValue, -0.6, -0.0012980000000000001
DataValue, -0.56, -0.00070778000000000008
DataValue, -0.52, -0.00029752
DataValue, -0.48000000000000004, -9.2328E-05
DataValue, -0.44, -2.3626E-05
DataValue, -0.4, -5.7916000000000006E-06
DataValue, -0.36000000000000004, -1.4892E-06
DataValue, -0.32, -4.2337999999999997E-07
DataValue, -0.28, -1.5958E-07
DataValue, -0.24000000000000002, -7.7463399999999992E-08
DataValue, -0.2, -2.5295199999999997E-08
DataValue, -0.16, -1.98538E-08
DataValue, -0.12000000000000001, 1.3597999999999998E-09
DataValue, -0.08, -7.4871999999999987E-09
DataValue, -0.04, 2.16336E-08
DataValue, 0, 3.30104E-08
DataValue, 0.04, 1.3088E-07
DataValue, 0.08, 4.7804E-07
DataValue, 0.12000000000000001, 8.1588E-07
DataValue, 0.16, 1.6064000000000002E-06
DataValue, 0.2, 1.5814000000000002E-06
DataValue, 0.24000000000000002, 1.7881E-06
DataValue, 0.28, 2.1268E-06
DataValue, 0.32, 2.5801E-06
DataValue, 0.36000000000000004, 3.1054000000000004E-06
DataValue, 0.4, 3.9179E-06
DataValue, 0.44, 5.2518E-06
DataValue, 0.48000000000000004, 7.13E-06
DataValue, 0.52, 9.6749000000000012E-06
DataValue, 0.56, 1.2754E-05
DataValue, 0.6, 1.6786E-05
DataValue, 0.64, 2.0810000000000002E-05
DataValue, 0.68, 2.5108E-05
DataValue, 0.72000000000000008, 2.9854000000000002E-05
DataValue, 0.76, 3.5288E-05
DataValue, 0.8, 4.1454E-05
DataValue, 0.84000000000000008, 4.9096E-05
DataValue, 0.88, 5.8048000000000004E-05
DataValue, 0.92, 6.9622E-05
DataValue, 0.96000000000000008, 0.00029488
DataValue, 1, 0.00059292
DataValue, 1.04, 0.00069044000000000006
DataValue, 1.08, 0.0008063
DataValue, 1.12, 0.00095288
DataValue, 1.1600000000000001, 0.00108474
DataValue, 1.2, 0.0007603
DataValue, 1.24, 0.00112256
DataValue, 1.28, 0.001563
DataValue, 1.32, 0.0020732
DataValue, 1.36, 0.0026378
DataValue, 1.4000000000000001, 0.0032492000000000003
DataValue, 1.4400000000000002, 0.0038944
DataValue, 1.48, 0.004573
DataValue, 1.52, 0.0052736
DataValue, 1.56, 0.0059964
DataValue, 1.6, 0.0067356000000000004
DataValue, 1.6400000000000001, 0.0074944
DataValue, 1.6800000000000002, 0.008259
DataValue, 1.72, 0.0090378
DataValue, 1.76, 0.0098254
DataValue, 1.8, 0.0106234
DataValue, 1.84, 0.0114268
DataValue, 1.8800000000000001, 0.012240000000000001
DataValue, 1.9200000000000002, 0.013056000000000002
DataValue, 1.9600000000000002, 0.013880000000000002
DataValue, 2, 0.014698000000000001